!Agilent N9923A: A.07.32
!Date: Thursday, 02 June 2016 02:09:20
!Model: N9923A
!Serial: MY52412257
!GPS Latitude: 
!GPS Longitude: 
!GPS TimeStamp: 0001-01-01 00:00:00Z
!GPS Seconds Since Last Read: 0
!CHECKSUM:1007720907
!Correction: S11(ON U)S21(ON U)S12(ON U)S22(ON U)
!S2P File: Measurements:S11,S21,S12,S22:
# Hz S DB R 50
1950000000	-14.327227086091	72.0472342362811	8.92762929989601	-121.009482876725	-27.8992783442073	-143.923584387146	-19.3546643225758	52.1341956396525	
1953333333.33333	-14.3033446065492	70.2570599493577	8.87040477601895	-122.01709074616	-27.9018732166703	-145.228338397556	-19.2752443034726	49.9098846889277	
1956666666.66667	-14.284508667099	68.6507158259687	8.84756308197079	-122.9736974915	-27.8935701925585	-146.518012930823	-19.2464863251282	48.0007262922348	
1960000000	-14.3898303630426	66.8842730851595	8.81403842012767	-123.843664026179	-27.8786585771707	-147.826739672522	-19.2913238027709	46.0582034093465	
1963333333.33333	-14.5323219395044	65.4531518639568	8.94152885826573	-125.318414741371	-27.8823030717819	-149.172807305225	-19.4238592660999	44.0856113842618	
1966666666.66667	-14.637671756941	64.6170805498126	9.01908420552893	-126.865636907387	-27.8663371237199	-150.4319129681	-19.6270906522093	41.8873028425621	
1970000000	-14.9337040777089	63.5906495816317	9.01368694605915	-128.263960312797	-27.8692652840436	-151.736740346737	-19.854323899027	38.9682568053064	
1973333333.33333	-15.1386494487806	63.2777328450415	9.1222159899826	-130.018900061006	-27.8599258510286	-152.978887616777	-20.0765199900249	35.9457991608084	
1976666666.66667	-15.216512707387	63.5736689201086	9.13629377759017	-131.451203311783	-27.8384060893635	-154.438328143259	-20.2547155397399	32.1817407748283	
1980000000	-15.4952342070281	62.6026953907385	9.07490102279847	-132.542847108769	-27.8356950854323	-155.676601540617	-20.3144298416313	27.9190684072953	
1983333333.33333	-15.6929023510417	61.4567379785467	9.15816155744585	-134.175068565412	-27.8336392606811	-156.896093766209	-20.2571777067943	24.091956816797	
1986666666.66667	-15.8305066003442	60.2680825431346	9.18102478572743	-135.67179233133	-27.8346670950708	-158.236356956634	-20.0703940961912	20.4345472283692	
1990000000	-16.2527944016256	57.8503308717534	9.17227234190446	-137.154193355926	-27.8249531848788	-159.441891495792	-19.7848674872454	17.2661777923298	
1993333333.33333	-16.5677670271928	55.9504615634843	9.23801084029777	-138.911998787263	-27.8123698403387	-160.80872668202	-19.4402139335807	15.4013860428879	
1996666666.66667	-16.8006100604251	54.2916826233015	9.24236524725125	-140.465247086774	-27.8001305656352	-162.174824864681	-19.0989248860497	14.026052747339	
2000000000	-17.1525753937049	52.2356013884685	9.2185402752759	-141.868607810745	-27.8070863165514	-163.354975221417	-18.7920789510233	13.330549101865	
2003333333.33333	-17.4398435210846	50.3265071272797	9.23698400231586	-143.284280067094	-27.8034548968305	-164.737624723436	-18.5389436400419	13.4237294759408	
2006666666.66667	-17.7425682720334	48.3285950621842	9.25104748992809	-144.578307951071	-27.8064091598184	-166.152723220842	-18.3700963631618	13.7398007404388	
2010000000	-18.0928354226025	46.3059534616379	9.29207127972353	-145.955247137691	-27.794445191373	-167.476450967601	-18.2652207597774	14.2157943210511	
2013333333.33333	-18.4612905383239	44.5332873235357	9.34154253253949	-147.418524037256	-27.8068264631665	-168.732931772705	-18.2547553850846	14.7086103016367	
2016666666.66667	-18.8189847450132	43.0275783698729	9.33541343485731	-148.809715327488	-27.8176331077266	-170.047682271743	-18.344233643506	14.9363475272447	
2020000000	-19.1207823601664	41.8108988384683	9.40995251477871	-150.46678182109	-27.8132454968643	-171.341659300829	-18.4877673761551	14.8287485628442	
2023333333.33333	-19.2404897246381	41.1814964990954	9.41414292237122	-151.918069016324	-27.8024585156389	-172.727825373347	-18.6814264139678	14.246158403508	
2026666666.66666	-19.4681904517586	39.5177746209905	9.3542980185351	-153.191742303235	-27.8163226601377	-173.878460850198	-18.9168366805226	12.9362795350495	
2030000000	-19.5422099050945	37.9043877289293	9.37492974119267	-154.639230845206	-27.8189131716273	-175.185131630801	-19.1347510281442	11.2981857332982	
2033333333.33333	-19.467640853663	36.4400272055502	9.34706787984521	-155.985397833441	-27.825457985327	-176.58619603315	-19.3104794189424	9.07722131407142	
2036666666.66666	-19.5872453433201	33.6580855531558	9.28665829680428	-157.270752669244	-27.821228294569	-177.705510036978	-19.4284088795193	6.3326918326242	
2040000000	-19.6155013298725	31.356569035406	9.28526589172337	-158.734146640688	-27.8286307235209	-178.959481481031	-19.4781359217165	3.92151337491055	
2043333333.33333	-19.6380200893298	29.2988801944263	9.24723156683263	-160.112125009971	-27.8335539809376	179.733555483546	-19.4830467828968	1.34301448110295	
2046666666.66666	-19.6804495161219	27.6236458908349	9.20702487846964	-161.448093204597	-27.8397590347689	178.563067154823	-19.4464265426394	-1.17383162661143	
2050000000	-19.754196137308	26.4135139113914	9.16932392553734	-162.752545557745	-27.8392899783272	177.362391667165	-19.4078868343973	-2.98622931915085	
2053333333.33333	-19.8936771645738	25.5810697285902	9.13759520011271	-164.007915269701	-27.8487966047214	176.039123458718	-19.3786565454608	-4.73210820935092	
2056666666.66666	-20.1242113879174	25.1235608322894	9.12741462368368	-165.245346388106	-27.848719300957	174.945619231413	-19.4168332991166	-6.44004934094806	
2060000000	-20.4688739973309	25.2868873353851	9.13519460031863	-166.510820743293	-27.8586601969466	173.653667711283	-19.5008569904592	-7.76359299422177	
2063333333.33333	-20.9295912400919	26.3069858737773	9.15574673360016	-167.801633709492	-27.8461408899207	172.318007585273	-19.6473487908634	-9.38342538206782	
2066666666.66666	-21.4286149501136	28.3291901425434	9.16866821006909	-169.093569006634	-27.8595857931786	171.135483598491	-19.8385556227217	-11.5145469688819	
2070000000	-21.9018363425165	31.3577652504907	9.16881309879912	-170.333715972066	-27.8654493329976	169.941861502323	-20.0454949905516	-13.6894590452354	
2073333333.33333	-22.3029176660797	34.7918081170124	9.14646684381151	-171.48470676434	-27.8717399284687	168.66047417717	-20.2271102817315	-16.6674769889818	
2076666666.66666	-22.6295849516232	38.0531344500735	9.11673954882399	-172.582830336108	-27.8798261453534	167.453801149816	-20.3605140501831	-20.2524207045566	
2080000000	-22.9470897495954	39.9907790482694	9.09046545922172	-173.729017264729	-27.8781416683223	166.229207720695	-20.3685284236768	-23.9173354419719	
2083333333.33333	-23.3629067858949	40.2404122210043	9.03543779290318	-174.841328971889	-27.881899354263	164.941788650172	-20.2582329966002	-27.636099281768	
2086666666.66666	-23.8946370629041	39.1300697695584	9.06834664954647	-176.36546377996	-27.8880455074206	163.779754342865	-20.0214645397155	-31.1417309488817	
2090000000	-24.2076947288989	39.1771443342093	9.06061664721163	-177.779278514127	-27.8941826032492	162.622984392734	-19.7022517640206	-33.6417734014701	
2093333333.33333	-25.1396998001272	34.6812809750521	9.03295878786538	-179.155749697819	-27.8928805685913	161.365899012198	-19.3384741437312	-35.5632248452749	
2096666666.66666	-25.7975114214265	32.5034787700638	9.03350011326897	179.411997373354	-27.8979794617529	160.186683895054	-18.9764225282744	-36.8777410289039	
2100000000	-26.2078658076538	32.2624611315951	9.0100864923013	178.108988608156	-27.8966377247446	158.915107056433	-18.6583695285833	-37.1823183071745	
2103333333.33333	-26.8948857493369	30.61472710149	8.94339773086797	176.997621787722	-27.8975377916632	157.688114388855	-18.391236393953	-37.1395647885499	
2106666666.66666	-27.3024759747729	32.0459469753868	8.94139534298412	175.782162628898	-27.9051571691784	156.550628664117	-18.1994739218277	-36.9670105485997	
2110000000	-27.1947012799995	37.1576672929167	8.90072379913072	174.764173106018	-27.9004435171631	155.436547211849	-18.0972449446958	-36.3229297586825	
2113333333.33333	-27.5588181778131	39.2611188957386	8.81393034130981	173.975725789507	-27.9000853649075	154.10480358009	-18.0694137107346	-35.8484753145224	
2116666666.66666	-27.323602089553	44.1119458367126	8.80375417802969	172.966922195122	-27.8995928438677	153.011295050604	-18.1223910430082	-35.652363205735	
2120000000	-26.6173389676444	49.7538635290043	8.7540502426206	172.115754620949	-27.9030684165992	151.786534069119	-18.2401581586243	-35.652845946552	
2123333333.33333	-26.501090309869	51.1142499136862	8.66477545593055	171.387754996232	-27.9058811588774	150.584541414943	-18.4035000920078	-36.1551985761781	
2126666666.66666	-26.1344496901517	52.6507799089397	8.66022247594028	170.268229081389	-27.9326537586267	149.310313081603	-18.5942334540775	-37.1544672714821	
2130000000	-25.5015925933873	54.4476116068626	8.63356452397751	169.184948096198	-27.9274833622173	148.156909463198	-18.7812195431729	-38.6950732264444	
2133333333.33333	-25.8227013092218	51.9861745672456	8.56360459944503	168.246394948501	-27.9391832998321	146.991182869468	-18.9226517925201	-40.6221738315305	
2136666666.66666	-25.9121324415813	50.4714999833053	8.61258619887928	166.648848766082	-27.961794153149	145.877449563547	-19.0260853655693	-42.7731691600616	
2140000000	-25.7751048172725	49.7477706676532	8.6149826702894	165.216262833057	-27.961587967084	144.663665436721	-19.0748454778683	-44.8598410981369	
2143333333.33333	-26.3407566437122	46.832300807111	8.60929296255841	163.788143441714	-27.9753226811869	143.548101098576	-19.0803964682283	-46.7581885261119	
2146666666.66666	-26.5502293023137	45.8696403603418	8.6103910821944	162.323036111001	-27.9964741028511	142.414952112838	-19.060558671724	-48.3492249948592	
2150000000	-26.6341205711158	46.1150007914336	8.59101891828074	160.993675231481	-27.9818872378607	141.220040555574	-19.0488760442842	-49.63297620297	
2153333333.33333	-26.5724326082566	47.6401368314286	8.56692903139096	159.765658283407	-27.9959356336437	140.153332149332	-19.0661421978616	-50.7802703205396	
2156666666.66666	-26.3413511240938	50.4647765632345	8.53078791418349	158.661492929582	-27.997035180999	139.070646362614	-19.1200139748327	-51.4208578880813	
2160000000	-25.9460911445024	53.9035058685224	8.47125152058659	157.735449901979	-27.9917680002318	137.831198361181	-19.2456672023735	-52.2811557317147	
2163333333.33333	-25.3740341010195	57.9480071903295	8.43232855184594	156.776007471077	-28.012527355544	136.727175756261	-19.4443976112889	-53.3296042075433	
2166666666.66666	-24.6433139781234	61.7925138795288	8.36883820734179	155.999997572835	-28.0027173374251	135.626437079721	-19.6826103704712	-54.4913641272505	
2170000000	-24.0196921704227	64.6912038087897	8.29124492480184	155.319365730699	-27.9901511660481	134.425564081714	-19.9589350975377	-56.360257349056	
2173333333.33333	-23.4545579584575	66.9320355199258	8.23343737914442	154.562375954225	-27.9950916260489	133.451086982828	-20.23734770916	-59.059269269459	
2176666666.66666	-23.0266668654631	68.3462189882369	8.17793848176445	153.769898278513	-27.9850711893456	132.323453863083	-20.4408453328967	-62.0480782943842	
2180000000	-22.8701563935123	69.0642605700517	8.1331152026303	152.894733483935	-27.9795380914881	131.198903200058	-20.5302197912264	-65.8650416986443	
2183333333.33333	-22.8774014057264	69.4886170108478	8.12069488637532	151.798955130819	-27.9810223673204	130.160967276834	-20.4709094427051	-69.9994457053855	
2186666666.66666	-22.8527501175172	69.5955158354427	8.12470263844857	150.602720984474	-27.9652628783045	128.995871797988	-20.2560713860646	-73.5332997024165	
2190000000	-23.5084192546524	69.4180765297226	8.0915990451194	149.52335789418	-27.9587534319136	127.846627249207	-19.9182652161016	-76.7068440223863	
2193333333.33333	-24.0572113649959	69.2967573068289	8.16666389695892	147.783607384791	-27.9645654480497	126.662153614867	-19.5031604632294	-79.103504733597	
2196666666.66666	-24.2729503764587	68.8025552711391	8.192399276407	146.302669507654	-27.9549207826763	125.550094808758	-19.0776601228483	-80.5082917226115	
2200000000	-25.0923870998555	68.5510576771281	8.16984397148685	145.064148125022	-27.9633517593297	124.32917559102	-18.6840728221253	-81.1380576300621	
2203333333.33333	-25.4263213910959	67.9376204414906	8.20107324821705	143.521944385858	-27.9660561584247	123.21947845413	-18.3515413703363	-81.2078498706406	
2206666666.66666	-25.3646782917266	66.6972143193411	8.18430259360627	142.318711662408	-27.9670736199976	122.096005993501	-18.1067882815616	-80.8492210001172	
2210000000	-25.4273503352669	65.3350584102211	8.14035491256918	141.327068216774	-27.9630498143855	120.846559266875	-17.9627458480268	-80.2081691893553	
2213333333.33333	-25.1431794636148	63.7137383927257	8.12102164584144	140.201328235587	-27.9684361749624	119.758759338908	-17.900430436509	-79.5988365105442	
2216666666.66667	-24.6234864899094	61.9197025800787	8.0748472515142	139.262593437891	-27.9802935875515	118.569870251139	-17.9274698792458	-79.0793330912952	
2220000000	-24.0935180403049	60.2461522086156	8.01053642307627	138.488602980543	-27.9975905623498	117.423592090872	-18.0355997908998	-78.9515043486961	
2223333333.33333	-23.5104516177762	58.3824543311513	7.97039701965131	137.617874166309	-28.0000709704161	116.296497571792	-18.2075568006383	-79.1816681404564	
2226666666.66667	-22.7967530569255	56.5587022923453	7.92364388267168	136.780752278554	-28.0079777339672	115.109184181187	-18.4005105323357	-79.8816160109208	
2230000000	-22.4875129567133	55.0457358611543	7.87956929872783	135.992663187283	-28.011576599629	114.01219544276	-18.6057006450598	-81.1197654560628	
2233333333.33333	-22.0972623443868	53.5055048631923	7.86333330312063	135.030848949031	-28.0083154228934	112.889003720519	-18.8027792520351	-82.8103973703548	
2236666666.66667	-21.7079756060327	52.1186097299286	7.85248689233547	134.009754918951	-28.0282176476074	111.864265917932	-18.9339692867392	-84.7767791991182	
2240000000	-21.6649235226936	51.0066454515453	7.84292150535922	132.993129319878	-28.0318769687864	110.79481857568	-19.0087924678517	-86.7657220907698	
2243333333.33333	-21.6319140057069	50.1298379646325	7.87892578906325	131.540197176445	-28.0285595344588	109.784936681178	-19.0194787359478	-88.5017710586116	
2246666666.66667	-21.7139153847292	49.4125471210475	7.91207508473551	130.069885561908	-28.0181276511924	108.714281239066	-18.977967913718	-89.8875698200074	
2250000000	-21.8824851423122	49.0911104650231	7.94374065668206	128.509521981792	-28.0157354131384	107.771202285197	-18.9378737994666	-90.7967880467956	
2253333333.33333	-22.0297582630422	48.9257977091245	7.96879212863	126.968594550061	-28.0041551002721	106.746024235392	-18.903007007695	-91.308777182786	
2256666666.66667	-22.0895269713379	48.8311754150668	7.98907179204327	125.526833997841	-27.9850025158889	105.693636005409	-18.9240563806835	-91.4987369866591	
2260000000	-22.2197827959457	48.8832008774749	8.00344357704008	124.146799324879	-27.9807842390479	104.626727031269	-19.0052150065216	-91.5320830792588	
2263333333.33333	-22.2596382587771	49.0404677162453	8.00657668827808	122.832622864947	-27.9689821201354	103.641026885106	-19.170749658915	-91.5223025898587	
2266666666.66667	-22.1691385306532	48.9644270477906	7.99191069072423	121.687167496547	-27.9391521217225	102.525427167523	-19.4140858424688	-91.8059603245623	
2270000000	-21.9923040314831	48.4810434848425	7.96402600903558	120.697936447444	-27.9384186407929	101.368218338324	-19.7419167098509	-92.6601130203908	
2273333333.33333	-21.7939340688457	47.7712074288501	7.9359019141823	119.776399296212	-27.9187147018791	100.353821654573	-20.0997174104453	-94.1318384764357	
2276666666.66667	-21.6271522045138	46.6815312783287	7.90312745256575	118.881331337068	-27.9004226566019	99.1553741108431	-20.4597191699874	-96.5599036669918	
2280000000	-21.507102633843	45.448276754592	7.88137408059342	117.97150996477	-27.8814597701801	98.1212159336765	-20.7684477931837	-100.093770723036	
2283333333.33333	-21.0680876305669	43.3545912407436	7.86900137245873	117.005062067628	-27.8587642739583	96.8987829982108	-20.9139753883134	-104.237709873323	
2286666666.66667	-21.5884299419091	42.4467442567313	7.80666710639738	116.448762981359	-27.8487908067487	95.7938881748234	-20.8866472972478	-108.826696731054	
2290000000	-21.8391910796183	40.7605705153069	7.89077869138021	114.594354613956	-27.8386260851148	94.616121073616	-20.663061705395	-113.467466318572	
2293333333.33334	-22.089736109976	38.9514556309041	7.92317032832645	113.105637366763	-27.8263299884303	93.5196609691593	-20.2695506823287	-117.233165900283	
2296666666.66667	-22.6442391596107	37.7195105580695	7.95601770169346	111.533354794491	-27.8296627132137	92.346683191866	-19.8035368776467	-119.962387583125	
2300000000	-23.0134426225093	36.1546508856774	7.99259026844173	109.864949086056	-27.8311033678593	91.2656102874324	-19.3303778881939	-121.711522931636	
2303333333.33334	-23.174482412356	34.258228426862	8.01164509869441	108.356437706471	-27.816286379907	90.167924869857	-18.8826703358371	-122.374946789613	
2306666666.66667	-23.3345661890093	32.2893850475225	8.02109337959164	107.023276287345	-27.8043025436827	89.0467999850512	-18.5200811332956	-122.322377439661	
2310000000	-23.3158669310727	30.0734814919087	8.03319767535827	105.65506025969	-27.8035444348131	88.0282307477688	-18.2598599232885	-121.724569879206	
2313333333.33334	-23.0932728991888	27.6493827441265	8.02979706086331	104.414615959103	-27.8017634739027	86.8029611642511	-18.1068584835259	-120.889731335661	
2316666666.66667	-22.8529477626532	25.4794774809398	8.01539947423488	103.293627035873	-27.7946793590524	85.7438910259878	-18.059423430508	-120.020975485046	
2320000000	-22.4417379241426	23.3898483278198	7.99874267493124	102.267663080185	-27.7973400016359	84.7162296187628	-18.1044677968757	-119.439995141392	
2323333333.33334	-21.9837296703211	21.2758810605447	7.97962164522538	101.311520473776	-27.7859120362256	83.6233028894275	-18.2452857978359	-118.964573974711	
2326666666.66667	-21.5746056954329	19.5416314027813	7.96063972692325	100.353366734311	-27.7800594416056	82.4893222087149	-18.4462665530126	-119.006099996249	
2330000000	-21.189541533759	18.0528038772833	7.9465033800196	99.352817546596	-27.7758721022219	81.4603520886449	-18.6923043206177	-119.827607552378	
2333333333.33334	-20.8345600016967	16.7395866609704	7.93455290403596	98.3225270600878	-27.7706208986497	80.3266494558791	-18.9163238422842	-120.834822706269	
2336666666.66667	-20.5189456323214	15.679285802011	7.92275454391587	97.3277836607454	-27.7450878435434	79.227592926788	-19.1154356031117	-122.529612567289	
2340000000	-20.2851186926608	14.5859278790201	7.92360570066069	96.2393469334955	-27.7586121532643	78.25723356133	-19.2469220854478	-124.615472363334	
2343333333.33334	-20.2140570196881	13.6523831360624	7.93800674879289	94.9588149615809	-27.7339846401255	77.1960915585627	-19.2840511078582	-126.457153896567	
2346666666.66667	-20.2719476174782	12.8757351646535	7.96499646075835	93.4621013631197	-27.7044099878281	76.0845720197173	-19.2513542956038	-128.169298863822	
2350000000	-20.1009356807538	11.7321569521401	7.9868767805522	91.8943147161502	-27.6952196463266	75.1074624372343	-19.1726903483107	-129.583308665204	
2353333333.33334	-20.5061654067984	11.541473935868	7.98381976866368	90.6292855992972	-27.6717481201951	73.9862908525315	-19.0661591733738	-130.285846404137	
2356666666.66667	-20.619928715243	10.7273059260447	8.03489161199459	88.8609911234769	-27.6343138371691	72.8251375592694	-18.9842930394392	-130.569961409317	
2360000000.00001	-20.5452676824286	9.18270641333141	8.04959484655562	87.4397708263172	-27.619342400527	71.8286154512278	-18.967243649898	-130.492275382515	
2363333333.33334	-20.8246771243102	8.46633769803569	8.05929348058849	86.0928359634436	-27.6032657276304	70.6854869345447	-19.0376542637797	-130.090815266178	
