!Agilent N9923A: A.07.32
!Date: Wednesday, 01 June 2016 22:20:39
!Model: N9923A
!Serial: MY52412257
!GPS Latitude: 
!GPS Longitude: 
!GPS TimeStamp: 0001-01-01 00:00:00Z
!GPS Seconds Since Last Read: 0
!CHECKSUM:0094695330
!Correction: S11(ON U)S21(ON U)S12(ON U)S22(ON U)
!S2P File: Measurements:S11,S21,S12,S22:
# Hz S DB R 50
1950000000	-42.3470289367174	-72.245182659432	-3.10820200423759	-129.364966040613	-3.10283794224392	-129.220067807795	-27.5826935394331	-119.63023509368	
1953333333.33333	-40.8227410413651	-68.8487745608293	-3.10861145083178	-129.590218354845	-3.10463395177977	-129.442738313686	-27.084420754853	-120.843140725417	
1956666666.66667	-39.7108063064709	-65.151645033594	-3.11082139920812	-129.805787876752	-3.10559651954734	-129.667316491521	-26.599894790296	-120.90326453825	
1960000000	-38.8169097920314	-61.8362573096949	-3.11147267741301	-130.028608706001	-3.10715361622202	-129.891324563615	-26.2152524862028	-120.050773098381	
1963333333.33333	-38.1423164075961	-58.4658887052641	-3.11287058615314	-130.251169757583	-3.11078463195146	-130.113275261357	-25.9269731236578	-118.57783758945	
1966666666.66667	-37.6905175663435	-54.7200789231032	-3.11602022159949	-130.478366538443	-3.1127927308814	-130.33603842144	-25.7856668780591	-116.645706816056	
1970000000	-37.3698203891882	-50.3487662600936	-3.11518629317762	-130.69712959466	-3.11313480210977	-130.560510636762	-25.7776696857793	-114.538822062765	
1973333333.33333	-37.1725126076519	-44.9326832887851	-3.11725716800955	-130.926570432471	-3.11482453612502	-130.790933763185	-25.8843042331006	-112.537147487897	
1976666666.66667	-37.0317963196471	-39.4442952030852	-3.12113533498842	-131.165081267799	-3.11313053445564	-131.028071552968	-26.1490685431184	-110.85902798387	
1980000000	-36.9164409485975	-32.5493616982227	-3.1198615501153	-131.397457069955	-3.11260608199409	-131.270331827807	-26.4801849001029	-109.879605276991	
1983333333.33333	-36.7752264212843	-26.5880680146821	-3.11701928741302	-131.636174315224	-3.11168981263554	-131.494996232826	-26.9182717795734	-109.537685902645	
1986666666.66667	-36.6992276226812	-20.4854588893629	-3.11583156403025	-131.859207712697	-3.10983228144129	-131.723769345531	-27.382465271809	-110.059692801246	
1990000000	-36.652573844193	-14.2507226018996	-3.1137414188199	-132.072434688796	-3.11003129300073	-131.940380780919	-27.7545370564645	-111.8459779487	
1993333333.33333	-36.548073832837	-8.80676828084325	-3.11126244247762	-132.288302838341	-3.10598370294944	-132.158518762184	-28.0008324343328	-114.305001056237	
1996666666.66667	-36.6177042082551	-3.13091360932257	-3.10937217406316	-132.506967411639	-3.10422124103024	-132.355571276467	-28.0664817307841	-117.210332224524	
2000000000	-36.8324033102606	0.398076606213463	-3.10878835321597	-132.720782541802	-3.1034469083464	-132.579778595122	-27.9546350385813	-119.63568388034	
2003333333.33333	-37.2114761225932	4.2131704320041	-3.10961568446155	-132.933930780602	-3.10334016630925	-132.798337181397	-27.6597144829559	-121.303967940838	
2006666666.66667	-37.7808373749303	6.65235717404837	-3.11014150834754	-133.150005195575	-3.10350100930806	-133.01203150221	-27.282094471032	-121.908695671757	
2010000000	-38.759816022214	8.23583963878763	-3.11067911656016	-133.372017139351	-3.10344240202919	-133.239065173787	-26.9078880704405	-121.53014512842	
2013333333.33333	-39.7930798037683	8.76520746955361	-3.11131563162894	-133.584382375517	-3.10336682698139	-133.455226965071	-26.5580581599086	-120.386189084065	
2016666666.66667	-41.4562623935996	8.72542622282679	-3.10981958185578	-133.801755423941	-3.10513997371408	-133.671654710632	-26.2739856281931	-118.31154157812	
2020000000	-43.162636753861	6.87064183824667	-3.11052523746312	-134.018915589875	-3.10483440569531	-133.888335058879	-26.0919653112715	-115.913818477027	
2023333333.33333	-44.9279148478816	1.10264910369502	-3.11074410636013	-134.244803261264	-3.10684297905909	-134.105972662264	-26.0341423244968	-113.407971427228	
2026666666.66666	-46.7270070473775	-9.74727427262933	-3.11354873727631	-134.462758236234	-3.10688805988269	-134.325019321474	-26.083080830103	-111.115091094199	
2030000000	-47.4138297396804	-24.9410025593829	-3.11446134926024	-134.694122368967	-3.10782505043738	-134.551071943969	-26.2250743778327	-109.286640788369	
2033333333.33333	-47.066533614415	-38.6115534928699	-3.11560654747093	-134.923492567574	-3.10782211770937	-134.774850607359	-26.4373398301603	-108.230045600742	
2036666666.66666	-45.7495153523342	-47.3927507561549	-3.11239567412084	-135.143486650255	-3.11009974558412	-135.010982724964	-26.7437018376017	-108.034954089683	
2040000000	-43.983374335949	-51.9220437130536	-3.11458681663162	-135.372615216358	-3.10857883305287	-135.235545632833	-27.0222802398117	-109.003050944425	
2043333333.33333	-42.2673926253737	-52.8852753306628	-3.1120347887402	-135.579096664758	-3.10581336436983	-135.454034105397	-27.2709620260696	-111.033036924419	
2046666666.66666	-40.7598098466064	-52.8101278910304	-3.11240739023694	-135.800588768593	-3.10743325460608	-135.665309724902	-27.3830131610477	-113.811014402881	
2050000000	-39.4149604115557	-50.935718769136	-3.11185711371785	-136.011694618557	-3.10706173747527	-135.876058736611	-27.315152046309	-116.929013693321	
2053333333.33333	-38.157815356828	-48.8671152775712	-3.11283495834444	-136.225608839969	-3.10818159045902	-136.096140529436	-27.0691645790449	-119.929928851844	
2056666666.66666	-37.1054269314237	-47.2516973950494	-3.11576239930715	-136.452884852461	-3.10955506146153	-136.312511955161	-26.7046523619831	-121.954587822429	
2060000000	-36.3112749449644	-45.4962912759273	-3.11691031274721	-136.667629610148	-3.11107667230421	-136.537005806911	-26.3046195402273	-123.030511627898	
2063333333.33333	-35.6085834243061	-44.1658817571189	-3.11907730516428	-136.893916586672	-3.11199844362945	-136.755204611341	-25.9184072415248	-123.247500603348	
2066666666.66666	-35.1994321886273	-42.198625022945	-3.12015134581343	-137.123997327154	-3.11457039077576	-136.979709128451	-25.5897841077391	-122.250958616186	
2070000000	-34.8514647616037	-40.2356842430451	-3.12172283197885	-137.336555069645	-3.11596108439321	-137.208637910354	-25.3896441450963	-120.942754574666	
2073333333.33333	-34.6894561010072	-37.3099281290092	-3.12364707438063	-137.556665268923	-3.11841045183035	-137.440412471846	-25.2898966949374	-118.997458492784	
2076666666.66666	-34.644616175398	-33.7888859662442	-3.12332590543562	-137.789901889603	-3.12023530108006	-137.651371763851	-25.3060383321222	-116.96246562675	
2080000000	-34.59996988849	-30.2105031926734	-3.12387963058752	-138.025170531919	-3.11846599204666	-137.883815706289	-25.459216165751	-114.975199491714	
2083333333.33333	-34.6400091030741	-25.6557532622099	-3.12574030689403	-138.252112419826	-3.12157466744284	-138.117702638106	-25.7325163052355	-113.231345493221	
2086666666.66666	-34.7287905933982	-21.1495038140334	-3.12456472120473	-138.489139302806	-3.11862243419977	-138.355520718496	-26.0904403731618	-112.1178115124	
2090000000	-34.7416775239004	-16.0828807191093	-3.12272624861105	-138.720078784882	-3.11813795845095	-138.585130364042	-26.523055342844	-111.696914993059	
2093333333.33333	-34.7410026406035	-11.6533605018668	-3.12020073759426	-138.943660689624	-3.11625742291359	-138.812273995094	-26.9613914410974	-112.32082433754	
2096666666.66666	-34.7803021376139	-7.6728464000399	-3.11813262256536	-139.166827287826	-3.11398728398486	-139.032313715922	-27.3366661364615	-113.708926802942	
2100000000	-34.8695283475892	-4.08244518356329	-3.11627508407093	-139.371450224634	-3.11191200243912	-139.246532624118	-27.5545377124347	-116.024263629632	
2103333333.33333	-35.0796319171014	-1.29455837260369	-3.11549867297843	-139.576542080556	-3.11005236325574	-139.458781579683	-27.6164229122337	-118.558075416641	
2106666666.66666	-35.5024424409001	0.499242328457675	-3.11492175389917	-139.797040597778	-3.10982127617134	-139.664280191542	-27.4527103448599	-121.018877781503	
2110000000	-35.9272336511371	1.43296985685978	-3.11570832834653	-140.019672446164	-3.10833678708453	-139.890464395547	-27.1159480814557	-122.775566107994	
2113333333.33333	-36.6248331637154	1.05581512680242	-3.11528393237693	-140.222868736821	-3.10894383937469	-140.109370837449	-26.721101374659	-123.412886041652	
2116666666.66666	-37.4604370260789	-0.965742634878559	-3.11580720696813	-140.462675497739	-3.10940982227341	-140.330469639645	-26.2814466234109	-123.045420030373	
2120000000	-38.4625827663582	-4.52318089817991	-3.11616154117155	-140.679482626093	-3.11068922938483	-140.545369184499	-25.8909223710227	-121.752918222253	
2123333333.33333	-39.5061938579931	-9.19562921733348	-3.11522815555888	-140.903429975561	-3.11070548203983	-140.773579368889	-25.5854948437834	-119.864747967587	
2126666666.66666	-40.318627254428	-16.4778197105034	-3.11582918315745	-141.114433245666	-3.10962061192079	-140.987085400612	-25.3855824788648	-117.866444112352	
2130000000	-40.9161815336598	-24.5090308709432	-3.11660010222408	-141.328894036947	-3.11171973433754	-141.196672466639	-25.292414605621	-115.510056563112	
2133333333.33333	-40.9363767464991	-32.3669517488668	-3.11802681519945	-141.553667268956	-3.11446929270575	-141.426329582404	-25.3339634901338	-113.665204359152	
2136666666.66666	-40.4977234812047	-39.164739257402	-3.12179882558822	-141.775317838979	-3.11529241584844	-141.655498178591	-25.4942958999202	-112.038438367012	
2140000000	-39.6671875745259	-43.0688848816207	-3.12163617962456	-142.014345596935	-3.11664464735161	-141.877246917888	-25.7265780973019	-111.189818901895	
2143333333.33333	-38.7278447967597	-44.831730506539	-3.12269159411078	-142.241934475595	-3.11614012646482	-142.104587553561	-26.0280116334665	-111.421680353512	
2146666666.66666	-37.6870719128026	-45.1744145706617	-3.1223627237526	-142.454452556728	-3.11643836590551	-142.320713457654	-26.3685658040667	-112.579221427221	
2150000000	-36.6188073368715	-43.8033184525846	-3.12185488737392	-142.661203253764	-3.11604915931219	-142.530159768316	-26.6259455433792	-114.936367435559	
2153333333.33333	-35.7243946001916	-42.2279581915376	-3.12150049220684	-142.888409944004	-3.11703090898486	-142.744693269759	-26.7289077923516	-117.993756132394	
2156666666.66666	-34.9482989530588	-40.6856080723905	-3.12281778853524	-143.087570870201	-3.11792175679299	-142.954971849068	-26.665343190948	-121.334440014286	
2160000000	-34.2049868803233	-38.6076387396551	-3.12498307824311	-143.301614421334	-3.12017828444621	-143.164240193633	-26.456682767033	-124.126740527873	
2163333333.33333	-33.5592760872577	-37.0946161427339	-3.12795468968292	-143.527439855334	-3.12116200800371	-143.385152730176	-26.1116523586109	-126.135898433055	
2166666666.66666	-33.0526408780378	-35.3802860045427	-3.12921723019461	-143.748689782499	-3.12387387335788	-143.612423369857	-25.7335392458618	-127.074982786037	
2170000000	-32.7301514081178	-33.7994070439664	-3.13059714967131	-143.98748543945	-3.12417338619674	-143.841470583381	-25.3526488706799	-127.043850742115	
2173333333.33333	-32.4590316170169	-31.9836553524104	-3.13086776839214	-144.211184857529	-3.12514329317661	-144.09210060652	-25.0378555691464	-126.222329288993	
2176666666.66666	-32.4147260204743	-30.1701607893697	-3.12936617559628	-144.454633691149	-3.12487146060285	-144.327158310444	-24.8178632264157	-124.282728917262	
2180000000	-32.4516863553227	-27.6799835000329	-3.13253187235822	-144.672462044229	-3.12632020010094	-144.53243657332	-24.7383986506284	-122.079258241727	
2183333333.33333	-32.5176937867308	-25.0645661607161	-3.12913790015132	-144.910128288871	-3.12493157817206	-144.764229733276	-24.7778360447109	-119.760640479951	
2186666666.66666	-32.6381585687841	-21.9844634295321	-3.12943161845438	-145.128044128908	-3.12559706355348	-144.991107002805	-24.9309048741723	-117.322107467983	
2190000000	-32.7866961055013	-18.4370030058045	-3.12881727262814	-145.358145526528	-3.12574401399438	-145.212350330763	-25.2262074806918	-115.246618342497	
2193333333.33333	-33.0418391590869	-14.9472212721722	-3.12948575779838	-145.593375729688	-3.12588443469439	-145.452076511591	-25.6024711714961	-113.841096344712	
2196666666.66666	-33.2489481584858	-11.6173499191763	-3.12731182669288	-145.822744822865	-3.12156210113871	-145.686344804238	-26.0485318371293	-113.214327289443	
2200000000	-33.438591699247	-8.66705031017972	-3.12591724775964	-146.041849850708	-3.12041366045502	-145.898603917601	-26.4956220389975	-113.613749072265	
2203333333.33333	-33.6079590642797	-5.96492954966834	-3.12271757917883	-146.260681034863	-3.1174860854602	-146.113377778306	-26.8669456394737	-115.083156446054	
2206666666.66666	-33.8590230381921	-4.12137900036184	-3.12018609683572	-146.464305957403	-3.11585750269204	-146.329148702358	-27.1400100252207	-117.699526731094	
2210000000	-34.1761099665342	-2.92980156379035	-3.12141141355596	-146.669482360047	-3.11474190336266	-146.520859803952	-27.1445306649683	-120.495024389458	
2213333333.33333	-34.629227145662	-3.0017593030579	-3.11916525392574	-146.886690999057	-3.1159263153267	-146.723695243469	-26.9503079701544	-123.435508529171	
2216666666.66667	-35.1357897347034	-4.40174619310012	-3.1207436673688	-147.099989420879	-3.11625613287719	-146.94088574378	-26.588453163218	-125.386331900667	
2220000000	-35.5739208535378	-7.13432429211487	-3.12086582304696	-147.332170732497	-3.11535608022357	-147.165394160808	-26.1205281058375	-126.315571080993	
2223333333.33333	-36.2209966589246	-11.4176243084123	-3.12307655004612	-147.546794717004	-3.11720123052639	-147.385671768235	-25.6413232444314	-126.181214625929	
2226666666.66667	-36.741121375399	-17.2574090457739	-3.12466658507812	-147.783250336219	-3.11894759974128	-147.617336365351	-25.2137344955922	-125.221542038711	
2230000000	-37.0180907883027	-23.8156285318885	-3.12608935216204	-148.01459689681	-3.12062577290175	-147.844520029375	-24.8753138201511	-123.723245282494	
2233333333.33333	-37.1726238099129	-30.0217451143983	-3.12736051654749	-148.223179999617	-3.12102056380625	-148.052722993405	-24.631246173646	-121.672483659808	
2236666666.66667	-36.8843215049497	-35.8751049921168	-3.12755345368515	-148.439087171802	-3.12100631710799	-148.266072301976	-24.554951822555	-119.738745617501	
2240000000	-36.493513514277	-40.113465661741	-3.13065493224543	-148.651586382059	-3.12544726655983	-148.491150155253	-24.6002231288465	-117.71322798444	
2243333333.33333	-35.8508766903439	-42.5078499898578	-3.13085829703616	-148.87700740997	-3.12826074310782	-148.716670553408	-24.7685580201332	-116.270415609574	
2246666666.66667	-35.1328392277655	-43.1505793555678	-3.13283503744821	-149.117913925537	-3.12721148494443	-148.938815086557	-25.0548668379785	-115.303149392119	
2250000000	-34.4848867895582	-42.8710652737467	-3.13370967088974	-149.343186986125	-3.12877208548659	-149.171774297748	-25.4074015150292	-115.247902403535	
2253333333.33333	-33.7689430243653	-41.6032982203468	-3.13134449155502	-149.555648790286	-3.12713205479285	-149.397538291951	-25.7908321680936	-116.517049237816	
2256666666.66667	-33.1054730744268	-39.2739535302723	-3.13377390211765	-149.78066302833	-3.12791231278344	-149.612834465316	-26.1017606424047	-118.582775930734	
2260000000	-32.4671224271722	-37.1984543453515	-3.13489788655784	-150.001049715613	-3.12972240962585	-149.843789637972	-26.2855139995709	-121.684289465458	
2263333333.33333	-31.9420471691786	-34.9553750719684	-3.13480943117842	-150.200114053629	-3.12906109024525	-150.059039781764	-26.3003058113416	-125.054071268614	
2266666666.66667	-31.5298571932213	-32.887105066644	-3.13556702794532	-150.414031564344	-3.13044615365222	-150.277166528159	-26.1229363455278	-128.196946274009	
2270000000	-31.1150322226465	-31.2185109168003	-3.13632568675106	-150.632774829826	-3.13179164484665	-150.492504743491	-25.7979802540441	-130.462368468566	
2273333333.33333	-30.857685614942	-29.4445905227782	-3.13742991974105	-150.859717154577	-3.13191890970349	-150.718343940703	-25.3967676605004	-131.616037497909	
2276666666.66667	-30.7300920711143	-27.7162179518053	-3.13741724302684	-151.08962679798	-3.13455227940901	-150.950198808372	-25.0055353579099	-131.550565560034	
2280000000	-30.7363138081678	-26.0758194390818	-3.13757472282418	-151.330053722875	-3.13409128926027	-151.189099192059	-24.6693958932932	-130.379240705766	
2283333333.33333	-30.7930114202669	-24.1813373435496	-3.1383731560486	-151.54544110403	-3.13490939678787	-151.424476268645	-24.4372093746348	-128.67816268489	
2286666666.66667	-30.9538723479023	-22.1333870754797	-3.13842941299898	-151.767513759147	-3.13286910904706	-151.65296986962	-24.3080172984155	-126.235992209247	
2290000000	-31.1498252056355	-20.1304689019286	-3.13835904633489	-152.006664533731	-3.13391605857731	-151.869399535467	-24.3094646802346	-123.53456725311	
2293333333.33334	-31.4678893007031	-18.1178407967999	-3.13684667404342	-152.223235130952	-3.13376911409414	-152.098202628691	-24.4439646682885	-120.914720846722	
2296666666.66667	-31.746268866191	-16.1266790254186	-3.1373516438167	-152.455537712453	-3.13176647796116	-152.321711408262	-24.7021244242967	-118.506046742688	
2300000000	-32.1032269860165	-13.8238103972114	-3.13851835525006	-152.68796359057	-3.13297619272225	-152.544428960259	-25.0370963508235	-116.672808585856	
2303333333.33334	-32.4300704999949	-11.8984243499217	-3.1362214894163	-152.903790532109	-3.13146517504811	-152.775675952359	-25.4609305187643	-115.669421721734	
2306666666.66667	-32.702371322586	-10.675492937528	-3.13296664758357	-153.134188597205	-3.12842025708209	-152.997844982569	-25.919365868166	-115.819106696204	
2310000000	-33.0459415188755	-9.7638982324577	-3.13276865237125	-153.361664235361	-3.1257914313767	-153.221749456325	-26.3054665041757	-117.246040510268	
2313333333.33334	-33.2920928902293	-9.84747830883355	-3.12973943100159	-153.563689934965	-3.12621026127646	-153.440378308801	-26.5742800506196	-119.780185646599	
2316666666.66667	-33.6183520518074	-10.7427262748716	-3.12863214436359	-153.779432299099	-3.12439656099197	-153.639895152458	-26.6388891624682	-122.96790673063	
2320000000	-33.9945897203738	-12.8800084758488	-3.13129418096782	-153.977084061877	-3.1260592338085	-153.85175653633	-26.4517841113851	-126.213968435301	
2323333333.33334	-34.2958786039519	-16.0674463616113	-3.13006590861981	-154.20014903039	-3.12635824084812	-154.062648464592	-26.0988471540404	-128.760170499713	
2326666666.66667	-34.4339359929163	-20.2113341773521	-3.13205945730239	-154.418265050272	-3.1267883195567	-154.280169203946	-25.6128207200693	-130.301887517532	
2330000000	-34.5611027284565	-25.2434828244762	-3.13363919095592	-154.634169642996	-3.12883765364103	-154.492944921958	-25.1300167074252	-130.791264302137	
2333333333.33334	-34.6063063728481	-30.0898774302423	-3.13634060363457	-154.851502657062	-3.13141450975702	-154.724797685685	-24.6652432729291	-130.077960773914	
2336666666.66667	-34.3792496466987	-34.6846990657779	-3.13725637349254	-155.065444653613	-3.13202739393271	-154.935985119915	-24.3303613256269	-128.826710830937	
2340000000	-34.0144960108146	-38.6474776689215	-3.13811189882739	-155.277165696312	-3.13341032926764	-155.142860768565	-24.09440655419	-127.056793966982	
2343333333.33334	-33.576596461412	-41.28481406569	-3.13954808623129	-155.494575808051	-3.13545625471463	-155.363480566198	-23.9886805761861	-125.027012252019	
2346666666.66667	-33.0789779702534	-42.9521437032404	-3.14347958485424	-155.716544345982	-3.13682285892938	-155.577105399543	-24.0237180222871	-122.835632322076	
2350000000	-32.567683637506	-43.3248012450863	-3.14410632250816	-155.932458359003	-3.13808104488229	-155.802302145991	-24.2234047744885	-121.184881282428	
2353333333.33334	-32.0387039721271	-42.6439444086068	-3.14674846886019	-156.166216698523	-3.14080812261595	-156.040910211296	-24.4885032364461	-120.182209854004	
