!Agilent N9923A: A.07.32
!Date: Thursday, 02 June 2016 03:35:07
!Model: N9923A
!Serial: MY52412257
!GPS Latitude: 
!GPS Longitude: 
!GPS TimeStamp: 0001-01-01 00:00:00Z
!GPS Seconds Since Last Read: 0
!CHECKSUM:0845544506
!Correction: S11(ON U)S21()S12()S22()
!S2P File: Measurements:S11,S21,S12,S22:
# Hz S DB R 50
1950000000	-7.86898283689267	-57.7935625247773	0	0	0	0	0	0	
1953333333.33333	-6.37649724290723	-69.3843134434164	0	0	0	0	0	0	
1956666666.66667	-5.25037131044069	-78.4825051738518	0	0	0	0	0	0	
1960000000	-4.3809831897964	-86.1383808688094	0	0	0	0	0	0	
1963333333.33333	-3.75615523460972	-92.7642887698448	0	0	0	0	0	0	
1966666666.66667	-3.28817162888604	-98.2783660821926	0	0	0	0	0	0	
1970000000	-2.91830391995761	-103.048862101323	0	0	0	0	0	0	
1973333333.33333	-2.61929033034652	-107.185758651479	0	0	0	0	0	0	
1976666666.66667	-2.35845656696611	-110.970084591399	0	0	0	0	0	0	
1980000000	-2.1520616732606	-114.519119030831	0	0	0	0	0	0	
1983333333.33333	-1.99711981382908	-117.796905625346	0	0	0	0	0	0	
1986666666.66667	-1.88662471088163	-120.742746256849	0	0	0	0	0	0	
1990000000	-1.78440252344666	-123.358356018386	0	0	0	0	0	0	
1993333333.33333	-1.68950358285549	-125.866546569055	0	0	0	0	0	0	
1996666666.66667	-1.61457314953175	-128.249391095197	0	0	0	0	0	0	
2000000000	-1.55666704982618	-130.59450829589	0	0	0	0	0	0	
2003333333.33333	-1.52227172139806	-132.816330156519	0	0	0	0	0	0	
2006666666.66667	-1.49561275714273	-134.921757737194	0	0	0	0	0	0	
2010000000	-1.46759505134239	-136.949886021794	0	0	0	0	0	0	
2013333333.33333	-1.44281411663238	-138.950898218084	0	0	0	0	0	0	
2016666666.66667	-1.42599770009668	-140.959107046142	0	0	0	0	0	0	
2020000000	-1.41727409082211	-142.996152560875	0	0	0	0	0	0	
2023333333.33333	-1.42923448860464	-144.943010706874	0	0	0	0	0	0	
2026666666.66666	-1.43219841288309	-146.873232608666	0	0	0	0	0	0	
2030000000	-1.44791415601954	-148.848087810857	0	0	0	0	0	0	
2033333333.33333	-1.47647999125463	-150.79083792362	0	0	0	0	0	0	
2036666666.66666	-1.50205129807822	-152.745546624785	0	0	0	0	0	0	
2040000000	-1.53486398517443	-154.71019395609	0	0	0	0	0	0	
2043333333.33333	-1.5630058396991	-156.757746124324	0	0	0	0	0	0	
2046666666.66666	-1.61298786574641	-158.845978351111	0	0	0	0	0	0	
2050000000	-1.67131291263211	-160.829536641115	0	0	0	0	0	0	
2053333333.33333	-1.72150390259871	-162.832036601025	0	0	0	0	0	0	
2056666666.66666	-1.77474507824078	-164.942322568878	0	0	0	0	0	0	
2060000000	-1.8416881251738	-167.140668425326	0	0	0	0	0	0	
2063333333.33333	-1.91836514289844	-169.451872549524	0	0	0	0	0	0	
2066666666.66666	-2.02542067725232	-171.852166998881	0	0	0	0	0	0	
2070000000	-2.12593244627759	-174.169243231326	0	0	0	0	0	0	
2073333333.33333	-2.23620789937971	-176.629887616213	0	0	0	0	0	0	
2076666666.66666	-2.35901361786302	-179.064862993411	0	0	0	0	0	0	
2080000000	-2.4832975125061	178.37401700857	0	0	0	0	0	0	
2083333333.33333	-2.64159109057519	175.61981409803	0	0	0	0	0	0	
2086666666.66666	-2.84946974328985	172.910781720547	0	0	0	0	0	0	
2090000000	-3.03740719346706	170.406907853171	0	0	0	0	0	0	
2093333333.33333	-3.20492477477475	167.62549135732	0	0	0	0	0	0	
2096666666.66666	-3.39221876120256	164.499224786161	0	0	0	0	0	0	
2100000000	-3.61867711882229	161.191010737482	0	0	0	0	0	0	
2103333333.33333	-3.86706298375985	157.696653179855	0	0	0	0	0	0	
2106666666.66666	-4.14736181849592	153.968661166262	0	0	0	0	0	0	
2110000000	-4.5045025397102	150.195394637175	0	0	0	0	0	0	
2113333333.33333	-4.89251943778697	146.562953938687	0	0	0	0	0	0	
2116666666.66666	-5.28683778280679	142.949646595795	0	0	0	0	0	0	
2120000000	-5.67042346343295	139.073964401372	0	0	0	0	0	0	
2123333333.33333	-6.05618806835113	134.955674996427	0	0	0	0	0	0	
2126666666.66666	-6.44097763016957	130.149613361315	0	0	0	0	0	0	
2130000000	-6.94286560216386	124.911015934893	0	0	0	0	0	0	
2133333333.33333	-7.46761784228056	119.798153862948	0	0	0	0	0	0	
2136666666.66666	-8.03118147594231	114.129258718286	0	0	0	0	0	0	
2140000000	-8.61145534405602	108.238748548852	0	0	0	0	0	0	
2143333333.33333	-9.24036100251601	101.509544114406	0	0	0	0	0	0	
2146666666.66666	-9.93054380408277	94.4719477397623	0	0	0	0	0	0	
2150000000	-10.6497888830267	87.1069283661755	0	0	0	0	0	0	
2153333333.33333	-11.3091842847608	79.7447939881548	0	0	0	0	0	0	
2156666666.66666	-11.8278260653015	71.6496827604664	0	0	0	0	0	0	
2160000000	-12.2398924640401	63.0183818445244	0	0	0	0	0	0	
2163333333.33333	-12.3955092551958	53.6265307933292	0	0	0	0	0	0	
2166666666.66666	-12.4197384620782	42.6897291930854	0	0	0	0	0	0	
2170000000	-12.4435568195546	31.1839040381581	0	0	0	0	0	0	
2173333333.33333	-12.4385751762649	20.6542759449364	0	0	0	0	0	0	
2176666666.66666	-12.2932653267683	10.8428698131016	0	0	0	0	0	0	
2180000000	-12.1370648187035	2.1251257793508	0	0	0	0	0	0	
2183333333.33333	-11.7985753906642	-5.46684068880545	0	0	0	0	0	0	
2186666666.66666	-11.4893147025472	-12.6851129793059	0	0	0	0	0	0	
2190000000	-11.1169124637133	-18.9093891030797	0	0	0	0	0	0	
2193333333.33333	-10.7229468234441	-24.3840312713092	0	0	0	0	0	0	
2196666666.66666	-10.290191865849	-29.6794714930799	0	0	0	0	0	0	
2200000000	-9.90226780950496	-34.3456768421732	0	0	0	0	0	0	
2203333333.33333	-9.49820257828766	-38.3625140983751	0	0	0	0	0	0	
2206666666.66666	-9.0513614653261	-42.6062751803003	0	0	0	0	0	0	
2210000000	-8.67336633484599	-46.7160028799582	0	0	0	0	0	0	
2213333333.33333	-8.35576075090386	-50.7496109844813	0	0	0	0	0	0	
2216666666.66667	-8.07862662827105	-54.267154410573	0	0	0	0	0	0	
2220000000	-7.83877430695939	-57.6057302603865	0	0	0	0	0	0	
2223333333.33333	-7.63256743751443	-60.4958618592856	0	0	0	0	0	0	
2226666666.66667	-7.45587796924778	-62.791616007882	0	0	0	0	0	0	
2230000000	-7.17582808760354	-64.7691105653834	0	0	0	0	0	0	
2233333333.33333	-6.95524915552779	-67.1437084844185	0	0	0	0	0	0	
2236666666.66667	-6.76295728319641	-69.1436554768873	0	0	0	0	0	0	
2240000000	-6.57926719572541	-71.0318419308253	0	0	0	0	0	0	
2243333333.33333	-6.38533752350818	-72.7374431972009	0	0	0	0	0	0	
2246666666.66667	-6.20117521062346	-74.7874420238091	0	0	0	0	0	0	
2250000000	-6.06753289755005	-76.5474455571957	0	0	0	0	0	0	
2253333333.33333	-5.90537649827002	-78.3362996572222	0	0	0	0	0	0	
2256666666.66667	-5.76992604156565	-80.0595724918302	0	0	0	0	0	0	
2260000000	-5.62391336040213	-81.9214557398209	0	0	0	0	0	0	
2263333333.33333	-5.5469191448311	-83.8137701905715	0	0	0	0	0	0	
2266666666.66667	-5.48477066867989	-85.3095319963121	0	0	0	0	0	0	
2270000000	-5.40464415025875	-86.7606601359027	0	0	0	0	0	0	
2273333333.33333	-5.33275377509532	-88.0800209206594	0	0	0	0	0	0	
2276666666.66667	-5.22454135382806	-89.3639342623461	0	0	0	0	0	0	
2280000000	-5.14651253876473	-90.8083452553207	0	0	0	0	0	0	
2283333333.33333	-5.08000249815393	-91.9998025215041	0	0	0	0	0	0	
2286666666.66667	-4.9839486068359	-93.0412782576413	0	0	0	0	0	0	
2290000000	-4.86827812601707	-94.2760304649206	0	0	0	0	0	0	
2293333333.33334	-4.78057971969411	-95.6202450931504	0	0	0	0	0	0	
2296666666.66667	-4.72880598685836	-96.9171871832222	0	0	0	0	0	0	
2300000000	-4.69294809616964	-97.9463171508489	0	0	0	0	0	0	
2303333333.33334	-4.64226859830864	-98.9770204946362	0	0	0	0	0	0	
2306666666.66667	-4.60446458062039	-99.9895960818049	0	0	0	0	0	0	
2310000000	-4.57866019976379	-101.062230538133	0	0	0	0	0	0	
2313333333.33334	-4.56820817041901	-101.932501525939	0	0	0	0	0	0	
2316666666.66667	-4.53972712478631	-102.776347338471	0	0	0	0	0	0	
2320000000	-4.5028979558043	-103.498801961096	0	0	0	0	0	0	
2323333333.33334	-4.43840259102303	-104.43795209619	0	0	0	0	0	0	
2326666666.66667	-4.40353561436045	-105.616364278019	0	0	0	0	0	0	
2330000000	-4.4144551620805	-106.621659969037	0	0	0	0	0	0	
2333333333.33334	-4.40861470925209	-107.416474285569	0	0	0	0	0	0	
2336666666.66667	-4.39456591886557	-108.162395839533	0	0	0	0	0	0	
2340000000	-4.3447355412983	-108.844435637715	0	0	0	0	0	0	
2343333333.33334	-4.29495638141198	-109.835549424888	0	0	0	0	0	0	
2346666666.66667	-4.27636391187116	-110.842189561775	0	0	0	0	0	0	
2350000000	-4.27443408482241	-111.700061835377	0	0	0	0	0	0	
2353333333.33334	-4.26686166698436	-112.477682837304	0	0	0	0	0	0	
2356666666.66667	-4.25478928692019	-113.212076542952	0	0	0	0	0	0	
2360000000.00001	-4.25222653980764	-113.931714120006	0	0	0	0	0	0	
2363333333.33334	-4.2487197536373	-114.604548994836	0	0	0	0	0	0	
2366666666.66667	-4.24358034360398	-115.21783949981	0	0	0	0	0	0	
2370000000.00001	-4.23476978436091	-115.931282183559	0	0	0	0	0	0	
2373333333.33334	-4.2411189277604	-116.64957367078	0	0	0	0	0	0	
2376666666.66667	-4.2616434228526	-117.34103146583	0	0	0	0	0	0	
2380000000.00001	-4.26698177374277	-117.908747498893	0	0	0	0	0	0	
2383333333.33334	-4.26690672818897	-118.623778807834	0	0	0	0	0	0	
2386666666.66667	-4.28668658543549	-119.373979821435	0	0	0	0	0	0	
2390000000.00001	-4.31305946744157	-119.96516028008	0	0	0	0	0	0	
2393333333.33334	-4.32641535054228	-120.530265476798	0	0	0	0	0	0	
2396666666.66667	-4.32306966896303	-120.990257236336	0	0	0	0	0	0	
2400000000.00001	-4.26802984066614	-121.599145304335	0	0	0	0	0	0	
2403333333.33334	-4.24271817761285	-122.631927156108	0	0	0	0	0	0	
2406666666.66667	-4.26846282021281	-123.526784497491	0	0	0	0	0	0	
2410000000.00001	-4.30126115770628	-124.278102666756	0	0	0	0	0	0	
2413333333.33334	-4.34153318720055	-124.836146266772	0	0	0	0	0	0	
2416666666.66667	-4.35120491753975	-125.240303424084	0	0	0	0	0	0	
2420000000.00001	-4.34406337750792	-125.801222845546	0	0	0	0	0	0	
2423333333.33334	-4.37567166603944	-126.360912605099	0	0	0	0	0	0	
2426666666.66668	-4.37674894496352	-126.766149077484	0	0	0	0	0	0	
2430000000.00001	-4.39473331939423	-127.348167921622	0	0	0	0	0	0	
2433333333.33334	-4.43915862873229	-127.81889979937	0	0	0	0	0	0	
2436666666.66668	-4.4598599690828	-128.162977442215	0	0	0	0	0	0	
2440000000.00001	-4.4812237849041	-128.632382003072	0	0	0	0	0	0	
2443333333.33334	-4.49096517893931	-129.016667942401	0	0	0	0	0	0	
2446666666.66668	-4.49696938031413	-129.849916431186	0	0	0	0	0	0	
2450000000.00001	-4.58818130549485	-130.503663698578	0	0	0	0	0	0	
2453333333.33334	-4.64764323046502	-130.730182827639	0	0	0	0	0	0	
2456666666.66668	-4.65459784082479	-130.962718136364	0	0	0	0	0	0	
2460000000.00001	-4.63649917774404	-131.583709353453	0	0	0	0	0	0	
2463333333.33334	-4.65774647333292	-132.355448836756	0	0	0	0	0	0	
2466666666.66668	-4.69815796639858	-133.099548041513	0	0	0	0	0	0	
2470000000.00001	-4.76726452825671	-133.61777406007	0	0	0	0	0	0	
2473333333.33334	-4.79776159949197	-133.933371450497	0	0	0	0	0	0	
2476666666.66668	-4.81879107968095	-134.362149388605	0	0	0	0	0	0	
2480000000.00001	-4.81873195880502	-134.740637103688	0	0	0	0	0	0	
2483333333.33334	-4.83515655523175	-135.328347211147	0	0	0	0	0	0	
2486666666.66668	-4.84915762517691	-135.802451630048	0	0	0	0	0	0	
2490000000.00001	-4.8646434965108	-136.311165656693	0	0	0	0	0	0	
2493333333.33334	-4.89833108448437	-136.967825820576	0	0	0	0	0	0	
2496666666.66668	-4.96413090993887	-137.415829008153	0	0	0	0	0	0	
2500000000.00001	-5.02294769378686	-137.803758872887	0	0	0	0	0	0	
2503333333.33335	-5.07926961444849	-137.972185583181	0	0	0	0	0	0	
2506666666.66668	-5.09152515408505	-138.303521729379	0	0	0	0	0	0	
2510000000.00001	-5.13641412310224	-138.850626361384	0	0	0	0	0	0	
2513333333.33335	-5.20246676022249	-139.277807746846	0	0	0	0	0	0	
2516666666.66668	-5.25341912574622	-139.574745914508	0	0	0	0	0	0	
2520000000.00001	-5.2764519496284	-139.962292459107	0	0	0	0	0	0	
2523333333.33335	-5.32258859028691	-140.543957171331	0	0	0	0	0	0	
2526666666.66668	-5.36981998651422	-141.049630642585	0	0	0	0	0	0	
2530000000.00001	-5.4416751081027	-141.691483524252	0	0	0	0	0	0	
2533333333.33335	-5.5417200868045	-142.086802621426	0	0	0	0	0	0	
2536666666.66668	-5.62258931401206	-142.119943553805	0	0	0	0	0	0	
2540000000.00001	-5.63139513183222	-142.088066964022	0	0	0	0	0	0	
2543333333.33335	-5.61257162399338	-142.500738425585	0	0	0	0	0	0	
2546666666.66668	-5.62747021520646	-143.14112772703	0	0	0	0	0	0	
2550000000.00001	-5.69365982363535	-143.709651204369	0	0	0	0	0	0	
2553333333.33335	-5.76452503571864	-144.073559888436	0	0	0	0	0	0	
2556666666.66668	-5.82550438601757	-144.18984112929	0	0	0	0	0	0	
2560000000.00001	-5.85422304946887	-144.488304711455	0	0	0	0	0	0	
2563333333.33335	-5.90726229807156	-144.851307693642	0	0	0	0	0	0	
2566666666.66668	-5.95406479482061	-145.259531540804	0	0	0	0	0	0	
2570000000.00002	-6.06072300043842	-145.695193756454	0	0	0	0	0	0	
2573333333.33335	-6.15729881921672	-145.751199346558	0	0	0	0	0	0	
2576666666.66668	-6.22103691134108	-145.711522284444	0	0	0	0	0	0	
2580000000.00002	-6.26743154352043	-145.85186201876	0	0	0	0	0	0	
2583333333.33335	-6.30846176659698	-145.924034398155	0	0	0	0	0	0	
2586666666.66668	-6.30847656137579	-146.250243850197	0	0	0	0	0	0	
2590000000.00002	-6.37766252297646	-146.851097846102	0	0	0	0	0	0	
2593333333.33335	-6.4557383150192	-147.102126461939	0	0	0	0	0	0	
2596666666.66668	-6.51685111461765	-147.383961820146	0	0	0	0	0	0	
2600000000.00002	-6.57765539925856	-147.685723808394	0	0	0	0	0	0	
2603333333.33335	-6.63982312889476	-148.001879395664	0	0	0	0	0	0	
2606666666.66668	-6.72623600560464	-148.270152190858	0	0	0	0	0	0	
2610000000.00002	-6.81117193841101	-148.250173832859	0	0	0	0	0	0	
2613333333.33335	-6.83208027812815	-148.172027538948	0	0	0	0	0	0	
2616666666.66668	-6.87571036885068	-148.396290132697	0	0	0	0	0	0	
2620000000.00002	-6.91506742042179	-148.375667883566	0	0	0	0	0	0	
2623333333.33335	-6.90646324528774	-148.486775894142	0	0	0	0	0	0	
2626666666.66668	-6.94021576819509	-149.168592326884	0	0	0	0	0	0	
2630000000.00002	-7.04135605061764	-149.522059307648	0	0	0	0	0	0	
2633333333.33335	-7.13318947088765	-149.723327058332	0	0	0	0	0	0	
2636666666.66669	-7.25752612608169	-149.933977205189	0	0	0	0	0	0	
2640000000.00002	-7.37065473740201	-149.555471985407	0	0	0	0	0	0	
2643333333.33335	-7.43513076208465	-149.24998217433	0	0	0	0	0	0	
2646666666.66669	-7.46189920803999	-148.846407882848	0	0	0	0	0	0	
2650000000.00002	-7.44331336627551	-148.79446364811	0	0	0	0	0	0	
2653333333.33335	-7.4490322396036	-149.026047197199	0	0	0	0	0	0	
2656666666.66669	-7.46150555617485	-149.534032503623	0	0	0	0	0	0	
2660000000.00002	-7.57072853944332	-150.194195899228	0	0	0	0	0	0	
2663333333.33335	-7.70034125737385	-150.159954920223	0	0	0	0	0	0	
2666666666.66669	-7.75212275183259	-150.087656001456	0	0	0	0	0	0	
2670000000.00002	-7.79628500365222	-150.291794886681	0	0	0	0	0	0	
2673333333.33335	-7.87582826726076	-150.643872831407	0	0	0	0	0	0	
2676666666.66669	-8.01015740874216	-150.779131548804	0	0	0	0	0	0	
2680000000.00002	-8.14087033154897	-150.360602591377	0	0	0	0	0	0	
2683333333.33335	-8.17419719054419	-149.778696806168	0	0	0	0	0	0	
2686666666.66669	-8.15283744582028	-149.471193881491	0	0	0	0	0	0	
2690000000.00002	-8.14429866250637	-149.747050441583	0	0	0	0	0	0	
2693333333.33335	-8.19762154821922	-149.915326446625	0	0	0	0	0	0	
2696666666.66669	-8.24378253481797	-149.894359498607	0	0	0	0	0	0	
2700000000.00002	-8.2580813524935	-149.912006563612	0	0	0	0	0	0	
2703333333.33335	-8.29417695188826	-150.095917246169	0	0	0	0	0	0	
2706666666.66669	-8.29994426884306	-150.326634343661	0	0	0	0	0	0	
2710000000.00002	-8.39633342660337	-150.851230320577	0	0	0	0	0	0	
2713333333.33336	-8.53370855087416	-150.90085327178	0	0	0	0	0	0	
2716666666.66669	-8.66410241622523	-150.438607389257	0	0	0	0	0	0	
2720000000.00002	-8.70266116692417	-149.654626769968	0	0	0	0	0	0	
2723333333.33336	-8.65122797569552	-149.461876992712	0	0	0	0	0	0	
2726666666.66669	-8.66796128764232	-149.770782396477	0	0	0	0	0	0	
2730000000.00002	-8.69412486217389	-149.906178734721	0	0	0	0	0	0	
2733333333.33336	-8.75690910964981	-150.24726614499	0	0	0	0	0	0	
2736666666.66669	-8.84418150419688	-150.428638598002	0	0	0	0	0	0	
2740000000.00002	-8.93074891318283	-150.489228974352	0	0	0	0	0	0	
2743333333.33336	-9.01887791844158	-150.62728431094	0	0	0	0	0	0	
2746666666.66669	-9.16380744439646	-150.61695419439	0	0	0	0	0	0	
2750000000.00002	-9.2876501010112	-150.097563162116	0	0	0	0	0	0	
2753333333.33336	-9.34177533967731	-149.482905565123	0	0	0	0	0	0	
2756666666.66669	-9.35711000139864	-149.112120115984	0	0	0	0	0	0	
2760000000.00002	-9.38357542986988	-149.084563222828	0	0	0	0	0	0	
2763333333.33336	-9.46340183026389	-148.958562206777	0	0	0	0	0	0	
2766666666.66669	-9.53492399023361	-148.546294880565	0	0	0	0	0	0	
2770000000.00002	-9.5747734948163	-148.152177559233	0	0	0	0	0	0	
2773333333.33336	-9.64369769217115	-147.998128410892	0	0	0	0	0	0	
2776666666.66669	-9.764830918253	-147.287280828733	0	0	0	0	0	0	
2780000000.00003	-9.8196679198877	-146.412029357092	0	0	0	0	0	0	
2783333333.33336	-9.92151755765953	-145.309163621364	0	0	0	0	0	0	
2786666666.66669	-9.96075388974101	-143.27590318786	0	0	0	0	0	0	
2790000000.00003	-9.84893033242681	-140.716389499808	0	0	0	0	0	0	
2793333333.33336	-9.43639629345807	-137.77043526954	0	0	0	0	0	0	
2796666666.66669	-8.53704067715635	-137.197204047088	0	0	0	0	0	0	
2800000000.00003	-7.84951673409971	-142.333667978804	0	0	0	0	0	0	
2803333333.33336	-7.95686735162716	-147.820129724778	0	0	0	0	0	0	
2806666666.66669	-8.35379069588703	-150.546475856763	0	0	0	0	0	0	
2810000000.00003	-8.67135701433112	-151.725118528033	0	0	0	0	0	0	
2813333333.33336	-8.93050210558099	-152.451341198032	0	0	0	0	0	0	
2816666666.66669	-9.19440662101542	-152.9181411692	0	0	0	0	0	0	
2820000000.00003	-9.41063175384695	-152.757309872944	0	0	0	0	0	0	
2823333333.33336	-9.5650635141807	-152.572781271307	0	0	0	0	0	0	
2826666666.66669	-9.67143913768512	-152.338061920436	0	0	0	0	0	0	
2830000000.00003	-9.75919625605764	-152.092514126475	0	0	0	0	0	0	
2833333333.33336	-9.78424454438707	-152.155960892499	0	0	0	0	0	0	
2836666666.66669	-9.85057884473226	-152.669972735563	0	0	0	0	0	0	
2840000000.00003	-10.0057339035031	-153.013476423967	0	0	0	0	0	0	
2843333333.33336	-10.1400544574076	-152.905774916375	0	0	0	0	0	0	
2846666666.6667	-10.2582528375478	-152.918524294308	0	0	0	0	0	0	
2850000000.00003	-10.4273748436687	-152.863933281248	0	0	0	0	0	0	
2853333333.33336	-10.5945964412265	-152.272964300967	0	0	0	0	0	0	
2856666666.6667	-10.6933258372201	-151.542377733211	0	0	0	0	0	0	
2860000000.00003	-10.7491953508844	-151.097644881644	0	0	0	0	0	0	
2863333333.33336	-10.8187185408167	-150.815952261325	0	0	0	0	0	0	
2866666666.6667	-10.9115089323707	-150.79960185005	0	0	0	0	0	0	
2870000000.00003	-11.0203425940298	-150.612927620232	0	0	0	0	0	0	
2873333333.33336	-11.1068803338185	-150.493015420121	0	0	0	0	0	0	
2876666666.6667	-11.2811528815835	-150.759398786788	0	0	0	0	0	0	
2880000000.00003	-11.4305355864055	-150.196484562156	0	0	0	0	0	0	
2883333333.33336	-11.5444450257232	-150.236896394077	0	0	0	0	0	0	
2886666666.6667	-11.7510792840869	-150.113731879047	0	0	0	0	0	0	
2890000000.00003	-11.9093733100462	-149.274759125104	0	0	0	0	0	0	
2893333333.33336	-12.0348724496295	-148.939018380914	0	0	0	0	0	0	
2896666666.6667	-12.1919036584088	-147.978289537807	0	0	0	0	0	0	
2900000000.00003	-12.2321164097812	-147.005829079513	0	0	0	0	0	0	
2903333333.33336	-12.2611460164997	-146.75160112783	0	0	0	0	0	0	
2906666666.6667	-12.4067112887327	-146.347620861384	0	0	0	0	0	0	
2910000000.00003	-12.466881545559	-145.728549801072	0	0	0	0	0	0	
2913333333.33336	-12.6478062610452	-145.274405805696	0	0	0	0	0	0	
2916666666.6667	-12.7699176053177	-144.235457656056	0	0	0	0	0	0	
2920000000.00003	-12.9038284239856	-143.299706461948	0	0	0	0	0	0	
2923333333.33337	-13.0311267654721	-142.443086240104	0	0	0	0	0	0	
2926666666.6667	-13.2382281191492	-141.705193976658	0	0	0	0	0	0	
2930000000.00003	-13.5171907815624	-140.346639243234	0	0	0	0	0	0	
2933333333.33337	-13.7921213210423	-137.718540792313	0	0	0	0	0	0	
2936666666.6667	-13.8212106921379	-134.840398282319	0	0	0	0	0	0	
2940000000.00003	-13.8112766996071	-133.044845263346	0	0	0	0	0	0	
