!Agilent N9923A: A.07.32
!Date: Thursday, 02 June 2016 02:51:00
!Model: N9923A
!Serial: MY52412257
!GPS Latitude: 
!GPS Longitude: 
!GPS TimeStamp: 0001-01-01 00:00:00Z
!GPS Seconds Since Last Read: 0
!CHECKSUM:1505415603
!Correction: S11(ON U)S21(ON U)S12(ON U)S22(ON U)
!S2P File: Measurements:S11,S21,S12,S22:
# Hz S DB R 50
1950000000	-4.39054526113669	-98.3258985006679	-55.6678887556641	68.5883580066814	-16.0717868157287	151.763531427853	-9.26722187995584	-47.4615098862884	
1953333333.33333	-4.47497243349945	-100.765497113428	-55.7915140127476	67.9058099045767	-16.1758628705117	150.732802430735	-9.25748933785516	-46.1756053333452	
1956666666.66667	-4.56539955251755	-103.256023642529	-56.2257964807263	63.5189515914131	-16.3425984018826	149.782840952742	-9.23837491042368	-44.9472888296918	
1960000000	-4.65547991924328	-105.747088713947	-56.3761189060651	63.0747098929967	-16.3955909592552	148.564008933195	-9.17360543694902	-43.5494163172272	
1963333333.33333	-4.74866379507402	-108.319338724789	-56.662457050566	58.2661524414287	-16.4988764427462	147.523181362003	-9.17794287275193	-42.79420489747	
1966666666.66667	-4.84435480297888	-110.908453272324	-56.9158325606665	54.6728414321938	-16.5859924205151	146.522700133475	-9.1419397974841	-42.0217256602712	
1970000000	-4.9413145887259	-113.512169841996	-57.4114234533483	52.4869092176523	-16.6707088479428	145.470064508283	-9.11656875782399	-41.4829895181957	
1973333333.33333	-5.03971709511205	-116.167452241393	-57.6135675659463	49.2342242099055	-16.7950984776423	144.343910272873	-9.10619399150578	-41.0482650253435	
1976666666.66667	-5.14092955166186	-118.811869434188	-57.7197220365606	44.8888807448099	-16.9292400975787	143.18205367648	-9.02813443722082	-40.1905738224455	
1980000000	-5.24287268262123	-121.48793539073	-58.1521533206589	39.4229655050927	-17.0818843408089	142.081321268567	-9.13235819824658	-40.3055921762269	
1983333333.33333	-5.34983479043153	-124.190734216146	-58.6513704512589	34.2349224418898	-17.2852256546271	141.279432362964	-9.13840669820886	-39.9395401527625	
1986666666.66667	-5.45766808405067	-126.886000351445	-58.9808231663857	31.0674260877808	-17.3024340943755	140.372674250541	-9.03642282717692	-39.1138691135473	
1990000000	-5.56755091737529	-129.603172842114	-59.7376297156116	26.4105101600964	-17.3530236530626	139.655130203388	-9.07656680416157	-39.1318759057022	
1993333333.33333	-5.68159408149631	-132.323048606588	-60.2535383734844	21.4431802665807	-17.4099106915678	138.900543869995	-9.00987610882691	-38.776724874556	
1996666666.66667	-5.79639731425455	-135.044820068626	-60.8286055301268	18.0998541629219	-17.4706676764702	138.12507045628	-8.94692467484679	-38.4859652264458	
2000000000	-5.91258104331012	-137.764069520158	-61.5417868513364	14.2429725686405	-17.5310876635358	137.346419048476	-8.89891770352727	-38.3143647530215	
2003333333.33333	-6.0324756074937	-140.477704367705	-62.4339691109697	11.8101826047799	-17.5697787080817	136.548149586201	-8.78532627388773	-37.9915302164673	
2006666666.66667	-6.15646528428906	-143.180074264812	-63.1505596693652	16.0530696260505	-17.5831623357352	135.750888969725	-8.7791662533329	-38.1938479338093	
2010000000	-6.28039747538564	-145.87601447559	-64.7686469289733	14.5086573555263	-17.6698014086987	135.083006751735	-8.70390574266849	-38.1269053985288	
2013333333.33333	-6.40655048722826	-148.577114938019	-65.7840883892338	21.9125907873949	-17.7245207104113	134.111469252128	-8.59496648765779	-37.9261869385609	
2016666666.66667	-6.5360547233256	-151.254391191563	-67.1929949926999	29.5169765955558	-17.936313523222	133.61500363623	-8.54920628327847	-38.0113322686701	
2020000000	-6.66718812636833	-153.920572021447	-67.785732581213	35.6393178524306	-18.1008675742062	133.015093895359	-8.39173943274501	-37.7673985273624	
2023333333.33333	-6.79722966666822	-156.580058887222	-69.4492325262192	37.1711532884203	-18.2883884162897	132.572414024165	-8.43069768925342	-38.1697989692773	
2026666666.66666	-6.93015582114277	-159.219202674674	-70.4127995467799	41.5907742734187	-18.4587711282607	132.182948896068	-8.37772525162503	-38.2998446716274	
2030000000	-7.06224900360612	-161.888174207605	-73.392261515085	42.8148981764319	-18.6181388001554	131.866342116927	-8.31223681209792	-38.2543349957144	
2033333333.33333	-7.18690502046199	-164.539986724761	-73.6387240542824	55.2367706262431	-18.8067679904802	131.763717657308	-8.23945447876772	-37.9802151163461	
2036666666.66666	-7.31821619970874	-167.235812382769	-76.9454367997678	53.2122592066273	-19.0033966241	131.829666553991	-8.12789204393994	-37.5824331681121	
2040000000	-7.43219118289575	-169.897304760248	-76.3926095185945	57.3545974596857	-19.1612059681025	131.843319757095	-7.98931544705358	-37.1426824417236	
2043333333.33333	-7.54185214259522	-172.561955187711	-76.7894050927557	79.1589978050251	-19.281761240331	131.711932033091	-7.83553998864659	-36.782657500578	
2046666666.66666	-7.64559241447958	-175.189176455535	-78.7276631744335	52.3297891825368	-19.3399726427856	131.219703730989	-7.59916096578957	-36.2127314261082	
2050000000	-7.73751604332115	-177.825698738135	-76.9765972333259	84.6614892724428	-19.3960118361508	130.632700900526	-7.54275577604044	-36.3784469250682	
2053333333.33333	-7.82362124100832	179.611149588354	-77.7742703091201	102.745349449499	-19.5093646460072	130.123315777727	-7.44279012336354	-36.4985247746619	
2056666666.66666	-7.89426169265935	177.063655954175	-75.1803687765354	98.7959105316484	-19.5846227217481	129.378882996298	-7.3740655444712	-36.8400190736572	
2060000000	-7.9555271146825	174.556101839511	-73.1247909229372	103.031729727087	-19.7181754371059	128.696965010337	-7.33848156123202	-37.3249053860469	
2063333333.33333	-8.0074967206015	172.103917662907	-72.0623120799856	109.23380277242	-19.8753186713307	128.011324016133	-7.32086465790243	-37.9586372090383	
2066666666.66666	-8.04463515087837	169.680560387978	-69.444244568122	110.410314796943	-20.0536436109028	127.463393329413	-7.32308215967387	-38.6960923831314	
2070000000	-8.06957842320783	167.286709083101	-67.7816228769207	98.5531423094793	-20.2609660592852	127.29538078229	-7.34160090874458	-39.3966981547804	
2073333333.33333	-8.0835597398647	164.949580860448	-66.5702068188601	97.5548652350805	-20.3937348716508	127.131607936636	-7.31200657915338	-39.8733578469704	
2076666666.66666	-8.08777191890123	162.612219919609	-64.998622708473	94.1788655123376	-20.5205777276315	126.949171387987	-7.42242371417523	-40.7253259608099	
2080000000	-8.07943435997398	160.319015228211	-64.3923972284383	89.2500070580156	-20.6551427149503	126.777384423443	-7.43641936929228	-41.3793608088188	
2083333333.33333	-8.06103139919491	158.051940656324	-63.7148317036095	86.8891433683955	-20.7252752665981	126.096094142805	-7.42258862044407	-42.0491371533372	
2086666666.66666	-8.03470950199221	155.818387300963	-62.1799113568281	82.0028785319346	-20.8698806740109	125.393547621472	-7.4055300363459	-42.7731548742167	
2090000000	-7.99841885728462	153.610210029352	-62.0564649217666	82.4534766745478	-20.8764788538898	124.008289083481	-7.38571783813264	-43.4726976621173	
2093333333.33333	-7.95385178422999	151.407489386244	-61.6382091270676	78.8223961451677	-20.9469000112836	122.803399117464	-7.4035232086938	-44.2131426537496	
2096666666.66666	-7.89785961859991	149.226091815005	-60.9067465391152	78.2328889221113	-21.0287677617126	121.750447513726	-7.39714547724495	-44.8864090160088	
2100000000	-7.83945463949407	147.039653117415	-60.4888662235551	74.0673823223544	-21.13164018913	121.034793143028	-7.36404428559695	-45.4853742573542	
2103333333.33333	-7.77442136395492	144.879545682245	-60.1388956180586	74.954154464294	-21.2824533443489	120.904035125944	-7.32085937779313	-46.0333622870727	
2106666666.66666	-7.70648166524474	142.717053872701	-59.7991705227839	68.4417825144183	-21.3061190874543	120.493631196941	-7.22693469254966	-46.3568114418358	
2110000000	-7.63467815383152	140.548916214451	-60.1302663104907	66.7951880478789	-21.3699334897041	120.282662943299	-7.23452737645141	-46.8617345754379	
2113333333.33333	-7.55571908237715	138.3562542134	-59.8133048314758	65.6139853084684	-21.4520998017103	120.00087667585	-7.17969561857818	-47.162324675809	
2116666666.66666	-7.46934345808816	136.173056923896	-59.8040099862382	61.759825060679	-21.5596273396594	119.762146024527	-7.11729791632808	-47.3075528319711	
2120000000	-7.38279758192147	133.963045974788	-60.5183414353036	60.5417489863733	-21.7033413694559	119.406099817286	-7.05334766156472	-47.3053259716634	
2123333333.33333	-7.2866281192742	131.768385266316	-60.763615751843	59.8119584502903	-21.8660419036704	118.982950675967	-6.95710771259318	-47.0956682566056	
2126666666.66666	-7.18388599443214	129.534773857868	-61.4192593185197	57.6171752099405	-22.0405548953629	118.443936543642	-6.92177447891536	-46.9979996530285	
2130000000	-7.07361730410117	127.304603789458	-61.4542750034958	55.5091882990305	-22.2817107617827	117.912606550043	-6.83927100996024	-46.7898539608552	
2133333333.33333	-6.9616579653214	125.102051937668	-62.4105621907895	53.2764622403653	-22.4197479671022	117.030549158745	-6.67349707076116	-46.4618779945706	
2136666666.66666	-6.84018371197509	122.891262701103	-63.2363518086508	51.2776662422028	-22.6146386515955	116.579111377815	-6.65075848320081	-46.6801216270779	
2140000000	-6.72162436695141	120.709821106088	-63.3299351531368	49.2946548292198	-22.8490185755464	116.30338562528	-6.57779837177094	-46.8485968115532	
2143333333.33333	-6.59614633879531	118.532330143252	-63.7636335464408	50.4211961898587	-22.9980992599474	116.10813112103	-6.54104914346855	-47.1845560339791	
2146666666.66666	-6.4708704003682	116.368948467308	-65.2617379690864	48.2998316943286	-23.151999054541	116.210295243038	-6.51705097274756	-47.6257346567334	
2150000000	-6.34537500797069	114.238837618918	-65.1317947800507	44.4805003434553	-23.2569218701245	116.480743096402	-6.4860011809944	-48.0426285855039	
2153333333.33333	-6.21990006716012	112.122705745673	-66.1831719049578	49.3886950771167	-23.316104923155	116.951186619458	-6.54313700508979	-48.7437969063546	
2156666666.66666	-6.09423950961302	110.031626290532	-66.1971099207441	46.396661071763	-23.3748124179899	117.836938090306	-6.5889834684159	-49.4305566697689	
2160000000	-5.96937771763264	107.963959239821	-66.76356651117	43.8424107252854	-23.2335999984858	118.4599884509	-6.63524349424708	-50.125596747806	
2163333333.33333	-5.84906094869744	105.918578701363	-67.2432504979663	43.2178438522336	-23.0875287045209	119.083231942456	-6.73597698844673	-51.0283851418019	
2166666666.66666	-5.72816172632027	103.872183546382	-67.1742028387274	42.6844551432138	-22.9136072395815	119.36612681484	-6.82952984611238	-51.9637866008201	
2170000000	-5.61271320145544	101.847817983335	-67.9474670691339	42.7979441804567	-22.742953314503	119.197487487905	-6.93168750000257	-52.9720778318482	
2173333333.33333	-5.49683141739267	99.8544069581615	-68.4856551624106	42.3730510286256	-22.6086537730779	118.785098383048	-7.03557608001248	-54.0556593317051	
2176666666.66666	-5.38571179447002	97.8452354486309	-70.6227691636794	44.170810597141	-22.4768381999456	118.182968624522	-7.05869492087362	-54.9409752716603	
2180000000	-5.2742743967058	95.8615749334598	-69.4750266053143	46.3607624062255	-22.3301313871629	117.784958161638	-7.21591697118861	-56.1508149530589	
2183333333.33333	-5.16904343502441	93.9021489503156	-73.1424760969412	44.5370932298284	-22.1468330081138	117.658309113627	-7.26920133205023	-57.1242664866566	
2186666666.66666	-5.06698669272639	91.9631330466589	-72.3499341565639	56.2042596228041	-21.9145001632877	117.677686794041	-7.29763814276635	-58.0277630618276	
2190000000	-4.97224069730247	90.045778857119	-72.5543460478142	70.2602185186639	-21.6835075735922	117.776574413932	-7.29013545443606	-58.8805954041836	
2193333333.33333	-4.87992385464364	88.1614605758938	-72.6029273531188	76.0105012254747	-21.4746360065775	117.813236066172	-7.23821958355179	-59.6249047153622	
2196666666.66666	-4.79371909448544	86.2807822189806	-75.9437846535704	66.5484423969906	-21.3029819131107	117.799782912992	-7.18664904761363	-60.4404471853186	
2200000000	-4.70558544330678	84.4332410140013	-76.0874928409044	72.7143853123713	-21.1893794912216	118.080515453018	-7.0893399244555	-61.146993424656	
2203333333.33333	-4.62136426273901	82.5830443187837	-71.8051547732948	71.2241880467125	-20.9871170985287	117.718985840357	-6.9452412284958	-61.758841540076	
2206666666.66666	-4.53937662749967	80.7820424197676	-72.7983390090108	50.4535118263917	-20.879660025623	117.663071708891	-6.80519529377692	-62.3761951328143	
2210000000	-4.45833301080246	78.9741662977227	-73.7936297720324	59.2213041852006	-20.8155226454757	117.537538286569	-6.61549566048489	-62.8667213445459	
2213333333.33333	-4.37975796776112	77.1938963349686	-78.8976065030943	35.9907229015144	-20.7986202807212	117.497137903309	-6.39518830522084	-63.2845922470551	
2216666666.66667	-4.3012736816305	75.4245846535601	-77.6750476172553	34.6410866373961	-20.8786573787254	117.7239698483	-6.16141425090091	-63.6380246276015	
2220000000	-4.22342544586584	73.6898083933947	-78.0281213391763	57.0318248944189	-20.8638904020412	117.408011579914	-5.89609271852423	-63.8248580321091	
2223333333.33333	-4.14773420955718	71.9681926658929	-80.8714503420439	51.6998274642685	-20.9050731024082	117.47326584087	-5.70676137604067	-64.1903017895509	
2226666666.66667	-4.07099001575482	70.2729225233458	-77.4094573268928	106.457827828315	-20.9422247424967	117.537230760583	-5.50151872977346	-64.4746185866724	
2230000000	-3.99687375458948	68.6020691268927	-82.86587150426	78.1125122644777	-20.9708741294354	117.615875389294	-5.31316307738647	-64.8122783665538	
2233333333.33333	-3.92499752388095	66.9573015793278	-76.0040935765529	102.477270873868	-20.9910462091528	117.7110719489	-5.15929122600133	-65.2722960448353	
2236666666.66667	-3.85588936553093	65.3474180253838	-72.9636762290384	91.3104817560447	-20.9844621954127	117.702549858354	-4.9841425824796	-65.7072318694898	
2240000000	-3.78755584776902	63.7569088685234	-70.5333379913182	98.9386259567378	-20.9233119590761	117.636052991394	-4.95131001465532	-66.6195556695474	
2243333333.33333	-3.72117501238365	62.1936201325501	-69.647996222787	97.1091682936486	-20.8825870461441	117.634509208827	-4.9053603791452	-67.5217344174516	
2246666666.66667	-3.66088269704944	60.6628837758588	-69.9868155211524	90.1660151782101	-20.6809004908682	116.83178712817	-4.90404989561507	-68.6592548958009	
2250000000	-3.59969121698646	59.143539691389	-68.642340649154	91.1235391373968	-20.5027760669497	115.872814819993	-4.97144548182226	-70.0690680542426	
2253333333.33333	-3.54085878929387	57.6511450582871	-67.9023628587285	91.1631274146824	-20.3255341310797	114.607895022018	-5.09382496707658	-71.7214645150571	
2256666666.66667	-3.48645285248299	56.1776600029261	-67.1677897044435	92.1547114172034	-20.1409527497833	112.925038194215	-5.27911324618334	-73.5668912734073	
2260000000	-3.43261361806166	54.7154671895041	-68.3660537294454	94.399705604626	-19.9893035508901	111.086990093221	-5.50926530270174	-75.5138295198602	
2263333333.33333	-3.38177181664252	53.2832990240433	-67.5492861954497	97.6234546656604	-19.8559885874267	109.20708042269	-5.71374287183054	-77.3472999772872	
2266666666.66667	-3.33292015713906	51.8639965061586	-67.2233400746668	107.04616300834	-19.7385268482675	107.322667880306	-6.03313566099088	-79.4293716696796	
2270000000	-3.28866839838829	50.4685676776815	-66.2859357837962	99.4692536960623	-19.6716402296205	105.87380880721	-6.27873435875707	-81.2384289197567	
2273333333.33333	-3.24899290601687	49.0729575873179	-67.2176361730657	107.196237261696	-19.5192678555747	104.130860494984	-6.49819193812924	-82.9382525987326	
2276666666.66667	-3.20877453261559	47.6858312553015	-66.8825543974339	107.25182932401	-19.4187257381951	102.708288630667	-6.69917507404438	-84.5438225713353	
2280000000	-3.17346815665838	46.331794040995	-66.6650046764858	113.961980047967	-19.3182799070876	101.436605798129	-6.87724538983241	-86.0294909542322	
2283333333.33333	-3.1424698827803	44.974817461448	-66.2629477442464	105.125149777779	-19.2046935065206	100.181593071653	-7.03043530524517	-87.3684413168174	
2286666666.66667	-3.10864314134931	43.6303001150577	-66.7607593065491	107.576700507931	-19.1076316272474	99.1364717544428	-7.14657443085055	-88.5490388005037	
2290000000	-3.07645029242754	42.3021778479117	-67.0788525022341	114.219500677732	-18.915825380003	97.5256132558105	-7.14036816333863	-89.3241380135309	
2293333333.33334	-3.04532138791985	40.9940124289402	-67.31483741652	116.248535727359	-18.7900608634763	96.1827631512184	-7.27361899914034	-90.4420477885564	
2296666666.66667	-3.01290260821264	39.6984298080318	-68.4908140262897	112.916630316058	-18.7241679283584	95.175641961762	-7.25669034943767	-91.1517845369312	
2300000000	-2.97903051517559	38.4134674402489	-67.5305031580936	115.732156070329	-18.6562303501193	94.1457326754661	-7.16852343528074	-91.7363684627819	
2303333333.33334	-2.94785427605752	37.1401899418525	-66.8649215465508	125.001340493906	-18.6519540591415	93.4706307067184	-7.03644839478391	-92.3007307677098	
2306666666.66667	-2.91279913840476	35.9045349308667	-66.7313905197408	129.777513514327	-18.6719923954045	92.8958472457738	-6.88203576027181	-92.8652503184522	
2310000000	-2.88156006773725	34.6676168084548	-66.0194819464218	126.057483575344	-18.702898877309	92.2213397625253	-6.73071527906593	-93.4173372701585	
2313333333.33334	-2.84642285469633	33.4553557519654	-66.1170395004883	121.921764212805	-18.724666653137	91.478604409018	-6.59078045931925	-93.9834037694062	
2316666666.66667	-2.8135974957424	32.2867178617124	-65.9451527087492	123.002365175333	-18.723947288695	90.610983748757	-6.40369149479953	-94.3670982440167	
2320000000	-2.7824695295174	31.1099795858254	-65.6244138226667	118.780951743286	-18.693855822628	89.6481611878069	-6.35609161006051	-95.2144042999443	
2323333333.33334	-2.74810976008391	29.96298828989	-65.7013874031445	115.929401076837	-18.6970468423561	88.9096454625683	-6.28470196844839	-95.8880893413308	
2326666666.66667	-2.71567275311032	28.8508705187383	-65.6468650266499	114.456623220768	-18.5847510926195	87.2863742740342	-6.19962930727128	-96.5241531783879	
2330000000	-2.68493267755039	27.746786320305	-65.5295644410965	114.357263915684	-18.5072103118958	86.0864683888639	-6.19947463982559	-97.7086382315071	
2333333333.33334	-2.65536413109048	26.6570386453404	-65.2982645462277	110.312406308479	-18.4432862705244	85.0148283697113	-6.16957697338548	-99.0175773384023	
2336666666.66667	-2.62733669855097	25.5862256500261	-64.9219254987083	112.082771131706	-18.3112572501398	83.3523547939199	-6.20014941148053	-100.81907829336	
2340000000	-2.5989731182601	24.5166656526465	-65.0780370388065	109.971044381376	-18.1941762612912	81.4963371590385	-6.32657458166943	-103.011030032558	
2343333333.33334	-2.57313383142472	23.4812967293217	-63.3709179247849	107.054716943376	-18.0478003770056	79.1576260538312	-6.5331935172376	-105.529800663207	
2346666666.66667	-2.54736733755295	22.4448339273138	-63.3128770435561	106.444340417174	-17.8760730695883	76.5742005932398	-6.79896342808419	-108.234552989457	
2350000000	-2.5232600355198	21.4158832472811	-63.1501955908229	110.625585303271	-17.7085714257145	74.1237212601836	-7.08002524023525	-111.07056362349	
2353333333.33334	-2.49887028122124	20.4049676741809	-61.982820759612	107.87091626602	-17.5074840272654	71.4136704451889	-7.32957961747179	-113.770753466502	
2356666666.66667	-2.4745569088728	19.3942738380564	-61.6827179811967	109.124900093012	-17.3556282041998	69.0425061561162	-7.61258166088627	-116.767039412696	
2360000000.00001	-2.45240098316866	18.3973170733499	-61.36724630878	104.825527984924	-17.2416570193989	66.8615956975015	-7.84396023153747	-119.679141131279	
