!Agilent N9923A: A.07.32
!Date: Thursday, 02 June 2016 01:57:55
!Model: N9923A
!Serial: MY52412257
!GPS Latitude: 
!GPS Longitude: 
!GPS TimeStamp: 0001-01-01 00:00:00Z
!GPS Seconds Since Last Read: 0
!CHECKSUM:0811395288
!Correction: S11(ON U)S21(ON U)S12(ON U)S22(ON U)
!S2P File: Measurements:S11,S21,S12,S22:
# Hz S DB R 50
1950000000	-16.2580663059226	109.201904253755	11.1467900250466	83.7290484470281	-26.301024263508	58.1009490205403	-12.4237611243798	70.8190174623354	
1953333333.33333	-16.5965543725038	105.608797821437	11.1710933840067	81.9642455454003	-26.303387756937	57.2637647109656	-12.351784516973	70.3923753317959	
1956666666.66667	-16.7338422838069	103.304247804785	11.1489266334068	80.6892990518669	-26.2977063326627	56.4877452748672	-12.276045589874	70.0608420514217	
1960000000	-16.7938192186439	101.641722410447	11.0876755212775	79.8900743361943	-26.2915354377775	55.7427351557212	-12.2163941690557	69.7087243340038	
1963333333.33333	-16.7611704123064	101.010291617262	11.0713529521006	79.1055568998759	-26.2919234459867	54.8881512553939	-12.1879648825472	69.5163187139571	
1966666666.66667	-16.5212553868645	102.004605046009	11.0412577979143	78.5208604608183	-26.2792193185846	54.0574103597246	-12.1912204050255	69.3082575536772	
1970000000	-16.5961201025677	102.487605400319	11.0194991915116	78.114094525115	-26.2712116752313	53.3667661644053	-12.2182013160314	68.9207243783954	
1973333333.33333	-16.3860360647992	104.404238266889	11.0015299340488	77.8056419868217	-26.2721495898883	52.5515487840236	-12.2696932851237	68.5757084832949	
1976666666.66667	-16.1207344622974	106.107073795388	10.9768543761151	77.5456240174785	-26.2565148102575	51.7743470103378	-12.3399285284125	68.0519416782155	
1980000000	-15.8992664776965	107.279982495593	10.9426343718153	77.2186201161991	-26.2545658777297	51.0752107456817	-12.4043126428421	67.3617314287927	
1983333333.33333	-15.7298966500637	107.907354753999	10.9078068224108	76.8097957514362	-26.2556535425004	50.4089072155382	-12.4713650467923	66.72438980406	
1986666666.66667	-15.6306964343573	107.79985569549	10.8857079428714	76.2274130269908	-26.239731525947	49.6909342892976	-12.5221468754141	65.9773104112975	
1990000000	-15.6615346971169	107.129704759607	10.8433557369595	75.6877483995465	-26.2249905843699	48.9891427163138	-12.5427315431417	65.1915594550493	
1993333333.33333	-15.7737879034873	105.8384838929	10.8991872486704	74.5399409523437	-26.1937412416608	48.2959875921158	-12.5383561328631	64.5726782155797	
1996666666.66667	-15.8666576331789	104.212818639935	10.9426800745956	73.3629594599423	-26.1778640263418	47.4905430039661	-12.5021888276371	63.9570589625723	
2000000000	-16.4317188891971	100.5855160251	10.9865023857988	71.8902037861594	-26.1467081536275	46.7816668531958	-12.4438495083186	63.3869238269387	
2003333333.33333	-17.0014862309909	97.3789506183959	11.0697983931558	69.9425283615472	-26.1129533921124	45.98541048473	-12.3708774800942	63.1123879744015	
2006666666.66667	-17.4774915339331	94.9244504773387	11.103577121572	68.3670101171877	-26.0764122473327	45.1474896575848	-12.3015039282683	62.884347285617	
2010000000	-17.7582899937249	93.5335874195398	11.0967103218323	67.2913656048416	-26.0659656915651	44.3248032157048	-12.2377386850755	62.7550588682502	
2013333333.33333	-17.8284882017047	92.8878608226127	11.0912390549638	66.5300387317754	-26.0386841492241	43.5301261448672	-12.1846523556609	62.7374199011175	
2016666666.66667	-17.8028734279101	92.5728754999464	11.0406012101829	66.1570391566209	-26.0234828848129	42.6866532215304	-12.1501225633864	62.7947810108969	
2020000000	-17.7399739422681	92.3926891619257	11.0661924565859	65.5167254543076	-25.9955883826412	41.8968718926721	-12.1367284460201	62.7350285679039	
2023333333.33333	-17.5477440278854	92.8088266260098	11.0637107561007	65.0424297819473	-25.9830387179107	41.0778848188969	-12.1359266075982	62.6043717356255	
2026666666.66666	-17.5555278242889	92.6029874618461	11.0084660581974	64.8077942418369	-25.9736624298269	40.1609768769441	-12.1510166361043	62.39805092287	
2030000000	-17.4100738787987	92.4543607990454	11.0444741065093	64.080191028508	-25.9513787183302	39.3577780303283	-12.1677644004322	61.9403928112774	
2033333333.33333	-17.0550289665373	92.6063515034143	11.0255644872583	63.5418893199332	-25.9354326786252	38.5451307860637	-12.1899465622696	61.3045176039398	
2036666666.66666	-17.1948754017274	90.8221983068725	10.9581408353563	63.1751579592237	-25.92887284847	37.7330237465683	-12.1979336982585	60.5802175278413	
2040000000	-17.2264313945957	88.9383892961005	11.005791985416	62.0365151885928	-25.9343114588641	36.8838620103244	-12.2057763733542	59.6820936322395	
2043333333.33333	-17.1366254868688	87.3254151415145	11.0160054798875	60.8946478756029	-25.9257605087149	36.0526330335368	-12.1970638628946	58.7548452024659	
2046666666.66666	-17.5239887865124	83.8341952934326	10.9593028066398	59.9961447671605	-25.931815087743	35.2680371215257	-12.1687105169019	57.8469994435486	
2050000000	-17.758679385191	80.4945915151077	11.0289455690318	58.1863191295144	-25.9375819306827	34.4979278880749	-12.1384470667468	57.0538991178102	
2053333333.33333	-17.9619074643674	76.9769343146238	11.03440928973	56.5899171471417	-25.9276742432751	33.7573881492463	-12.0920163022236	56.3470426394634	
2056666666.66666	-18.4078233422767	72.8763961489011	11.0040020201192	55.167549841019	-25.9220607202279	32.9827186238686	-12.040850389886	55.8082328819448	
2060000000	-18.6915038572766	69.9022874081571	11.0316691421288	53.610250173671	-25.9119569665719	32.3062011478412	-11.9996058316632	55.3815793615578	
2063333333.33333	-18.8513840422775	68.1673810030995	11.0252132246387	52.4942791201344	-25.8988974787427	31.5010193492285	-11.9638778584648	55.0602066756195	
2066666666.66666	-18.9365472353073	67.7076410038637	11.0040646553951	51.7017046838059	-25.8779132224429	30.7950650145782	-11.9466624162332	54.8352286807706	
2070000000	-18.8690488059616	68.526639746077	10.9918480103243	51.1390126173206	-25.8674930463072	29.9783221614304	-11.954903793146	54.6328958642486	
2073333333.33333	-18.7298430663166	70.1777417176099	10.9744323823606	50.8101069630785	-25.8487454188005	29.2288435181912	-11.9886089200383	54.3943586175393	
2076666666.66666	-18.5359888576073	72.1730988421714	10.9568626364839	50.5626689244107	-25.8441313193145	28.4100373349075	-12.0342946185074	54.04343586946	
2080000000	-18.3331793503793	73.9909487087341	10.9564518425154	50.251563074793	-25.8300760758961	27.7144858548543	-12.0971861648235	53.8262938980705	
2083333333.33333	-17.974420823631	75.7494987004005	10.9456522647167	49.8784727554921	-25.8035896277513	26.9282141852906	-12.1512307488121	53.3906210183141	
2086666666.66666	-18.0304105398799	75.9383700216542	10.8582612173404	49.8205483138428	-25.7908816069413	26.1557822956311	-12.2031172104837	52.8453693506338	
2090000000	-17.965630803581	75.8142053686387	10.9113620006623	48.8578158217507	-25.7635148014383	25.4309149252046	-12.2309455053978	52.1337194173031	
2093333333.33333	-17.8042830716466	75.4302122724209	10.9139589694795	48.1340256281394	-25.7451644208625	24.6679832697643	-12.2406379630749	51.5343131584205	
2096666666.66666	-18.2624709628001	72.6887083054879	10.9201279861451	47.198582800109	-25.7274530422336	23.8690425131115	-12.2219470779892	50.8412784742752	
2100000000	-18.7268218916008	69.5406612828549	10.9907459673854	45.5956863335176	-25.7085534850143	23.1498677258939	-12.175322664297	50.0247430261813	
2103333333.33333	-19.329959130367	65.4253427153602	11.0418863566652	43.9131135513632	-25.704564993838	22.2740579009123	-12.1216282232414	49.4941710982972	
2106666666.66666	-20.0083797374521	60.8531840143293	11.0858389168679	42.1736096085766	-25.6779194240836	21.4411364885523	-12.0591556881656	48.9549854004904	
2110000000	-20.5616347741032	56.7387118020216	11.1082754105209	40.6402218971169	-25.6675735536587	20.6083423013312	-11.9903445413075	48.4784841954376	
2113333333.33333	-20.9215325295772	53.6285897576296	11.1180728505877	39.4313732966768	-25.6614940015586	19.815837732294	-11.9303682087744	48.263788406381	
2116666666.66666	-21.1181064291147	51.4120236278267	11.1152101246604	38.4636264924557	-25.6553386518349	18.9984621849544	-11.8792673206616	48.0355745684717	
2120000000	-21.1551780033104	50.4123306788322	11.1047738100438	37.7303659365682	-25.6415258003454	18.1858885278162	-11.8455606893659	47.8563700264093	
2123333333.33333	-21.0024261866984	50.8054618474805	11.0827396746364	37.2414251778768	-25.6230547876271	17.3747429911757	-11.8354172880148	47.7289368267052	
2126666666.66666	-20.6966333851314	52.2677982044294	11.0557901722844	36.980680256735	-25.6090103249369	16.5629779853413	-11.8404164186164	47.4901797206738	
2130000000	-20.293561143161	53.7897102336984	11.0292213264997	36.820983436165	-25.6031440985038	15.6957359368254	-11.8731952151852	47.1177711635086	
2133333333.33333	-19.8834265566714	54.7521717892179	11.0067000960465	36.6096247176246	-25.5895980106512	14.8670365512797	-11.9109843258926	46.5799359279248	
2136666666.66666	-19.5718039709192	54.8796780351823	10.987046416253	36.2270269947107	-25.5832301603109	14.0087707900178	-11.9613005566826	45.8987728968728	
2140000000	-19.3539293874059	54.4919692010214	10.9661482030697	35.6964136938641	-25.580371977442	13.2105312883259	-12.0069749819798	45.1143319205788	
2143333333.33333	-19.2310694104401	53.7169931213909	10.9470188197079	35.0216852161652	-25.5631922347501	12.4779624989382	-12.0429815035047	44.2522431955758	
2146666666.66666	-19.1807505505224	52.3767994156883	10.9391685753646	34.2196686662243	-25.5656429452833	11.6713811015704	-12.0642278154763	43.307058623956	
2150000000	-19.27883513416	50.1578149199953	10.9471934920307	33.1438304495321	-25.5587955050077	10.9680861165598	-12.0638631105822	42.4606144969942	
2153333333.33333	-19.5777289006896	46.7555822650621	10.9759530466927	31.6559234899086	-25.5486598139166	10.2965155621179	-12.0467837453146	41.6907589664449	
2156666666.66666	-20.0538856679161	42.4468142177166	11.0021880202212	29.8921237996046	-25.5397428285839	9.65067355998925	-12.0089197254793	41.0817228056056	
2160000000	-20.6090645644137	37.8216889603265	11.0239633806951	28.0503520459412	-25.5226251886067	8.91647918756343	-11.9601999223526	40.601973177771	
2163333333.33333	-21.0773890949964	34.0559017089888	11.0301915293675	26.4813485972742	-25.5057567069799	8.18960706820494	-11.910615648191	40.2510727639201	
2166666666.66666	-21.415595254803	31.2729583147896	11.0314913483796	25.2497150749238	-25.4919323545739	7.45141237705555	-11.8711644686801	39.974709627172	
2170000000	-21.6891773037263	29.3807439149719	11.035099045486	24.2371394005166	-25.4654276585776	6.66678842197575	-11.849789083078	39.8259731479641	
2173333333.33333	-21.9371585425728	28.4588918152404	11.043887747673	23.3857790796114	-25.4558287811444	5.841691364375	-11.8505207457431	39.7359460236836	
2176666666.66666	-22.1292898876681	28.4985150297368	11.0565667116427	22.6707014754869	-25.4360436646088	5.08905573682602	-11.8638214863339	39.6500819080675	
2180000000	-22.2367896795333	29.4382483031275	11.070011627189	22.0919483281823	-25.4207087224368	4.26225870203304	-11.9054411043999	39.5217812893915	
2183333333.33333	-22.2402519854947	31.0806784382767	11.0690178039516	21.651990159905	-25.4049933825357	3.50935886873956	-11.9576604278406	39.29406588917	
2186666666.66666	-22.1481264919413	32.4821487784117	11.079154996648	21.1900448810513	-25.3986372814812	2.67506863208194	-12.0178748434082	38.915937172971	
2190000000	-21.8126570801481	33.6645650260659	11.0716749179463	20.7038004415587	-25.3739931390366	1.85448531848359	-12.0718216570309	38.3644754038921	
2193333333.33333	-22.0102302826084	32.7569365970977	11.0255507915817	20.2974775655217	-25.3558132142279	1.01549881639134	-12.1102830133084	37.6468371361419	
2196666666.66666	-22.0351043746139	31.5075570435797	11.0512963637066	19.3960574263248	-25.3415796760034	0.254858597788595	-12.1297739696663	36.7892143400984	
2200000000	-22.0416002444258	29.6493155982352	11.0514896110319	18.5728776258375	-25.32843595278	-0.555639677150962	-12.1234827349924	35.8742151161854	
2203333333.33333	-22.3365640249843	26.2466176696917	11.0422698809289	17.6490134729573	-25.3171130970676	-1.35140135733911	-12.0946495107091	34.9527430785972	
2206666666.66666	-22.6748658861819	21.9746765375289	11.0742793498564	16.3018242792186	-25.3038628714333	-2.18700830262014	-12.0460416579083	34.1252083631641	
2210000000	-22.8191665205637	17.4137796569347	11.0810335591398	14.9552206530735	-25.3002579291003	-2.97502458026835	-11.9876794055719	33.4481333895368	
2213333333.33333	-23.2046084138733	12.0157417658413	11.0463485390008	13.777317928165	-25.2951413093791	-3.73678145289764	-11.9198700369057	32.9152242872581	
2216666666.66667	-23.1747299503552	8.1748294271966	11.0640222295509	12.441212580078	-25.2897280178661	-4.56231254537833	-11.8564446054389	32.5286747158811	
2220000000	-23.3068983036844	4.80679075422262	11.00707898911	11.5251815559887	-25.2806269256793	-5.28818577158502	-11.8001248912716	32.1757054587153	
2223333333.33333	-23.2702524854904	2.77046354989558	11.032341942034	10.5385764027281	-25.2696513920284	-6.04506817461654	-11.7692270269467	32.0941883045642	
2226666666.66667	-23.0762714439402	2.04096883821183	11.0256079120157	9.76437849854688	-25.2657604828995	-6.9230364200272	-11.7545585338355	31.9679140229373	
2230000000	-23.153658901311	1.91344050130701	10.9956508108355	9.22785914195186	-25.2439789520828	-7.64751654899376	-11.7743491171155	31.6898681926995	
2233333333.33333	-23.0523081029857	3.07492110469617	11.0348098396838	8.5659202103657	-25.2361167723126	-8.37001186640921	-11.8239134544472	31.5660237469029	
2236666666.66667	-22.6603219279174	5.51165514275997	11.0343121546124	8.05003462444793	-25.2271647211409	-9.25277269072117	-11.8952877854766	31.2355026345282	
2240000000	-22.6954317441974	6.4256909253257	10.9844874286038	7.81113792717929	-25.2285844493902	-9.9481289580617	-11.9764649558853	30.5905844489193	
2243333333.33333	-22.442609521935	7.55960541902671	11.0095972946881	7.06196868986251	-25.2230398951126	-10.7356939655506	-12.0603895511221	30.0699199484075	
2246666666.66667	-22.0380180310511	8.81968288257183	10.9840933354751	6.49892726219961	-25.217818741516	-11.5260165582076	-12.1370308206559	29.2186171164692	
2250000000	-22.1064838048533	8.04282069750207	10.9380845489087	6.0496483700184	-25.2032101205844	-12.3074551930117	-12.1877654158625	28.2526213327308	
2253333333.33333	-22.1347491748175	6.74787954135535	10.964456043663	4.99453401093824	-25.1888767428413	-13.0538060845759	-12.2112942540439	27.3558738516634	
2256666666.66667	-22.1915877521361	5.02596226446584	10.9769046024692	3.89565970348251	-25.1771225744774	-13.7924476724046	-12.1996387164135	26.4709490895639	
2260000000	-22.732347565967	1.29078905792252	10.9870435051337	2.66466785227695	-25.1581961069994	-14.5452886358904	-12.15862190187	25.6600367622879	
2263333333.33333	-23.1592495762178	-2.63712588955608	11.012099470262	1.23542139208246	-25.1416188280797	-15.2601429842602	-12.1026251497408	25.0300878331228	
2266666666.66667	-23.5341826072236	-6.40834508869392	11.0152682451888	-0.0631517937971964	-25.1219914533341	-16.0527587805181	-12.0356726412207	24.5388078038238	
2270000000	-23.8391831393286	-10.0059331994972	11.0104062631817	-1.23748846838333	-25.1040827439566	-16.8823029675744	-11.971960007085	24.2262852748191	
2273333333.33333	-24.0616606664571	-13.1070562149464	11.0017825366842	-2.30506061291979	-25.1003196400099	-17.6271439013365	-11.9251634658823	24.0427858675205	
2276666666.66667	-24.2599607321227	-16.013777727241	10.9909412126081	-3.24964276620548	-25.0729722285253	-18.4735131888907	-11.8959771626243	24.0136157542583	
2280000000	-24.4166651888359	-18.3435731750242	10.986948921022	-4.1162074764584	-25.0526197893604	-19.2600138780806	-11.8890640187465	24.0389753554202	
2283333333.33333	-24.5391892271776	-20.1151787518657	10.9845835377382	-4.86247836822881	-25.0433465774631	-20.0392308726899	-11.9114177664961	24.0347690831246	
2286666666.66667	-24.6838241195175	-21.1553995648946	10.9840988656418	-5.53194292357844	-25.028183207136	-20.9053286833493	-11.9517841835227	23.968808306076	
2290000000	-24.7960221365934	-21.8643476309749	11.0082324919908	-6.1941474224184	-25.0153089596758	-21.6807808016474	-12.0121291286885	23.7200554145226	
2293333333.33334	-24.8424960285026	-22.4207149065696	11.0185195703326	-6.87191604637758	-25.0056381857261	-22.4760114438456	-12.0826517920331	23.3256728563297	
2296666666.66667	-24.8178415115126	-22.9847246897509	11.0183174321631	-7.57846899104029	-24.9808239989559	-23.263706994754	-12.1521663467421	22.6762863884105	
2300000000	-24.7215632715887	-23.8696232375707	11.0105840369904	-8.30041738588625	-24.9779869450955	-24.0072074474161	-12.2159420612646	21.7322670797629	
2303333333.33334	-24.5802553890116	-25.0759016045595	10.9973466813168	-9.01814953522859	-24.963748920942	-24.8664658971116	-12.257673135046	20.8420123074459	
2306666666.66667	-24.4224366191882	-26.627952197085	10.9879850079967	-9.77431909136462	-24.9469214705459	-25.610106934541	-12.2658550756151	19.757907734967	
2310000000	-24.2874216182257	-28.7450379263404	10.9801951695802	-10.6291805255818	-24.9436676407257	-26.4548190098853	-12.2488298526148	18.6738458855113	
2313333333.33334	-24.1435307319571	-31.1917011052869	10.9709626181472	-11.5716287505397	-24.9524371862863	-27.175139423344	-12.2052242154648	17.7361414729922	
2316666666.66667	-24.0075340526924	-33.9042303944494	10.956545682079	-12.5994157333028	-24.9400333904544	-27.9372111179634	-12.1443711995433	16.9649367982689	
2320000000	-23.8608045926634	-36.2987110235134	10.9356571979415	-13.6399775474695	-24.945626821323	-28.7500943403269	-12.0690441331005	16.3974466320567	
2323333333.33334	-23.6917096778441	-38.5127333326624	10.9115672504916	-14.6473102131116	-24.9332602165731	-29.4862046637642	-11.9997436212086	15.9781805186837	
2326666666.66667	-23.5662109423369	-40.2713398591409	10.8875825145508	-15.6140628760983	-24.9233542609144	-30.2481878708748	-11.9426157073192	15.7260558400201	
2330000000	-23.4830369278507	-41.6273269195456	10.8712544852225	-16.5299847667977	-24.9144416218418	-31.0694868588203	-11.9064189463884	15.6444777999635	
2333333333.33334	-23.4807220726779	-42.5598363836127	10.8676057988342	-17.3745910362921	-24.8962550487336	-31.8196135844153	-11.9063641638294	15.5951718704701	
2336666666.66667	-23.5632312040129	-42.6759309395355	10.8750729674891	-18.1438656830048	-24.8834450216292	-32.6226731630992	-11.9363729504683	15.5560282621311	
2340000000	-23.6968156878999	-42.2574043564722	10.8886962743117	-18.8481121305722	-24.8713797294111	-33.456737426911	-11.9907283964603	15.5139935886115	
2343333333.33334	-23.847622483574	-41.4426292055066	10.9063229917636	-19.5082096587398	-24.8584237296388	-34.2127275703884	-12.0812265079722	15.3157546251342	
2346666666.66667	-23.9991754562505	-40.8816069844698	10.9183744379134	-20.2227974385532	-24.8480721619113	-35.0044971895289	-12.1823328232574	14.8877809777481	
2350000000	-24.1052980929492	-40.4561040895417	10.9173967901386	-20.9562471922839	-24.8387819651297	-35.715677601462	-12.2798515079675	14.3410999030173	
2353333333.33334	-24.1708515882669	-40.3609853938824	10.9054225488969	-21.6795703235763	-24.8192938164708	-36.4744163719812	-12.375798027619	13.5299386254921	
2356666666.66667	-24.2313161536182	-40.8691271427374	10.8922426173144	-22.4118655216371	-24.8132878730275	-37.2078693200428	-12.443980484703	12.5594520076097	
2360000000.00001	-24.2855784077202	-41.9501750837155	10.8814157828981	-23.173513544453	-24.8007516891747	-37.986725061938	-12.4717034378441	11.5619662026384	
2363333333.33334	-24.3769584475896	-43.9780732714293	10.8760691266488	-24.0240988633385	-24.7852340095272	-38.7841816727833	-12.464902160237	10.5736760542538	
