!Agilent N9923A: A.07.32
!Date: Thursday, 02 June 2016 02:22:50
!Model: N9923A
!Serial: MY52412257
!GPS Latitude: 
!GPS Longitude: 
!GPS TimeStamp: 0001-01-01 00:00:00Z
!GPS Seconds Since Last Read: 0
!CHECKSUM:1605674550
!Correction: S11(ON U)S21(ON U)S12(ON U)S22(ON U)
!S2P File: Measurements:S11,S21,S12,S22:
# Hz S DB R 50
1950000000	-11.8527369595657	72.5908865648444	-6.50797530303906	138.373173948042	-36.2615890149437	144.399828119877	-6.3582096452522	-77.7160892828667	
1953333333.33333	-11.8497492986179	70.4615527049484	-6.41595479415665	136.313709696617	-36.1506847309591	141.999794611046	-6.74362327141754	-80.1454111259091	
1956666666.66667	-11.8306904616924	68.5064396230557	-6.22956341599682	133.687743814203	-36.009467445124	139.620129247845	-7.11038117072175	-83.3730702843359	
1960000000	-11.8157786949836	66.6814175708448	-6.06557877490133	131.21895198892	-35.8450544001584	137.06298467238	-7.42512833955943	-87.4299829314667	
1963333333.33333	-11.8381608018549	64.8817012414631	-5.88715725041808	128.721834310853	-35.7075593936195	134.493999926339	-7.65466426234013	-92.2341281980065	
1966666666.66667	-11.8704730234813	63.1703762997942	-5.69469983521886	126.064355455287	-35.5376587909674	132.067066682527	-7.7591293785528	-97.5916618335757	
1970000000	-11.9277592385823	61.528660075992	-5.49346833168413	123.289304383334	-35.3430715323353	129.234514620281	-7.738818636754	-103.165842010642	
1973333333.33333	-12.0127670435893	59.8921052772958	-5.28745018575998	120.341381224883	-35.1741952955735	126.392453984192	-7.59715781261483	-108.600180689193	
1976666666.66667	-12.1174659136221	58.2783077009138	-5.07947542718412	117.179763033234	-34.95936076305	123.176133410995	-7.35954995044664	-113.673015470819	
1980000000	-12.2509018231853	56.6394092937067	-4.88763648422696	113.889325854587	-34.7620425998228	120.016543042591	-7.07233536034912	-118.212159772525	
1983333333.33333	-12.408211289249	54.9365820197587	-4.68989791137006	110.274174920822	-34.6219766521501	116.626573836686	-6.77284786329506	-122.151983227698	
1986666666.66667	-12.5541926824069	53.2424150223583	-4.53429262998297	106.590252393601	-34.4914041831885	113.177105153047	-6.49162625505271	-125.527913093565	
1990000000	-12.7769862312376	51.1837687810975	-4.4285890558086	102.997215041237	-34.3443906532404	109.455079528902	-6.24297870067881	-128.425808709057	
1993333333.33333	-12.9811920779309	49.1273817547866	-4.31258129538903	99.1690723803236	-34.2806097419472	105.910083799117	-6.04733833839558	-130.896254186342	
1996666666.66667	-13.1887708158266	46.8819664129992	-4.25475047098637	95.5737532854587	-34.2019840283965	102.206399600598	-5.89818576795116	-133.049273296709	
2000000000	-13.4130701996824	44.492672842904	-4.21866079416884	92.1182514237934	-34.1679544018187	98.6444824100676	-5.80238348198368	-134.967250463347	
2003333333.33333	-13.6232645457787	41.99848194757	-4.19842869327346	88.8297383004342	-34.1503880726426	95.2074194800048	-5.75108237984426	-136.685590057783	
2006666666.66667	-13.8234186613839	39.3690703789195	-4.19334468800798	85.7459699163268	-34.1238547712517	91.7987385348066	-5.73386225163199	-138.219166023101	
2010000000	-14.012312139018	36.6772463701559	-4.1884689938427	82.7695793361591	-34.1255936619669	88.5369540871629	-5.74939749831471	-139.56674882707	
2013333333.33333	-14.1586340662007	34.0206612488463	-4.18907949379878	79.952668493431	-34.1471387129171	85.4157185786355	-5.79216347201766	-140.737350610009	
2016666666.66667	-14.3085803020717	31.1589032186974	-4.19220293288325	77.2166659696165	-34.1523527450916	82.5193397535111	-5.8632113384281	-141.774276887758	
2020000000	-14.4195296560984	28.4263012018008	-4.1943818133356	74.5088639828461	-34.1822248319281	79.7582517659045	-5.96255808487254	-142.677889155818	
2023333333.33333	-14.5047603097101	25.7766074765403	-4.20947964161686	71.9657656446566	-34.1746027496018	76.8585311145131	-6.09898693277348	-143.471191997807	
2026666666.66666	-14.5690594450942	23.1517446944467	-4.20094959096416	69.2111779493949	-34.1897877571469	74.2832714531571	-6.26849211558963	-144.206839126567	
2030000000	-14.5982885420207	20.8016972047753	-4.20994203137523	66.53642317713	-34.1689866931831	71.7355845572596	-6.47976683170905	-144.940663026729	
2033333333.33333	-14.6600809000838	18.1789144645484	-4.25569611754173	64.1168849337746	-34.1415669246228	69.171880463478	-6.74498595025607	-145.779295351023	
2036666666.66666	-14.7115647049274	15.8461807242185	-4.2426304814895	61.2649086922481	-34.1079831654559	66.5738158163783	-7.06401548197985	-146.819819287261	
2040000000	-14.7380480979244	13.9645654200534	-4.25828839848251	58.6587214263	-34.0681718422677	64.1506353918817	-7.43467124532492	-148.165565535381	
2043333333.33333	-14.8649172366466	11.5009900742363	-4.27731971773749	56.1916216830718	-33.9835114746506	61.4152507529623	-7.85961261873004	-149.995538954749	
2046666666.66666	-14.9872429768906	9.50681579973991	-4.26277369148388	53.6778353159682	-33.9031408295586	58.9173360934003	-8.3262082152605	-152.492153926232	
2050000000	-15.1561960212716	7.6288166090707	-4.23730783586061	51.2360476581538	-33.7841623547388	56.0793006999673	-8.79668207545288	-155.851743876885	
2053333333.33333	-15.3762147864103	5.83935963789999	-4.18838227893859	48.8054096274129	-33.6866463722406	53.4277785798592	-9.24806003139895	-160.19046858954	
2056666666.66666	-15.6433225186084	4.12143205601285	-4.10486157819456	46.3594113367894	-33.5631477189984	50.3854523996433	-9.6170482079786	-165.49391460132	
2060000000	-15.9587882815928	2.5035637403102	-4.00333917116906	43.9085028256247	-33.4369243178004	47.3533550456812	-9.85904415731295	-171.586479453542	
2063333333.33333	-16.3366806155119	0.906084465981543	-3.85485776835164	41.2099070918306	-33.3162951402225	44.265748733711	-9.92750742661037	-178.140187650873	
2066666666.66666	-16.7194316054744	-0.176112834125513	-3.69721331118797	38.4218105015787	-33.2130772064818	40.8916229491116	-9.81490778101666	175.323763840404	
2070000000	-17.2120795139344	-2.26825720533818	-3.55284991754794	35.6112763371278	-33.1128660433022	37.4315406569008	-9.54739754287992	169.275165469399	
2073333333.33333	-17.7066687735582	-4.00667321711371	-3.37215134345221	32.2162490529294	-33.032974350789	34.0450273389865	-9.17830959164412	163.941855253459	
2076666666.66666	-18.2287502598349	-5.71834317196274	-3.23418226560891	28.774179675167	-32.9650380150487	30.5319539458114	-8.75359780122794	159.423417268581	
2080000000	-18.7708652617053	-7.95721939169657	-3.14705142084202	25.1815966461185	-32.9041215598352	26.7988417852099	-8.3285522092408	155.69810754239	
2083333333.33333	-19.2916682148385	-9.64573174643872	-3.10143570118042	21.4935061153712	-32.8842236577527	23.403774274988	-7.93658887824197	152.628034797193	
2086666666.66666	-19.856702888605	-13.1754393006581	-3.11338805986729	17.8723254152791	-32.8804619723631	19.9171792748945	-7.58627297554979	150.130804056264	
2090000000	-20.4069718557939	-16.2262142040546	-3.15733606680976	14.3279171205961	-32.8880012984828	16.513880926339	-7.29723338762006	148.028052143295	
2093333333.33333	-20.9547905065137	-19.486805359586	-3.23350253319484	11.0140986387811	-32.9354001321604	13.0325322013445	-7.06552174936502	146.258829519594	
2096666666.66666	-21.511039719293	-22.7698675657353	-3.32777672935207	7.93880574319077	-32.9769383251789	9.97202653906608	-6.88407844402806	144.715701968714	
2100000000	-22.039754742646	-26.1156128658215	-3.42567913595553	5.07539409002055	-33.0650089648109	6.79892001399794	-6.74869035888566	143.336657894048	
2103333333.33333	-22.5535927648092	-29.3048549445573	-3.52243070902286	2.44514384698706	-33.1120448265874	3.83524280761497	-6.64573269175024	142.123395572077	
2106666666.66666	-23.0586565860642	-32.1435975759939	-3.60246351080513	-0.0424781448039184	-33.174249139454	0.885568999891533	-6.56688137286941	141.063194283998	
2110000000	-23.6568633127547	-32.6882972239667	-3.67678045878872	-2.36700493957477	-33.2174490366342	-1.83215371895391	-6.51574832578372	140.155714921994	
2113333333.33333	-24.0401963508799	-36.3085678637578	-3.75232540992435	-4.45931711633952	-33.2723213150589	-4.59736905066951	-6.48497303143051	139.422130036036	
2116666666.66666	-24.5518908688331	-37.6067788516692	-3.79120261144082	-6.76508157495688	-33.3442202387601	-7.18312055593683	-6.48251847153827	138.856979854695	
2120000000	-25.2272956372176	-36.6926472743613	-3.83772028951422	-8.9027944960412	-33.3489413593931	-9.9622294299975	-6.51043201373212	138.473093033211	
2123333333.33333	-25.667470155289	-38.4195163733144	-3.88370001230533	-11.0465386620758	-33.3788360136766	-12.6079220078809	-6.57433700018887	138.159131534947	
2126666666.66666	-26.2803217326972	-38.1369637420608	-3.93547681121281	-13.2347746986656	-33.3942401496188	-15.3558474460216	-6.67714898732025	137.832782344518	
2130000000	-26.9407482255804	-37.349015270087	-3.9911037909753	-15.418138262428	-33.3945004196883	-17.7384934008816	-6.82099576269984	137.470217588691	
2133333333.33333	-27.6642240791731	-36.0408961316089	-4.04662844868971	-17.6462609548482	-33.3942837234089	-20.5293818417768	-7.00504202819811	136.918613962985	
2136666666.66666	-28.5634609650417	-33.5650685729486	-4.10232076904338	-19.7919486012939	-33.3925154048185	-23.2079980891976	-7.22604174055207	136.08991527729	
2140000000	-29.5118427570201	-31.3417400086966	-4.16995979396618	-21.6820275350232	-33.3945603471296	-25.9982057542205	-7.47820677960319	134.842071329499	
2143333333.33333	-30.6992158009044	-27.2329375077283	-4.19800597912613	-23.8500016268741	-33.3533521192113	-28.8036032898283	-7.74943829911163	133.041040616554	
2146666666.66666	-32.0951359936642	-13.2084918074776	-4.22417716932024	-25.7888143583069	-33.3673799082811	-31.7011430995905	-8.01854225360777	130.615659946095	
2150000000	-33.4328747715202	-10.9714737138288	-4.2333262878423	-27.6794233942922	-33.3633127435067	-34.5698296836617	-8.25321347631775	127.478614544537	
2153333333.33333	-34.7069306849977	3.43316758249786	-4.21654696997696	-29.6021571393843	-33.3741879196752	-37.312962155883	-8.41518544154823	123.627022614761	
2156666666.66666	-35.4434569872606	20.8722622331039	-4.1955626607977	-31.4443696321742	-33.3671402805199	-40.2608165463897	-8.47310972983088	119.223716460084	
2160000000	-35.1877517336635	39.3948248481348	-4.13785692861995	-33.6253011985511	-33.375364764498	-43.1980885364406	-8.40135125022186	114.470126762723	
2163333333.33333	-32.8993374169722	57.5955578557198	-4.07357801368185	-35.82012094833	-33.3926551547929	-46.2215540910635	-8.20352780773037	109.746817358675	
2166666666.66666	-33.1311246343118	66.12369503394	-4.00602190962348	-38.12828785093	-33.4007303497179	-49.3542849134902	-7.89922439916101	105.286636686893	
2170000000	-32.0740681505908	74.3969893396265	-3.94209764640516	-40.6963128989658	-33.3943747541086	-52.3058806417334	-7.52318661489735	101.276649775326	
2173333333.33333	-31.185347351477	80.7814127609118	-3.89638021203585	-43.4235414307875	-33.4390459730255	-55.4006835881013	-7.1158421779067	97.8158048038088	
2176666666.66666	-30.4340981324388	86.1649750860265	-3.88896864397404	-46.3014082002543	-33.4735381605405	-58.617928184596	-6.70667816948634	94.8498236366705	
2180000000	-29.9083157695911	90.5133420447785	-3.92285632320758	-49.2914586381885	-33.5049389202404	-61.7060693791597	-6.32173073578479	92.334509264671	
2183333333.33333	-29.4623133610894	94.6474261446565	-3.99877175096589	-52.3131922052622	-33.540767529954	-64.9044831857029	-5.98114578314606	90.1673069281913	
2186666666.66666	-29.1105988475041	97.9647426451961	-4.1042582976161	-55.2581722551967	-33.5982631405538	-68.1008103286266	-5.68280443896832	88.3059859795612	
2190000000	-28.7490318066573	100.202310879212	-4.23844161472125	-58.05807412109	-33.6741647181995	-71.0762543476404	-5.43581637551148	86.68081422891	
2193333333.33333	-28.5539153335248	102.126718630938	-4.39496530456385	-60.4852487530563	-33.7408808052654	-74.1779168198205	-5.23692743799266	85.2299685956259	
2196666666.66666	-28.3526727263413	102.694039962242	-4.52532170668758	-63.10587790081	-33.8259123296241	-77.2466098304247	-5.0746834026643	83.9508704889134	
2200000000	-27.9644632059338	101.041715237275	-4.66368455700115	-65.3621695969174	-33.9350077943164	-80.0670168480153	-4.94346453538906	82.8490597806912	
2203333333.33333	-28.1110205009266	101.631664385928	-4.81130182674969	-67.1665741897145	-34.01963163997	-82.923204388905	-4.83629341087968	81.9033046666055	
2206666666.66666	-28.0631509936682	100.021603770331	-4.90486303983182	-69.5471996861111	-34.1413859001632	-85.5746365784209	-4.73890247848914	81.137044420974	
2210000000	-27.3703427663517	94.2851506680853	-5.00192796776346	-71.5278328142236	-34.2629500565418	-88.2088947883792	-4.6522627571775	80.5455776120918	
2213333333.33333	-27.962595037644	95.1507009277464	-5.10220271450498	-73.2474103571975	-34.3971137030487	-90.7664880473961	-4.57824891021412	80.1294573102111	
2216666666.66667	-27.2458634637045	89.4011034014582	-5.16489772281412	-75.313057384909	-34.5216441153896	-93.3149544715925	-4.51335966014178	79.9151036177414	
2220000000	-27.5758559871695	88.8031812793888	-5.25171960717975	-76.8744686794448	-34.6558565147947	-95.789203180024	-4.4638030514293	79.8625314602942	
2223333333.33333	-27.2528969016838	85.70256549556	-5.29938746705589	-78.9978095274446	-34.7637938882456	-98.1456138196208	-4.43712784247872	79.9489182687979	
2226666666.66667	-26.8180843739056	82.6025603133154	-5.36828981260984	-80.8352565189121	-34.9091207739415	-100.537221883365	-4.43402427462367	80.0879689501492	
2230000000	-26.2809763981888	80.1450109135965	-5.44474504298836	-82.6053939700324	-34.9882271267363	-102.711617584111	-4.46584944936445	80.2228460472952	
2233333333.33333	-25.69165399426	77.9395407216325	-5.52355684806581	-84.3233600592474	-35.1122147984404	-104.873506643188	-4.52937442124445	80.2512759160523	
2236666666.66667	-25.0364117481381	76.0665022188824	-5.60613901505853	-85.9996545568196	-35.2066637972376	-107.190756840936	-4.62248115810167	80.0478394646087	
2240000000	-24.3610277340907	74.5168039775369	-5.68162948436319	-87.636355570066	-35.300539959253	-109.199975874501	-4.74435414054848	79.5720062563441	
2243333333.33333	-23.7327414456434	73.3097018134184	-5.74264497095263	-89.2386268287104	-35.3546436521015	-111.27102127948	-4.88953063710893	78.7167280346468	
2246666666.66667	-23.1281619466209	72.3232921822151	-5.79523953094816	-90.7529670034438	-35.453036122353	-113.541959390782	-5.04197621348862	77.3875280016889	
2250000000	-22.5660229591443	71.6453375073756	-5.82355970017862	-92.4329070162729	-35.4766081190031	-115.523858527536	-5.18212176792435	75.5781360724399	
2253333333.33333	-21.8514331521129	70.287276830311	-5.83964970784321	-94.0968606108375	-35.5325654191434	-117.716729379596	-5.28974057660265	73.281562969872	
2256666666.66667	-21.6608220881805	70.5634964070335	-5.85515204160738	-95.3552893499035	-35.5629433774859	-119.689898197006	-5.34492585213958	70.5378999359231	
2260000000	-21.3110727633544	70.2459632638137	-5.81055366992253	-97.7003845456992	-35.5962830037833	-121.895399209214	-5.33407958597784	67.4792093442242	
2263333333.33333	-20.8385235844403	69.1752224656216	-5.77676219766893	-99.6857613962428	-35.5981075053808	-124.125627339702	-5.24952207292638	64.2524540153729	
2266666666.66667	-20.8909739252099	69.8487490407449	-5.73594707707292	-101.766657286273	-35.6484445074495	-126.428743747589	-5.09756716994403	60.9996775171624	
2270000000	-20.7632133094191	69.5895191451791	-5.6860620341638	-104.12278536963	-35.6142026007808	-128.742114022847	-4.88996185360457	57.9038054989362	
2273333333.33333	-20.7024655881276	69.3159697563266	-5.64359003533662	-106.549135751032	-35.6670746623065	-131.314883555456	-4.64385299473575	55.0468483383538	
2276666666.66667	-20.680244794756	68.8965621708982	-5.61900509832921	-109.108295331861	-35.6761770955081	-134.073493018717	-4.38164050294096	52.4551726567696	
2280000000	-20.6996676705916	68.3378020995097	-5.61616423734115	-111.743256315513	-35.6753342954567	-136.705336270504	-4.12498348616442	50.1504064282695	
2283333333.33333	-20.7596194182128	67.6295397379991	-5.64597363795564	-114.418000584053	-35.7371291348602	-139.549728393396	-3.88891930330887	48.0638501030147	
2286666666.66667	-20.8438532189761	66.6448709003244	-5.70347671624075	-117.11082744563	-35.7761807199012	-142.271597186934	-3.67664888712909	46.201305823907	
2290000000	-20.9496681723282	65.4195129142053	-5.78368977261256	-119.719251898794	-35.8854744178135	-145.182380357292	-3.49769336579153	44.5108341334282	
2293333333.33334	-21.0822175838664	63.9527608929247	-5.87642658520832	-122.347322488583	-35.9504379591089	-148.100507480462	-3.3574590028761	42.931018826263	
2296666666.66667	-21.0857319749886	61.5737743968684	-5.97901617318317	-124.892206570059	-36.1006092087722	-150.717749010078	-3.24589936986429	41.4509513701109	
2300000000	-21.3091189720275	60.0587870005169	-6.11209533429142	-126.800626998966	-36.2459843047486	-153.521436891538	-3.15598625675151	40.099106546771	
2303333333.33334	-21.3569285514794	57.6148896653627	-6.20235204093942	-129.693811719554	-36.3800442577751	-155.9586150304	-3.08510973171888	38.8789989967418	
2306666666.66667	-21.1803178589056	54.117701954588	-6.30915057779368	-131.91422058856	-36.5467040281194	-158.817284183567	-3.01723367196413	37.7937187075735	
2310000000	-21.2933831665805	52.2321975994698	-6.42898020086614	-133.859689163365	-36.7066259048256	-161.175028226947	-2.95475012619718	36.9051698938628	
2313333333.33334	-21.157139348021	49.2789867653556	-6.53658919144403	-135.978505444817	-36.8695187094089	-163.427286909639	-2.8958505642756	36.2066862927107	
2316666666.66667	-20.9481403365449	46.458672187573	-6.64948617308695	-137.877546933021	-37.047262701392	-165.542859586678	-2.84275134965791	35.7578099996465	
2320000000	-20.6720259865606	43.7885247125852	-6.75834138826034	-139.626979912513	-37.2037075537227	-167.4491579055	-2.79402826800635	35.5386198257105	
2323333333.33334	-20.3289886389678	41.2739859335039	-6.86593806628902	-141.293352684699	-37.3796917432261	-169.471079613234	-2.76118878294452	35.5163791238442	
2326666666.66667	-19.9882814896737	39.124759428576	-6.9786239611655	-142.59734461293	-37.5085316405677	-171.082732723164	-2.74248799349705	35.6749438837038	
2330000000	-19.6070785035394	37.1709163727253	-7.07908709030362	-144.382021531001	-37.6521804216973	-172.603048934628	-2.74584569750327	35.9682737010557	
2333333333.33334	-19.0464942201118	34.9869733057226	-7.17874912021954	-145.904320979322	-37.7765223491057	-174.315117489822	-2.77440437018613	36.3130122968479	
2336666666.66667	-18.9110620015139	34.1998642623965	-7.28208366469537	-146.857134553559	-37.8366168241012	-175.767516463814	-2.82990775484663	36.6411814988098	
2340000000	-18.6217816924431	33.0284692517415	-7.34914956517536	-148.826062409531	-37.9387460233161	-177.205034410747	-2.91176485553367	36.9013112153466	
2343333333.33334	-18.0860983989317	31.2976440830348	-7.41933363741721	-150.349694995538	-37.9716134448605	-178.491824218209	-3.02223329494617	36.9551639228402	
2346666666.66667	-18.182433097397	31.2640289571813	-7.46727580365719	-151.815311338488	-38.0570863029358	-179.857980776702	-3.15396470497015	36.7576325981281	
2350000000	-17.9718039803619	30.2833392402947	-7.49731528801388	-153.572999125664	-38.1005679535325	178.531249062038	-3.29314631730705	36.2092500376693	
2353333333.33334	-17.9591653471263	29.8665826934512	-7.52420779608324	-154.787171467987	-38.0817389726628	177.062358044524	-3.43389508733985	35.2838997647877	
2356666666.66667	-17.9282528994344	29.2037075580471	-7.50601542237954	-157.141895288003	-38.0662693487069	175.395864950932	-3.55549245111259	33.9568564332173	
2360000000.00001	-17.6763003600126	27.6444235417117	-7.48936960530788	-159.047968869478	-38.1058371332284	173.742082302021	-3.64029398395102	32.2656604663503	
