!Agilent N9923A: A.07.32
!Date: Thursday, 02 June 2016 01:25:32
!Model: N9923A
!Serial: MY52412257
!GPS Latitude: 
!GPS Longitude: 
!GPS TimeStamp: 0001-01-01 00:00:00Z
!GPS Seconds Since Last Read: 0
!CHECKSUM:0043003563
!Correction: S11(ON U)S21(ON U)S12(ON U)S22(ON U)
!S2P File: Measurements:S11,S21,S12,S22:
# Hz S DB R 50
1950000000	-12.1620431625066	63.3814304968931	-23.4066233682987	157.816820133558	11.6389244092965	-161.38415808537	-5.37759927587644	-23.1896281475298	
1953333333.33333	-12.1990583102497	63.1814160398878	-23.4144354827144	157.510383263596	11.7539063619492	-163.333677921004	-5.60777259249639	-24.5783639379012	
1956666666.66667	-12.2386721185399	63.0814791636365	-23.385117560392	157.194806025214	11.7828680819039	-165.052565998917	-6.03314584846611	-27.2171534746351	
1960000000	-12.283597206311	63.1772844640285	-23.3504053686256	156.790893512958	11.773453330935	-166.558385327231	-6.38939426203711	-29.3686634426929	
1963333333.33333	-12.3253765205421	63.4232720248544	-23.3174597378391	156.343652551185	11.832571959867	-168.104137523024	-6.64170487458156	-31.1663244248987	
1966666666.66667	-12.363172074525	63.7450458901124	-23.2713155015843	155.813690208523	11.8704497221187	-169.342719074276	-6.97741215443434	-33.9624743435367	
1970000000	-12.4039745692565	64.1943527466275	-23.2223524439219	155.19872570412	11.8918666139002	-170.453172696224	-7.25050751444617	-36.3915703996153	
1973333333.33333	-12.4294293078085	64.7073308618546	-23.1731592617189	154.556912397629	11.9582225718546	-171.793384854136	-7.48837379755959	-38.3647393539073	
1976666666.66667	-12.4540521029754	65.1329200554379	-23.121434300159	153.820599713315	11.9885200073833	-172.984683690683	-7.78347596795807	-40.4483326802887	
1980000000	-12.4699129604738	65.5296828529793	-23.08112196861	153.059430387375	11.9936035521311	-173.959932373904	-7.98672216580537	-41.648222191756	
1983333333.33333	-12.4821290141544	65.8392310647094	-23.0478394673926	152.288640983673	12.0100345121829	-174.74599744595	-8.08535823811371	-42.2007317189345	
1986666666.66667	-12.4890893545458	66.054316236555	-23.0112791395675	151.540423644741	12.0095484448606	-175.192792842141	-8.06650554462185	-42.363549528853	
1990000000	-12.4953279240187	66.1533261482914	-22.9686797344478	150.741019629373	11.9969048586383	-175.375858800235	-7.93732683500323	-42.3339204438157	
1993333333.33333	-12.4819933357537	66.0281647952639	-22.9432460161189	149.97212101697	11.996270587549	-175.50502796963	-7.74646575326398	-42.2992716417833	
1996666666.66667	-12.4701373441364	65.6977244638621	-22.9093389784231	149.112426806808	11.9900748815258	-175.664329820457	-7.54105676614671	-42.344846353007	
2000000000	-12.4552464500395	65.1515328821073	-22.8851951533513	148.200489466078	11.9773649487831	-175.937066724863	-7.35448043786487	-42.4782307114317	
2003333333.33333	-12.4371903836612	64.3645018518018	-22.8639546229952	147.353987657431	11.9641347709118	-176.252728031374	-7.17236667872333	-42.6136628449336	
2006666666.66667	-12.4214636991521	63.425922306238	-22.8618197317871	146.515468900584	11.9471825594373	-176.526599768034	-6.98103324250694	-42.7101641382699	
2010000000	-12.3977297911723	62.2719905026827	-22.8661060003379	145.684197962453	11.9258639457955	-176.816013508791	-6.79801833600623	-42.8311559024611	
2013333333.33333	-12.3848472266584	61.0108252222356	-22.8765580281143	144.879393479096	11.9016489399654	-177.124062076597	-6.62419243299565	-42.7895936310427	
2016666666.66667	-12.3700113135873	59.5036952835418	-22.8900345409715	144.167283087085	11.8707812387143	-177.377431458281	-6.44404505817853	-42.6520224162124	
2020000000	-12.3659028245645	58.2200810138445	-22.9115954585984	143.396049707217	11.8526241869232	-177.58979221558	-6.26259707231745	-42.5541102093504	
2023333333.33333	-12.3660619337759	56.8430042689091	-22.9529628282921	142.867866587625	11.8507639554227	-177.864005082658	-6.09142313913267	-42.4939843214902	
2026666666.66666	-12.3721523855891	55.4245386128042	-22.9862062697056	142.401812988216	11.8609947662622	-178.243300747924	-5.97792889519712	-42.7395324900901	
2030000000	-12.3877069940605	54.2845998435107	-23.0080688541188	141.959228839006	11.8613461055248	-178.578159390152	-5.86170179670015	-42.9891365010114	
2033333333.33333	-12.4050645588382	53.2515638178647	-23.0459474786679	141.696731770571	11.8838899907576	-179.094310506353	-5.76277909905547	-43.3212452314084	
2036666666.66666	-12.4221184808302	52.3038022179187	-23.0582993092102	141.501729586887	11.8906828845717	-179.768884906048	-5.73713338051628	-43.8737862205738	
2040000000	-12.4402024268282	51.8029835281963	-23.0546971499372	141.224690262503	11.8882492964996	179.288617232118	-5.79296471997555	-44.4744263619617	
2043333333.33333	-12.4524130287445	51.3975504654357	-23.0481291234671	141.152564516277	11.9103225706537	178.053674255605	-5.90981747521957	-45.158169974964	
2046666666.66666	-12.4567350872684	51.1012468166364	-23.0166877275117	140.954467415394	11.9387332480702	176.732630574153	-6.11114304238549	-46.1511077257956	
2050000000	-12.4543765795101	51.1520047612304	-22.9685098637416	140.703705452369	11.9574301227416	175.491528799423	-6.32896557594489	-47.1895262649413	
2053333333.33333	-12.4437685444406	51.2887066744943	-22.9222428943007	140.374369329976	12.0224223884684	174.182613662856	-6.52110425084858	-48.2327753627277	
2056666666.66666	-12.4243070044312	51.5213741191568	-22.8550741447133	140.023880974667	12.0835964974695	173.074602534159	-6.7593885521582	-49.9351926480319	
2060000000	-12.3914244394525	51.8549256349695	-22.7838529422896	139.471183428828	12.1525994903363	171.91083142913	-7.00352557054708	-51.7793287326509	
2063333333.33333	-12.3498492693009	52.1679131627573	-22.720835352893	138.891814987239	12.2212138115263	170.600673582962	-7.30009606139926	-53.6497490238423	
2066666666.66666	-12.3073225788588	52.4383992791965	-22.6587059566319	138.175815491694	12.2787546020419	169.246571223702	-7.66358889823374	-55.6025268114971	
2070000000	-12.2700167124679	52.6919904673416	-22.6148177055067	137.359500216267	12.3093544444127	167.98994659843	-8.01150045849315	-57.0554510307854	
2073333333.33333	-12.2304605209253	52.9094313548374	-22.5675673445802	136.540887304883	12.3297686573256	166.861633352109	-8.30932732034063	-57.9214466597445	
2076666666.66666	-12.202558119402	53.0280225535276	-22.5326370693254	135.738365089226	12.3278145548334	166.044966566428	-8.53209775456165	-58.4284508537579	
2080000000	-12.1708436296672	53.0823949564574	-22.4964329607637	134.859294343162	12.3202063155935	165.523379471175	-8.62887257493441	-58.6883678848172	
2083333333.33333	-12.1430559735021	53.0182921964027	-22.465213940531	134.006273167577	12.3124598698328	165.210788617907	-8.6331879663317	-59.033170096725	
2086666666.66666	-12.1147910628804	52.655321953318	-22.4445789609973	133.09142363897	12.3013460375628	164.979285014278	-8.57507776724638	-59.5763603825273	
2090000000	-12.0998149860342	52.3324434534562	-22.4164929679247	132.024884783867	12.2856265670866	164.727800381424	-8.49050746210598	-60.3017471943685	
2093333333.33333	-12.0895397610655	51.7475172622255	-22.4105593205936	131.173765901667	12.2603226518672	164.4584007164	-8.39380476565681	-61.0468082496994	
2096666666.66666	-12.0841352110374	50.8483237746203	-22.4102200388371	130.227144708806	12.232306577949	164.130063251929	-8.28190158189124	-61.7665136043327	
2100000000	-12.0973410156599	50.073038715735	-22.4173757416421	129.225880168367	12.1951221432864	163.796243108798	-8.16910087419856	-62.4521110283397	
2103333333.33333	-12.1131025188871	49.0464853478013	-22.4456825591326	128.346761357913	12.1546482858549	163.475551423774	-8.037362674756	-63.0520569128797	
2106666666.66666	-12.1420487651716	47.7366337263779	-22.4746094005511	127.511013153516	12.1160729071174	163.153495099436	-7.89071369999951	-63.5564582690657	
2110000000	-12.1771284027446	46.6176301903944	-22.5043965207573	126.642169319729	12.074053682203	162.889302274912	-7.71240201523057	-64.0127830448622	
2113333333.33333	-12.2216626901187	45.3507936860585	-22.555168316023	126.023135839609	12.0362501830187	162.656991838867	-7.51538900785685	-64.5406823747434	
2116666666.66666	-12.2773903325457	43.9779190584814	-22.6102443233207	125.387718909618	12.0080816054837	162.35014806486	-7.29989951855989	-65.0189989466486	
2120000000	-12.3362605101647	42.8650678884597	-22.6538847491128	124.867704607541	11.9805534634683	161.94667025533	-7.14685239930036	-65.8440901397887	
2123333333.33333	-12.4038243313102	41.7584383858002	-22.7034348567462	124.505800925776	11.9534439548476	161.452368418518	-6.9930511727376	-66.608028218462	
2126666666.66666	-12.4717621591125	40.7728003490915	-22.7373386958346	124.20794770911	11.9322899926791	160.791449438991	-6.85650150825691	-67.3149173057072	
2130000000	-12.5327363246667	40.070083996367	-22.7579460271545	123.997005241081	11.9109521007304	159.923362451704	-6.81384019923014	-68.2062215396106	
2133333333.33333	-12.5899837551403	39.4574733217285	-22.7653886917285	123.899705374763	11.877673917881	158.963273164315	-6.83412819604118	-69.0684633640573	
2136666666.66666	-12.6361459205486	38.9975385154008	-22.7533401139272	123.813440655731	11.9071598035322	157.57369815424	-6.895124062806	-69.7716465092711	
2140000000	-12.6597728757595	38.935419836864	-22.6992264687277	123.549663549842	11.9389919382267	156.286040351536	-7.05407118408547	-71.0106500993469	
2143333333.33333	-12.6770770250068	38.8556955539229	-22.6611891321507	123.474314063794	11.9402836396142	155.271826848947	-7.19775944911974	-72.1048150823193	
2146666666.66666	-12.66876700429	38.8751828181636	-22.59543760606	123.259854992105	12.0375858916086	153.843332629677	-7.31340676719647	-73.0334274283325	
2150000000	-12.6482037974146	39.1254631589079	-22.5193455855522	122.919540754865	12.1059631135977	152.703092769185	-7.52423361552181	-74.6310133200562	
2153333333.33333	-12.6045673410643	39.3090753531497	-22.4358101723465	122.439725248213	12.1848983783169	151.489185226473	-7.75921741617637	-76.0653653109405	
2156666666.66666	-12.554136663463	39.4831881174826	-22.3671483724391	121.88196555586	12.2606341975435	150.228308783462	-8.03699300700901	-77.236679747798	
2160000000	-12.4931972506995	39.6307198513074	-22.295687180807	121.219082844405	12.3252475293646	149.032795708378	-8.35517672481292	-78.2031870409028	
2163333333.33333	-12.4352483291202	39.7188804441289	-22.235400786195	120.494093086153	12.3605543923342	148.093060758156	-8.65377461422196	-78.7215843513708	
2166666666.66666	-12.3701359363708	39.7722053235993	-22.1780479822941	119.802435652582	12.4201869467395	147.153005034205	-8.78912600667493	-78.1815437217319	
2170000000	-12.3133521494079	39.6914032377569	-22.130416947574	118.973762398933	12.4468509208149	146.473289331684	-9.09121481739154	-78.5723541938219	
2173333333.33333	-12.2689164496874	39.6210807472307	-22.0877092734226	118.138242151945	12.3945008579161	146.342068929217	-9.19914920199398	-78.4158654402596	
2176666666.66666	-12.1994248604847	39.2372143519044	-22.0417635154172	117.359876717541	12.4739491527843	145.717459116292	-9.07391281443159	-77.5951512659777	
2180000000	-12.1601001472397	38.8424208368795	-22.0125508623948	116.39510931939	12.4655792833675	145.39401748646	-9.25235789439946	-78.5277599048764	
2183333333.33333	-12.1087305504741	38.3444744215025	-21.9881587257089	115.45756174885	12.3705616950447	145.579330278687	-9.22565809527213	-78.8256185440212	
2186666666.66666	-12.0810057236842	37.493456066725	-21.9631296016023	114.524261050572	12.4473843148221	144.937974823266	-8.99335867558591	-78.5560616173382	
2190000000	-12.0566179033669	36.6423802817685	-21.9652748071036	113.518175031772	12.4212934549956	144.599240889849	-9.14203153888305	-80.1570372713984	
2193333333.33333	-12.0437010483694	35.6835842516305	-21.9801890407661	112.542403039164	12.3232288640547	144.62163294209	-9.10258750515018	-81.03928338968	
2196666666.66666	-12.0606491638849	34.4668455430533	-21.9892908854816	111.562320536651	12.3783701508189	143.839406302515	-8.86713109593624	-81.17238975638	
2200000000	-12.0766581564197	33.3438318311729	-22.0212053204237	110.593921821644	12.3331762128964	143.432054496954	-8.99079620614563	-83.0422372246476	
2203333333.33333	-12.0951659487276	32.1823010429701	-22.0606822028094	109.772918168478	12.223054050793	143.464019342719	-8.88774026546748	-84.1029697042648	
2206666666.66666	-12.1517847961333	30.8431158038153	-22.1040410722661	108.915873762693	12.2642537915806	142.632699474216	-8.61776251090203	-84.6168455606895	
2210000000	-12.2010192430054	29.7776355979355	-22.1546464285054	108.199031598625	12.2235321680948	142.192514327657	-8.61766244047153	-86.7422306211522	
2213333333.33333	-12.2636720396804	28.7042852217126	-22.2186495041251	107.644006496269	12.1446184569404	141.841941098883	-8.46851268415385	-88.2468349259027	
2216666666.66667	-12.3374955326278	27.7812085776724	-22.2774083132158	107.169912806899	12.1416227729946	140.884126869927	-8.35051853011052	-89.9397601322162	
2220000000	-12.4126436493828	26.991554815385	-22.3250589403565	106.800503076526	12.0949329096605	139.9526688684	-8.26556571304744	-91.7000775546203	
2223333333.33333	-12.4865333759428	26.3720855174359	-22.3580913858828	106.527505698355	12.0559470340603	138.750160652303	-8.26775028215958	-93.6842514831033	
2226666666.66667	-12.5537437498346	25.9089983474088	-22.3760878868989	106.375660217534	12.0297495297303	137.331166216724	-8.35148012665188	-95.8080447938093	
2230000000	-12.6106652157149	25.7148747983699	-22.3655032831015	106.203295722655	12.0247606588546	135.740458248157	-8.51219045085002	-98.0584032614846	
2233333333.33333	-12.6490175210112	25.5950464544137	-22.3431626145267	106.080512531874	12.0412282851302	134.117476428486	-8.71213651989546	-100.391569927621	
2236666666.66667	-12.6839461523311	25.5095639279	-22.3019600862301	105.898485818602	12.0765305190424	132.549076316327	-8.92810629263297	-102.724556894626	
2240000000	-12.697168553493	25.6828954366034	-22.2427343845374	105.561412813612	12.1317407227997	131.084066273311	-9.15866746916166	-105.031990529972	
2243333333.33333	-12.6981996717155	25.801191866964	-22.1734346808707	105.217073472904	12.2085534630467	129.650838368662	-9.42707447761094	-107.312396588676	
2246666666.66667	-12.687290460294	25.9288866313062	-22.1056855090157	104.721029568098	12.2996212529356	128.215911131087	-9.75741717967903	-109.406642362872	
2250000000	-12.6648038147546	26.0887194128679	-22.0429857808675	104.11276107355	12.3912724874457	126.856995481985	-10.1367858462646	-110.993378581345	
2253333333.33333	-12.6421403190951	26.1939297682372	-21.9831171615613	103.513946249233	12.4703056888542	125.700546285516	-10.5071402228162	-111.820795563001	
2256666666.66667	-12.6164499817879	26.1411256929528	-21.9306760622579	102.854079650015	12.5286651750251	124.837290553108	-10.8052486262169	-111.693258289232	
2260000000	-12.5930417718586	26.2485022122771	-21.8841626223955	102.136023827503	12.5706516347766	124.281342433334	-11.0106001125355	-110.753130298761	
2263333333.33333	-12.5628021861542	26.1868298327843	-21.8498883478503	101.532953505272	12.5995421078019	123.978143651308	-11.1082312153916	-109.35855166027	
2266666666.66667	-12.5376344958016	25.9034873367576	-21.8094784863019	100.855999120887	12.6242488201424	123.80930987187	-11.1027784671692	-107.876447292384	
2270000000	-12.5004327207339	25.7130094129211	-21.7637919678275	100.075027056872	12.6414561346819	123.682682477546	-11.0738876936168	-106.654151943834	
2273333333.33333	-12.4681399589823	25.2209063016744	-21.7335202859702	99.3874634602854	12.641635460673	123.608914566154	-11.0204690304323	-105.631749864938	
2276666666.66667	-12.4380341526873	24.4574140134015	-21.6957809200503	98.625046524607	12.6574341812432	123.415412041668	-10.9307777552872	-104.788677620767	
2280000000	-12.4107688686904	23.7082205649463	-21.6652835374275	97.7034609713629	12.6550297139269	123.210408446101	-10.8861961600876	-104.405749071977	
2283333333.33333	-12.3959724834193	22.7636196706729	-21.653459587624	96.8734571205195	12.6418528452204	122.952917442933	-10.8492948130624	-104.222091329957	
2286666666.66667	-12.3791137056432	21.6438620327046	-21.6480872113569	95.995239003695	12.6244473058121	122.635074865876	-10.8168361044328	-104.195431166725	
2290000000	-12.3788813949002	20.4612443685161	-21.6483877683073	95.0889884495663	12.5970456784212	122.337407839041	-10.772714263191	-104.331734020675	
2293333333.33334	-12.378453256425	19.1851206153838	-21.6553002380291	94.1571355343628	12.5664378333111	122.09263745193	-10.683630990342	-104.667694611396	
2296666666.66667	-12.3761413944007	17.8533165109116	-21.6718364128486	93.2979717375803	12.5351218064198	121.948877530594	-10.533547726307	-105.357507994654	
2300000000	-12.3939908314321	16.5493827480917	-21.6994234887214	92.3780633721409	12.5088420152987	121.781481406335	-10.3515142421387	-106.537808208691	
2303333333.33334	-12.4154297670723	15.2671802477833	-21.7440170532195	91.5985458536478	12.489312177077	121.466822692185	-10.1874202998637	-108.25390013076	
2306666666.66667	-12.4525564746852	14.0966083206831	-21.7878176532296	90.8579155155263	12.4731194211623	120.877248970862	-10.07365951525	-110.441976530632	
2310000000	-12.5013412411357	13.0731861805314	-21.826400365278	90.2328502065075	12.4499571317848	119.977807548181	-10.0337532798881	-113.021435571647	
2313333333.33334	-12.5508739848517	12.2499861447878	-21.8761959579094	89.7430427935173	12.4124016208113	118.767249978282	-10.0635143288271	-115.926971489273	
2316666666.66667	-12.5985575320417	11.6157920227757	-21.9199195004965	89.3629850472398	12.3700273847606	117.212466371426	-10.1822636061404	-119.129398189761	
2320000000	-12.6378300737437	11.2051691338259	-21.9341576813459	88.9847990628679	12.3295806569773	115.417536149859	-10.4205141178219	-122.73947369414	
2323333333.33334	-12.6694922922035	10.9103705497084	-21.9408436802486	88.7373481325546	12.3023350555679	113.531461736628	-10.7363518488445	-126.56862548262	
2326666666.66667	-12.6983265522221	10.6530380323595	-21.9346676900419	88.4533821223575	12.3006249856388	111.690001312714	-11.0382315578916	-130.410919360156	
2330000000	-12.7090505651066	10.6783093545263	-21.8997959083688	88.0736279861055	12.3227399927534	110.012294632731	-11.3192675782484	-134.444756696884	
2333333333.33334	-12.7203047695891	10.7083405138166	-21.8615404390841	87.7705254116724	12.3723794870778	108.362946370753	-11.6312636204823	-138.948068899888	
2336666666.66667	-12.7286056014746	10.7002677359883	-21.8167921619178	87.3158790403199	12.4574203845228	106.548136178027	-12.0189978466375	-143.718036453558	
2340000000	-12.7149109768223	10.9277927552576	-21.757707886629	86.7001698856417	12.5445099623563	104.807623856364	-12.495747734402	-148.534159879327	
2343333333.33334	-12.719153896705	11.024934176185	-21.7208243128771	86.1757778527377	12.6072738201638	103.375756641098	-12.9519341035004	-152.433850298557	
2346666666.66667	-12.7261429225257	10.9930847271634	-21.6798064818075	85.58057982323	12.6896025060017	102.058861118459	-13.320936040202	-154.803805789855	
2350000000	-12.7279493458558	11.2020782045184	-21.6415379390929	84.9685448161867	12.7326114755643	101.200807096824	-13.4721412328468	-154.645766021982	
2353333333.33334	-12.7465560914333	11.275922189204	-21.6116516624857	84.3026650387072	12.7600993037268	100.62864442614	-13.9368324461797	-155.744627047843	
2356666666.66667	-12.7762804436868	11.3175373913307	-21.5828711642517	83.7139425268415	12.7283117255168	100.586155449269	-14.0490615124345	-153.789257665671	
2360000000.00001	-12.7911556781526	11.2364298850707	-21.5525183781925	83.1622558095159	12.7715941816859	100.447931674628	-13.9088032254228	-150.107331666237	
2363333333.33334	-12.808849504094	11.1271725420948	-21.5225463357578	82.5097873041016	12.7880173133579	100.426086307236	-13.9888353388614	-148.516665656032	
