!Agilent N9923A: A.07.32
!Date: Wednesday, 01 June 2016 23:35:15
!Model: N9923A
!Serial: MY52412257
!GPS Latitude: 
!GPS Longitude: 
!GPS TimeStamp: 0001-01-01 00:00:00Z
!GPS Seconds Since Last Read: 0
!CHECKSUM:0676958425
!Correction: S11(ON U)S21(ON U)S12(ON U)S22(ON U)
!S2P File: Measurements:S11,S21,S12,S22:
# Hz S DB R 50
1950000000	-3.13499131986394	-99.1669886569196	-34.0482926624531	-125.056608136667	-35.2556273867892	-115.401436129894	-1.93521200040967	-22.3801064229761	
1953333333.33333	-3.15757632665157	-101.441883126138	-34.403394789482	-126.440363310321	-35.5689007669646	-117.898882984815	-1.8547964084254	-23.022856481441	
1956666666.66667	-3.18182570526508	-103.740111446577	-34.7926711909187	-127.801028375965	-35.8837859779978	-119.907671136114	-1.78015994209139	-23.6867273477801	
1960000000	-3.20630809475941	-106.063050870995	-35.1276024291392	-128.773406291153	-36.2003245272238	-121.920773413251	-1.72496062923907	-24.2792366209533	
1963333333.33333	-3.2334669217221	-108.414406295788	-35.4586059143159	-129.624183484246	-36.5924370594706	-123.368729693907	-1.71424558818188	-24.8560874966914	
1966666666.66667	-3.26083999806636	-110.796202019734	-35.7400459436914	-130.549396621751	-36.9631981766034	-123.508366042858	-1.7727784859386	-25.4498588856421	
1970000000	-3.29126108416213	-113.193298696577	-36.0178519927438	-131.47296448679	-37.2967958987926	-122.867023824032	-1.89289947584785	-26.020276843218	
1973333333.33333	-3.31937000482793	-115.659223478685	-36.2391847483326	-132.317775410296	-37.627582042695	-121.494700518783	-2.04367211579739	-26.5428770551393	
1976666666.66667	-3.3481941516773	-118.108547638432	-36.4216452052281	-133.572050414116	-37.8435571337495	-120.879891749902	-2.19072910659442	-27.0294240336277	
1980000000	-3.38083370536728	-120.623043200459	-36.660335534005	-134.835655350148	-38.0940478938332	-120.818198337249	-2.30401109901945	-27.4910698367897	
1983333333.33333	-3.40742706248997	-123.166701391581	-36.907787916213	-136.416612538572	-38.3372547984542	-121.357104812339	-2.37983790351919	-27.9730615727721	
1986666666.66667	-3.4344558200077	-125.720323727062	-37.1874648765772	-137.937869191739	-38.6290255849856	-122.578013390677	-2.41536770384649	-28.4717944748956	
1990000000	-3.45949921804814	-128.318195129286	-37.5221355006894	-139.518990467856	-38.867894161894	-124.631627859116	-2.40485724350889	-28.9448033441713	
1993333333.33333	-3.48560303908331	-130.946843933117	-37.8517685684993	-140.54707708644	-39.1839254606478	-127.284472018599	-2.34146124684419	-29.404287173435	
1996666666.66667	-3.51028611146637	-133.599371260776	-38.2184433478255	-141.735337802082	-39.4748904989091	-130.590339273718	-2.24839567306711	-29.9867404126617	
2000000000	-3.5301884806847	-136.268867898299	-38.5143626254517	-142.898490029139	-39.8079305907268	-133.85868451081	-2.16668598552754	-30.7161724097396	
2003333333.33333	-3.55242927624208	-138.939134859576	-38.8432871234413	-144.189808003903	-40.1601615003343	-136.820695228042	-2.08421247827534	-31.4875124307627	
2006666666.66667	-3.57095782714196	-141.634959943294	-39.2351325807457	-145.623492208405	-40.5884315987203	-140.133855977989	-1.97659419064887	-32.1992146931001	
2010000000	-3.58797813581145	-144.349279180298	-39.5907085118337	-146.608078192431	-40.9648297053256	-142.718191987403	-1.85644467039283	-32.850105394273	
2013333333.33333	-3.60318668040926	-147.073985523829	-40.0110472842475	-147.982078385945	-41.3366750012208	-144.940978722033	-1.76977729143589	-33.3996656319232	
2016666666.66667	-3.61837133821907	-149.825403117947	-40.4398893874612	-148.694326926447	-41.8063287395721	-145.839430373564	-1.74027007001066	-33.925019634103	
2020000000	-3.633824817197	-152.597378910745	-40.9116629658284	-149.847250652185	-42.2621752036399	-146.807795255975	-1.76938190056426	-34.4310506543012	
2023333333.33333	-3.64544907505138	-155.355917606916	-41.4231705110539	-150.809851954806	-42.7197263135657	-146.938667642929	-1.83767596818054	-34.8462525331658	
2026666666.66666	-3.65465386899297	-158.159566201183	-41.8828981837261	-151.072060629017	-43.1764750599418	-147.099505250496	-1.91888413065864	-35.1939090785465	
2030000000	-3.66643054527803	-160.955662507964	-42.4453605318106	-151.89318721501	-43.5201727471477	-147.954403374159	-1.98223406587942	-35.5257524959997	
2033333333.33333	-3.67453172209456	-163.777373226078	-42.905530179065	-152.671956239402	-44.0222144322608	-149.409963584575	-2.01987646277168	-35.8753975797278	
2036666666.66666	-3.68026552805282	-166.577417978238	-43.5168563950822	-154.253670487414	-44.4868743331985	-150.999258058803	-2.04790630355116	-36.3481108318514	
2040000000	-3.68736959081117	-169.38185319453	-44.1148951775197	-155.360132367123	-44.9659555517859	-152.84428860151	-2.06276247940365	-36.814473483557	
2043333333.33333	-3.69174276987754	-172.210027108626	-44.8537667704302	-156.748397241797	-45.3004779949625	-154.116266483715	-2.05627643639421	-37.2461239956318	
2046666666.66666	-3.69782186212596	-175.026135698539	-45.8082876496104	-157.533786689847	-45.8383336685837	-155.96289373462	-2.03232268816787	-37.7288559582142	
2050000000	-3.70544769078733	-177.850251789232	-46.4169600629859	-157.788196228954	-46.2239725716028	-158.366306583627	-2.00609389020437	-38.345509492125	
2053333333.33333	-3.70986326820024	179.310592560049	-47.0957371564483	-157.596902746743	-46.8633582306107	-161.554647805317	-1.98780209523334	-39.1228736141565	
2056666666.66666	-3.71393483442366	176.461506380779	-47.6791376320468	-158.318712452176	-47.360221716175	-163.478631609917	-1.96493120435241	-40.0718269640409	
2060000000	-3.71468924325388	173.615753543967	-48.1780595880739	-158.597276833242	-48.0686053777534	-165.685657639928	-1.92927949754895	-41.0877597401844	
2063333333.33333	-3.71019254487193	170.75695492619	-48.7429637615279	-159.621876284265	-48.8801978647883	-166.922159523901	-1.90518821971095	-42.0287862613841	
2066666666.66666	-3.70533482104356	167.891879920857	-49.1792934697811	-160.58019644321	-49.9503894790842	-167.713903689424	-1.9271252324201	-42.8651793723031	
2070000000	-3.69675523671941	165.042692945548	-49.8805960736526	-161.209713258855	-50.8854047381098	-168.013518992974	-2.00341856621884	-43.6334062931724	
2073333333.33333	-3.68480724103299	162.198446455412	-50.652750122288	-160.749486411783	-52.2171805704036	-170.086070178378	-2.12318657700157	-44.3169632798649	
2076666666.66666	-3.66721250615898	159.357459423289	-51.6068931178513	-160.591380766143	-53.4546979247014	-170.084393867849	-2.27410642777929	-44.9334152512116	
2080000000	-3.64671315502878	156.5426150786	-52.2121889920623	-156.577530204446	-54.7410234996846	-170.291384377154	-2.4281743497957	-45.392124517696	
2083333333.33333	-3.62581855543829	153.761188651046	-52.7486393458373	-153.65583000193	-56.2652097669779	-176.306095249385	-2.5575173723335	-45.7454047568604	
2086666666.66666	-3.60049864627739	151.014538895876	-53.0276919177624	-150.09509485121	-58.1764402750946	176.14961935297	-2.64822094931997	-46.0755819259216	
2090000000	-3.57375524211882	148.279558302472	-53.2688726284751	-147.226067625059	-59.6625160707286	165.617810726718	-2.69543924753175	-46.3909749340417	
2093333333.33333	-3.54483621236257	145.578378045661	-53.8230328185157	-144.619034719482	-60.9436176039251	152.248200742408	-2.69984495156836	-46.6030417736997	
2096666666.66666	-3.51905733690122	142.897450644461	-54.3977803480819	-138.817915496324	-60.7761203439156	141.489986460309	-2.65582279645725	-46.8187439372088	
2100000000	-3.49114358245528	140.251599702578	-54.7255622904137	-131.481860160843	-60.3832568300332	127.944629081277	-2.57454819527037	-47.1489944950604	
2103333333.33333	-3.46033983273651	137.626000215764	-54.7483344437972	-125.350920325031	-59.6924803817864	119.613801847607	-2.48069736165011	-47.7014299510299	
2106666666.66666	-3.43284460018167	135.021723223305	-54.3755742050211	-117.779502607799	-59.1135227890328	113.616497631096	-2.39665562785319	-48.4447452292156	
2110000000	-3.40003436013897	132.441283489359	-53.6031278404134	-113.230046817254	-58.198486740171	104.019496288557	-2.32156715963972	-49.3501239845773	
2113333333.33333	-3.36684535961596	129.879337229535	-53.2817421325455	-109.644379836991	-57.4500714092672	99.6224018171044	-2.26894121316383	-50.3132118302264	
2116666666.66666	-3.33223409673775	127.370664108102	-52.7862487362349	-106.63277005472	-57.1190558742299	90.3710773728415	-2.2444504748118	-51.2495409637036	
2120000000	-3.2976099349262	124.890201003738	-52.3209310529344	-105.673522223307	-56.3413960031359	83.0079928819318	-2.25963578759663	-52.1038278327232	
2123333333.33333	-3.26250929335986	122.404127884046	-52.1217972262402	-102.699741396903	-55.7162346545929	72.7200665790997	-2.31286467964266	-52.8587596568052	
2126666666.66666	-3.23295931593834	119.984757849106	-51.9102140163297	-100.588330438277	-54.5693028136672	65.2288849323747	-2.38899034141443	-53.4841298109342	
2130000000	-3.20107431151213	117.58939691955	-51.961642272045	-100.913425707855	-53.4815150505956	57.7686388394714	-2.47423280467506	-53.9821654861161	
2133333333.33333	-3.17184686865682	115.215468661194	-51.8695689422266	-99.359352818203	-52.5216108353383	52.118345312752	-2.54658890088963	-54.3588290384715	
2136666666.66666	-3.14286821318037	112.856892760849	-52.0474580503725	-99.8014932505915	-51.592410741363	48.8385005588237	-2.59445205923521	-54.7417667842064	
2140000000	-3.11341572129518	110.546037824135	-52.4019989949796	-101.892793752601	-50.8591849782891	46.563272523322	-2.62723272523843	-55.1017836752158	
2143333333.33333	-3.08863846518834	108.26034645951	-52.9391485922164	-104.797264637319	-50.1382863979113	45.1728931206186	-2.62395747468022	-55.3517552869848	
2146666666.66666	-3.0593793122767	105.973075097385	-53.8380380016188	-108.93856742173	-49.8435661559417	44.9017965747452	-2.56633283981419	-55.4590126153386	
2150000000	-3.02974390669086	103.723274684648	-57.4605073750125	-141.062028580764	-49.5812264582584	45.5839031705702	-2.46773671112577	-55.6343707501131	
2153333333.33333	-2.99726795273551	101.493896449823	-59.0048525466819	-152.938783967976	-49.2157414399292	48.6299286976393	-2.35579629462416	-55.9782446037443	
2156666666.66666	-2.96422208893896	99.3060682890312	-60.5825210154859	-167.118359331924	-48.9888250142475	50.375853418215	-2.26270992681174	-56.4842897308724	
2160000000	-2.92977316925973	97.1299110880321	-61.5650095754486	-179.412787372529	-48.6116067831529	52.6494104765606	-2.20032295663914	-57.1363905949336	
2163333333.33333	-2.89491669856731	94.9902977648963	-61.7894275726031	166.691202591779	-48.21353229413	52.7722830166918	-2.1723649059838	-57.9640766754463	
2166666666.66666	-2.85935817622779	92.8914511136876	-63.0085448520943	155.458328379889	-47.736760544981	51.1936509661539	-2.18986672496284	-58.9466919123886	
2170000000	-2.82158217990986	90.8306106263602	-64.5644034409269	149.124432618994	-47.334170829038	47.864653124261	-2.25559437975267	-59.9777784535492	
2173333333.33333	-2.78528382370483	88.785513131365	-65.229193310508	147.233664766768	-46.7367045729836	44.4108361429859	-2.36810740144198	-61.0142191356336	
2176666666.66666	-2.74845316380315	86.8063619700487	-66.9866596194499	152.876711512138	-46.1121385392401	40.3770709808699	-2.53422791432075	-61.9985712666495	
2180000000	-2.71085425654479	84.8401634002996	-67.2758919599503	167.217001690289	-45.1331647878942	36.4072065621419	-2.73858607861268	-62.8277608677273	
2183333333.33333	-2.6771107520569	82.9159738317343	-65.9885020933079	179.377022937117	-44.3318848008952	32.9645208066114	-2.94702400000306	-63.5198510133503	
2186666666.66666	-2.64101423700276	81.0243726192913	-64.7508246279459	-168.460247340101	-43.559308158309	30.1904461653269	-3.15486160765307	-64.1262190618218	
2190000000	-2.60764956692484	79.166033743966	-61.8694788357482	-167.374585351999	-42.88604833969	27.6874201117084	-3.33776351609815	-64.6246831045354	
2193333333.33333	-2.57486629062972	77.3244876992957	-60.2835069866648	-173.865057230637	-42.4127544052507	25.6850450660409	-3.46981488497621	-64.9279604880844	
2196666666.66666	-2.54240425214653	75.5166681920848	-59.7551083542288	-178.226485620692	-41.9936095471357	24.8850066057146	-3.51455449048705	-65.0054494885816	
2200000000	-2.5111271699548	73.7237533711327	-59.1636265093939	171.671604611485	-41.8193094087254	24.571860567717	-3.459842013386	-64.938362247043	
2203333333.33333	-2.4788502629869	71.9537496076168	-58.7725506987361	162.194806057189	-41.7743469952007	25.1498603395482	-3.3114223920794	-65.0520472726935	
2206666666.66666	-2.45024805008908	70.2167295296797	-58.5127416452552	151.040270988268	-41.7288622535235	27.3586130017737	-3.12878256709479	-65.4357971822753	
2210000000	-2.4235069770865	68.4888637545726	-58.5516960837467	138.715841143874	-41.7084914941718	28.9888527660514	-2.98264565651016	-65.9329355453228	
2213333333.33333	-2.39740961786691	66.8067775867093	-58.5627499414431	128.335990029093	-41.5734043968482	31.0829172023566	-2.87119333333559	-66.4770137519585	
2216666666.66667	-2.37344261129997	65.1189335655389	-57.6379721993401	117.482279645794	-41.4853514203417	31.97666671615	-2.79829338160608	-67.1788342983728	
2220000000	-2.35122626900966	63.4451991631235	-56.2456535259449	109.917590790856	-41.2839179953139	31.8539338714679	-2.7731113249574	-67.9602386924484	
2223333333.33333	-2.33061780078307	61.7926514984146	-54.9329779533128	105.159403425925	-41.1535547811589	30.8341173372112	-2.7871561659775	-68.7737887493464	
2226666666.66667	-2.31179086170868	60.1784972288557	-53.6484050933018	103.724124623585	-40.8040705172393	28.8612227350683	-2.85888355416091	-69.6013180922894	
2230000000	-2.29499534697341	58.5776568474708	-52.2648635652129	100.913423222063	-40.4381593388053	26.5810568213061	-2.97452249824249	-70.3192452675018	
2233333333.33333	-2.27499553551822	57.0030813455843	-50.4959654062615	99.10111831504	-40.0381695539684	24.3273917963223	-3.10263205705525	-70.8864974297379	
2236666666.66667	-2.25322487389623	55.4290878494227	-49.2080899489711	96.4711126996904	-39.5865974792935	22.8155812719581	-3.22066251809552	-71.3408061213178	
2240000000	-2.23139697085906	53.8877216617375	-47.800964021279	92.2854834004065	-39.2349641578031	21.3793854902784	-3.31325271108608	-71.7191844981217	
2243333333.33333	-2.21044061060626	52.3636074219289	-46.8133291872471	87.9759436307097	-38.9091678638888	20.6834861852075	-3.34682613125197	-72.0496439203756	
2246666666.66667	-2.18997125113827	50.8551097255775	-46.1908644220327	82.650307670013	-38.8362082605554	20.9870985598581	-3.30136670822549	-72.302548021042	
2250000000	-2.1669545192882	49.358982500163	-45.8244231709135	78.6769463701173	-38.7222983724277	21.6535474853588	-3.16590375316382	-72.5702383499822	
2253333333.33333	-2.14670120184004	47.8810557546851	-45.5818826051142	75.2990086410821	-38.7929321174607	23.5727346710544	-2.94508683972381	-72.8888693388295	
2256666666.66667	-2.12488722903543	46.4426238005599	-45.4600831593235	73.2496144286885	-38.9142104669474	26.205268821301	-2.68485545092353	-73.2832368660716	
2260000000	-2.10364136599232	45.0123980085658	-45.3575158614969	72.2516878868201	-38.9344473549201	29.4479732361347	-2.43900728941051	-73.7977024927464	
2263333333.33333	-2.08188741179959	43.6084360590911	-45.3256787916022	71.9319877084929	-38.9424120324249	31.3653989605592	-2.25123482531078	-74.4041695186298	
2266666666.66667	-2.06152328366833	42.2269642915684	-45.2754057497368	72.397556537974	-38.9889424211269	31.9619520405833	-2.12704700904434	-75.0852370938261	
2270000000	-2.04109691087599	40.8622354088764	-45.1496608677842	73.2041245224781	-39.0810835192915	31.4178847354349	-2.04349121986254	-75.8642793010367	
2273333333.33333	-2.02373697599836	39.5043948262583	-44.9118210499825	74.8166100925918	-39.1953380606238	30.7331736142718	-1.99760027861706	-76.7048504110358	
2276666666.66667	-2.00251688295734	38.167024619569	-44.4215484255081	75.8857023617604	-39.074555794504	29.4572534131042	-2.01286948511952	-77.7145429210315	
2280000000	-1.98539369642613	36.8383587770105	-43.8349079110409	76.6865559333332	-38.7052294790042	27.1621092859144	-2.09479141693231	-78.8071243589894	
2283333333.33333	-1.96559482679055	35.5250411184015	-42.9874424276668	76.0753914863814	-38.1146162325995	24.6331366202061	-2.25179752690576	-80.0299014016901	
2286666666.66667	-1.94720669886779	34.2173115778424	-42.410100607174	74.8368629563202	-37.363855088647	21.4200209664509	-2.48897786688171	-81.3155046603354	
2290000000	-1.93049600569336	32.9391182855835	-41.9170671083589	72.7767729480745	-36.7494156384911	18.3750808465694	-2.77738798974846	-82.5658281671199	
2293333333.33334	-1.91369933125665	31.6647206216537	-41.4116377189011	70.5231877491524	-36.1498968143954	15.8705823371117	-3.04811304014975	-83.7071741517134	
2296666666.66667	-1.90013635061023	30.4322348033758	-40.9725548881477	68.150464780985	-35.6812096250445	13.721123094501	-3.23411534530139	-84.7970919173222	
2300000000	-1.8845497347504	29.1860212371639	-40.6118393119849	65.9844717371752	-35.3765782765223	12.427570590244	-3.32464052104677	-85.671304763063	
2303333333.33334	-1.87444571309185	27.9677766414842	-40.2514151111829	64.1513388793722	-35.1671901088444	11.8479378637752	-3.30768652685833	-86.1923229811647	
2306666666.66667	-1.86478022256936	26.7437357807535	-39.9318000026641	62.417399547781	-35.0558970426851	12.0247006695048	-3.20144943242403	-86.4424410065457	
2310000000	-1.85560921773262	25.5243054566517	-39.5999582056028	61.0458469787644	-35.0138699321215	12.6569225797256	-3.02065304640948	-86.6122026441164	
2313333333.33334	-1.84915136614823	24.3285675607159	-39.2065885472287	59.8254501177123	-35.0000172794179	14.0394743019635	-2.83942602041585	-86.9897916057945	
2316666666.66667	-1.84376146256949	23.0996288897955	-38.8316628170987	58.2305649934513	-35.0035938116722	14.293318481914	-2.71412423377668	-87.427190850659	
2320000000	-1.83790891549384	21.9091519880289	-38.4536230226372	56.761364687792	-35.0354068228413	13.7581052447959	-2.63153767078218	-87.8555873972515	
2323333333.33334	-1.83260810320687	20.7161080907058	-38.1309913722947	54.4631488967439	-35.1435958702067	12.9316711033079	-2.57657258307819	-88.2844419092067	
2326666666.66667	-1.82619163241469	19.5293478846344	-37.8469647665496	52.234379571068	-35.0812463007249	11.9524235962372	-2.55070122395193	-88.9052492487847	
2330000000	-1.81857879577588	18.3431841384936	-37.6371177596834	50.2938490890515	-34.8044730859104	10.7072250291437	-2.60272170955051	-89.833904898437	
2333333333.33334	-1.8083418584952	17.1674766892724	-37.4287835704297	48.1226896679674	-34.3716923393163	8.87486273428491	-2.75046642581835	-90.9685955893616	
2336666666.66667	-1.79925484688317	16.0124916074795	-37.258090640707	46.6987892180063	-33.8931185105003	6.91484908568278	-2.97020848198581	-92.197384192647	
2340000000	-1.79080420955607	14.8657398964583	-37.0796692530419	45.2454378124662	-33.4282349313561	4.92374911324474	-3.21972098453543	-93.3843992602966	
2343333333.33334	-1.78055193247618	13.7203275039444	-36.8633846730986	43.8217320882633	-33.0947207507993	2.84424310071686	-3.43729543937335	-94.4711559599595	
2346666666.66667	-1.77061415412371	12.6026133626756	-36.6739396536568	42.7592700110745	-32.8073178588833	1.593237126975	-3.56242947053439	-95.6105469638915	
2350000000	-1.76185693968364	11.4911915373446	-36.4405593224697	41.527607908379	-32.6143297254041	0.709949272354248	-3.59136944285909	-96.6632770707551	
2353333333.33334	-1.75279839252498	10.3915133947356	-36.3039673525405	40.5425276960436	-32.5043571241815	0.327292392987851	-3.51375532819245	-97.2643188795444	
2356666666.66667	-1.7423295264341	9.29141170557732	-36.1686855971011	39.6739754895168	-32.523143746053	0.551384583456106	-3.33171692153971	-97.4291788216401	
2360000000.00001	-1.73578377878547	8.2132191727526	-36.0263079856611	38.7268228869579	-32.6441680932578	1.66575069161655	-3.06527511534287	-97.4357812624114	
