!Agilent N9923A: A.07.32
!Date: Thursday, 02 June 2016 03:31:25
!Model: N9923A
!Serial: MY52412257
!GPS Latitude: 
!GPS Longitude: 
!GPS TimeStamp: 0001-01-01 00:00:00Z
!GPS Seconds Since Last Read: 0
!CHECKSUM:1111377805
!Correction: S11(ON U)S21()S12()S22()
!S2P File: Measurements:S11,S21,S12,S22:
# Hz S DB R 50
1950000000	-5.90993366229008	9.85352251990417	0	0	0	0	0	0	
1953333333.33333	-6.26450768610807	-3.53295325742452	0	0	0	0	0	0	
1956666666.66667	-6.50363577731782	-17.7356480096498	0	0	0	0	0	0	
1960000000	-6.66473239440753	-31.7531037146725	0	0	0	0	0	0	
1963333333.33333	-6.59927933456975	-45.113374610646	0	0	0	0	0	0	
1966666666.66667	-6.35843406025261	-58.1144265196319	0	0	0	0	0	0	
1970000000	-6.01160342129604	-70.4947034121701	0	0	0	0	0	0	
1973333333.33333	-5.66883421513129	-82.2004642649597	0	0	0	0	0	0	
1976666666.66667	-5.36764736578531	-92.5404955332383	0	0	0	0	0	0	
1980000000	-5.02685135749021	-101.617586124399	0	0	0	0	0	0	
1983333333.33333	-4.69108362187039	-110.072798523754	0	0	0	0	0	0	
1986666666.66667	-4.40126551266032	-117.609606661786	0	0	0	0	0	0	
1990000000	-4.10276069423421	-124.461447189647	0	0	0	0	0	0	
1993333333.33333	-3.82735172072291	-131.032284604383	0	0	0	0	0	0	
1996666666.66667	-3.61997594640986	-137.081451224639	0	0	0	0	0	0	
2000000000	-3.4443455123277	-142.64853577696	0	0	0	0	0	0	
2003333333.33333	-3.28578228666943	-147.769564933518	0	0	0	0	0	0	
2006666666.66667	-3.13112160628524	-152.59683807232	0	0	0	0	0	0	
2010000000	-2.96648745872456	-157.326150444911	0	0	0	0	0	0	
2013333333.33333	-2.84673551644949	-162.139488799348	0	0	0	0	0	0	
2016666666.66667	-2.78358415824587	-166.663790901241	0	0	0	0	0	0	
2020000000	-2.74036347064921	-170.89874119394	0	0	0	0	0	0	
2023333333.33333	-2.71224367710382	-174.936453134876	0	0	0	0	0	0	
2026666666.66666	-2.68615880964858	-178.849208490679	0	0	0	0	0	0	
2030000000	-2.66743890260919	177.329658365809	0	0	0	0	0	0	
2033333333.33333	-2.6454751362292	173.43766824425	0	0	0	0	0	0	
2036666666.66666	-2.6470432196326	169.410820399259	0	0	0	0	0	0	
2040000000	-2.69873754075258	165.49078466083	0	0	0	0	0	0	
2043333333.33333	-2.74022201101056	161.704045294523	0	0	0	0	0	0	
2046666666.66666	-2.80148867422819	157.853125228453	0	0	0	0	0	0	
2050000000	-2.89226191952434	154.077067218011	0	0	0	0	0	0	
2053333333.33333	-2.97902878837472	150.372811948576	0	0	0	0	0	0	
2056666666.66666	-3.07453934332738	146.474637832521	0	0	0	0	0	0	
2060000000	-3.19304614072523	142.537186372037	0	0	0	0	0	0	
2063333333.33333	-3.32102804323174	138.557106081119	0	0	0	0	0	0	
2066666666.66666	-3.46729892519204	134.472129593982	0	0	0	0	0	0	
2070000000	-3.61322958126922	130.338648994156	0	0	0	0	0	0	
2073333333.33333	-3.77928671966983	125.927831440042	0	0	0	0	0	0	
2076666666.66666	-3.99105978851583	121.426978415678	0	0	0	0	0	0	
2080000000	-4.2475351681157	116.848057667763	0	0	0	0	0	0	
2083333333.33333	-4.5409621826017	112.364921302238	0	0	0	0	0	0	
2086666666.66666	-4.82336846743478	107.991550189229	0	0	0	0	0	0	
2090000000	-5.06497447214361	103.422010497601	0	0	0	0	0	0	
2093333333.33333	-5.30664440979638	98.3627963906445	0	0	0	0	0	0	
2096666666.66666	-5.57949070375489	92.8951804128929	0	0	0	0	0	0	
2100000000	-5.91035983724413	87.0443685506415	0	0	0	0	0	0	
2103333333.33333	-6.31058017555266	81.2928144173475	0	0	0	0	0	0	
2106666666.66666	-6.68687541071144	75.6137545501681	0	0	0	0	0	0	
2110000000	-7.0276118100818	69.6924596650389	0	0	0	0	0	0	
2113333333.33333	-7.34146555529923	63.3169634630975	0	0	0	0	0	0	
2116666666.66666	-7.69003226630481	56.2589726681277	0	0	0	0	0	0	
2120000000	-8.12335348103576	49.1883327547231	0	0	0	0	0	0	
2123333333.33333	-8.52535118589847	42.548820729324	0	0	0	0	0	0	
2126666666.66666	-8.81086761240205	35.6843686117346	0	0	0	0	0	0	
2130000000	-9.08184006529133	28.5317813180129	0	0	0	0	0	0	
2133333333.33333	-9.27386160236157	21.2605949157373	0	0	0	0	0	0	
2136666666.66666	-9.39611127464189	13.925689161827	0	0	0	0	0	0	
2140000000	-9.4135908180601	6.38803582765171	0	0	0	0	0	0	
2143333333.33333	-9.44114359576266	-1.53378850057245	0	0	0	0	0	0	
2146666666.66666	-9.46696860981341	-8.89734495393189	0	0	0	0	0	0	
2150000000	-9.39594338456218	-15.9402804913837	0	0	0	0	0	0	
2153333333.33333	-9.2993263725878	-22.9720448436059	0	0	0	0	0	0	
2156666666.66666	-9.20311665720203	-29.4493493476767	0	0	0	0	0	0	
2160000000	-9.02162601584818	-35.341839440064	0	0	0	0	0	0	
2163333333.33333	-8.80936220548665	-41.3221186999852	0	0	0	0	0	0	
2166666666.66666	-8.63161018316114	-46.824474906711	0	0	0	0	0	0	
2170000000	-8.4244446299711	-51.9408695158394	0	0	0	0	0	0	
2173333333.33333	-8.26516542008045	-56.8066023741126	0	0	0	0	0	0	
2176666666.66666	-8.09176650403319	-60.9248577361317	0	0	0	0	0	0	
2180000000	-7.85114621981211	-64.8153050367759	0	0	0	0	0	0	
2183333333.33333	-7.59350363448725	-68.8488028207019	0	0	0	0	0	0	
2186666666.66666	-7.37141636229919	-72.9006489249683	0	0	0	0	0	0	
2190000000	-7.1867146437455	-76.7413127296096	0	0	0	0	0	0	
2193333333.33333	-7.01504039355385	-80.3011647022429	0	0	0	0	0	0	
2196666666.66666	-6.87535082511541	-83.5872820719859	0	0	0	0	0	0	
2200000000	-6.72517934984702	-86.6318879529576	0	0	0	0	0	0	
2203333333.33333	-6.61177314229035	-89.391388318205	0	0	0	0	0	0	
2206666666.66666	-6.47475302565718	-91.8341609753122	0	0	0	0	0	0	
2210000000	-6.32583767483776	-94.1806859522771	0	0	0	0	0	0	
2213333333.33333	-6.16839640110823	-96.2641813912618	0	0	0	0	0	0	
2216666666.66667	-5.96619392539789	-98.3302305976171	0	0	0	0	0	0	
2220000000	-5.76226491038459	-100.788405926999	0	0	0	0	0	0	
2223333333.33333	-5.63917014410732	-103.210531164244	0	0	0	0	0	0	
2226666666.66667	-5.51806532808631	-105.270807630378	0	0	0	0	0	0	
2230000000	-5.40109692495957	-107.394904151222	0	0	0	0	0	0	
2233333333.33333	-5.31523095295831	-109.399756646235	0	0	0	0	0	0	
2236666666.66667	-5.24370849527681	-111.230927735161	0	0	0	0	0	0	
2240000000	-5.16966254700365	-112.93038284054	0	0	0	0	0	0	
2243333333.33333	-5.10849864641086	-114.587537459533	0	0	0	0	0	0	
2246666666.66667	-5.0362143272108	-116.039999177456	0	0	0	0	0	0	
2250000000	-4.94572397182716	-117.518589735869	0	0	0	0	0	0	
2253333333.33333	-4.86733855661856	-119.112624657319	0	0	0	0	0	0	
2256666666.66667	-4.80090844082756	-120.658258688803	0	0	0	0	0	0	
2260000000	-4.74510629679009	-122.142673124827	0	0	0	0	0	0	
2263333333.33333	-4.6751319053567	-123.491261558317	0	0	0	0	0	0	
2266666666.66667	-4.60405341468707	-124.945442070226	0	0	0	0	0	0	
2270000000	-4.53917114476727	-126.342055997474	0	0	0	0	0	0	
2273333333.33333	-4.48046813470687	-127.903265856077	0	0	0	0	0	0	
2276666666.66667	-4.48661108775938	-129.209263991499	0	0	0	0	0	0	
2280000000	-4.45926796815689	-130.129642657897	0	0	0	0	0	0	
2283333333.33333	-4.40590783414237	-131.000393790269	0	0	0	0	0	0	
2286666666.66667	-4.30866700184146	-131.939088334966	0	0	0	0	0	0	
2290000000	-4.21711809514739	-133.242131752685	0	0	0	0	0	0	
2293333333.33334	-4.17655804477197	-134.615798160277	0	0	0	0	0	0	
2296666666.66667	-4.16167933300502	-135.787881229433	0	0	0	0	0	0	
2300000000	-4.14357432365052	-136.826717353413	0	0	0	0	0	0	
2303333333.33334	-4.11797576291378	-137.765848135837	0	0	0	0	0	0	
2306666666.66667	-4.0783464860072	-138.793189166391	0	0	0	0	0	0	
2310000000	-4.06253058553791	-139.887789251542	0	0	0	0	0	0	
2313333333.33334	-4.06989058677887	-140.776674777625	0	0	0	0	0	0	
2316666666.66667	-4.0471068895638	-141.588899086605	0	0	0	0	0	0	
2320000000	-4.02920709030329	-142.489450889027	0	0	0	0	0	0	
2323333333.33334	-4.00210128911773	-143.33992547948	0	0	0	0	0	0	
2326666666.66667	-3.96259112271574	-144.193326425316	0	0	0	0	0	0	
2330000000	-3.91815225134678	-145.232517663412	0	0	0	0	0	0	
2333333333.33334	-3.90402688824061	-146.338409749247	0	0	0	0	0	0	
2336666666.66667	-3.91805318194313	-147.29679773191	0	0	0	0	0	0	
2340000000	-3.92214946288685	-147.999722199483	0	0	0	0	0	0	
2343333333.33334	-3.89771451354079	-148.69233456869	0	0	0	0	0	0	
2346666666.66667	-3.8734707893894	-149.564577618835	0	0	0	0	0	0	
2350000000	-3.86554770012573	-150.434401601879	0	0	0	0	0	0	
2353333333.33334	-3.88102435344586	-151.299724260994	0	0	0	0	0	0	
2356666666.66667	-3.89520058526861	-151.910995022854	0	0	0	0	0	0	
2360000000.00001	-3.87937215302348	-152.549807466695	0	0	0	0	0	0	
2363333333.33334	-3.86268248500575	-153.314885555582	0	0	0	0	0	0	
2366666666.66667	-3.85880398754663	-154.104494336903	0	0	0	0	0	0	
2370000000.00001	-3.86147288257251	-154.868218697189	0	0	0	0	0	0	
2373333333.33334	-3.86625352523845	-155.618121009167	0	0	0	0	0	0	
2376666666.66667	-3.88271175455809	-156.376991994805	0	0	0	0	0	0	
2380000000.00001	-3.89901193792796	-157.017401822332	0	0	0	0	0	0	
2383333333.33334	-3.90439615871891	-157.67878337759	0	0	0	0	0	0	
2386666666.66667	-3.90565214911627	-158.372332642452	0	0	0	0	0	0	
2390000000.00001	-3.90618339986539	-159.047917025017	0	0	0	0	0	0	
2393333333.33334	-3.90147048533716	-159.690177627878	0	0	0	0	0	0	
2396666666.66667	-3.89263684727198	-160.476975132674	0	0	0	0	0	0	
2400000000.00001	-3.90872720498103	-161.156700918204	0	0	0	0	0	0	
2403333333.33334	-3.90989130734917	-161.789571224059	0	0	0	0	0	0	
2406666666.66667	-3.92744373663728	-162.561577792086	0	0	0	0	0	0	
2410000000.00001	-3.95560516143025	-163.103497793582	0	0	0	0	0	0	
2413333333.33334	-3.97111400636516	-163.68415134053	0	0	0	0	0	0	
2416666666.66667	-3.98981779915529	-164.229387385861	0	0	0	0	0	0	
2420000000.00001	-4.0300801693912	-164.943918112623	0	0	0	0	0	0	
2423333333.33334	-4.09336582326892	-165.294359764144	0	0	0	0	0	0	
2426666666.66668	-4.10764283495525	-165.479862452854	0	0	0	0	0	0	
2430000000.00001	-4.0803512982531	-165.892005917005	0	0	0	0	0	0	
2433333333.33334	-4.08537521290831	-166.583333131034	0	0	0	0	0	0	
2436666666.66668	-4.11808942013275	-167.111726122208	0	0	0	0	0	0	
2440000000.00001	-4.1179190404704	-167.690954632466	0	0	0	0	0	0	
2443333333.33334	-4.15819088509443	-168.461572011166	0	0	0	0	0	0	
2446666666.66668	-4.19593204281611	-169.042625436757	0	0	0	0	0	0	
2450000000.00001	-4.24157692383339	-169.706667805843	0	0	0	0	0	0	
2453333333.33334	-4.30303710753615	-170.180455002321	0	0	0	0	0	0	
2456666666.66668	-4.3389458114946	-170.504343081856	0	0	0	0	0	0	
2460000000.00001	-4.35810923707998	-170.943068267383	0	0	0	0	0	0	
2463333333.33334	-4.39175908253699	-171.392598287471	0	0	0	0	0	0	
2466666666.66668	-4.42743751132431	-171.747963218833	0	0	0	0	0	0	
2470000000.00001	-4.43608767735473	-171.967377564856	0	0	0	0	0	0	
2473333333.33334	-4.41737503573809	-172.362784772301	0	0	0	0	0	0	
2476666666.66668	-4.40513201552414	-173.048623781389	0	0	0	0	0	0	
2480000000.00001	-4.42682528990125	-173.898705576247	0	0	0	0	0	0	
2483333333.33334	-4.50743479138531	-174.665759674171	0	0	0	0	0	0	
2486666666.66668	-4.61559325459638	-175.043272288893	0	0	0	0	0	0	
2490000000.00001	-4.68864532000144	-175.061932063349	0	0	0	0	0	0	
2493333333.33334	-4.70956424477323	-175.166072560361	0	0	0	0	0	0	
2496666666.66668	-4.73898052708121	-175.335733389728	0	0	0	0	0	0	
2500000000.00001	-4.74975886583371	-175.575003697371	0	0	0	0	0	0	
2503333333.33335	-4.76005910979464	-176.014871997083	0	0	0	0	0	0	
2506666666.66668	-4.80257908600375	-176.426250350618	0	0	0	0	0	0	
2510000000.00001	-4.82685464241382	-176.72579990321	0	0	0	0	0	0	
2513333333.33335	-4.83950532626843	-177.355239858953	0	0	0	0	0	0	
2516666666.66668	-4.923859375717	-177.916360228536	0	0	0	0	0	0	
2520000000.00001	-4.99948681617787	-178.032399587357	0	0	0	0	0	0	
2523333333.33335	-5.02259925631525	-178.193015078734	0	0	0	0	0	0	
2526666666.66668	-5.0758954546046	-178.561420264019	0	0	0	0	0	0	
2530000000.00001	-5.12273218920495	-178.612961680032	0	0	0	0	0	0	
2533333333.33335	-5.1510461803054	-178.873625792325	0	0	0	0	0	0	
2536666666.66668	-5.18626611927839	-178.981680057172	0	0	0	0	0	0	
2540000000.00001	-5.19056189664427	-178.996969891284	0	0	0	0	0	0	
2543333333.33335	-5.16157622705114	-179.445866881998	0	0	0	0	0	0	
2546666666.66668	-5.19849477016077	179.93474006189	0	0	0	0	0	0	
2550000000.00001	-5.26806882678916	179.499753285348	0	0	0	0	0	0	
2553333333.33335	-5.32950492976938	179.184530323875	0	0	0	0	0	0	
2556666666.66668	-5.43108872490967	178.926920179936	0	0	0	0	0	0	
2560000000.00001	-5.50264951185872	179.160545952689	0	0	0	0	0	0	
2563333333.33335	-5.53356247345625	179.239294271263	0	0	0	0	0	0	
2566666666.66668	-5.55600407245282	179.342275363999	0	0	0	0	0	0	
2570000000.00002	-5.54764211009029	179.250662481178	0	0	0	0	0	0	
2573333333.33335	-5.55624553918889	178.9110939433	0	0	0	0	0	0	
2576666666.66668	-5.58778710345664	178.63722027163	0	0	0	0	0	0	
2580000000.00002	-5.64111439768864	178.424607323483	0	0	0	0	0	0	
2583333333.33335	-5.66265269077601	178.341892587892	0	0	0	0	0	0	
2586666666.66668	-5.67209155813555	178.107567579688	0	0	0	0	0	0	
2590000000.00002	-5.73040823649084	177.552363691364	0	0	0	0	0	0	
2593333333.33335	-5.84159994633551	177.541089993193	0	0	0	0	0	0	
2596666666.66668	-5.8706418190784	177.774301112907	0	0	0	0	0	0	
2600000000.00002	-5.89986676880088	177.747514500908	0	0	0	0	0	0	
2603333333.33335	-5.93248954918112	177.844381413033	0	0	0	0	0	0	
2606666666.66668	-5.90461154678648	177.939294418535	0	0	0	0	0	0	
2610000000.00002	-5.91020471204603	177.579560386183	0	0	0	0	0	0	
2613333333.33335	-5.92912915799969	177.484798505736	0	0	0	0	0	0	
2616666666.66668	-5.93957253430789	177.138396687895	0	0	0	0	0	0	
2620000000.00002	-6.00072519210818	176.809787401703	0	0	0	0	0	0	
2623333333.33335	-6.06856849512558	176.787847401416	0	0	0	0	0	0	
2626666666.66668	-6.11531678004598	176.800887476696	0	0	0	0	0	0	
2630000000.00002	-6.15048744905144	176.828989393951	0	0	0	0	0	0	
2633333333.33335	-6.19258822558481	176.831164844393	0	0	0	0	0	0	
2636666666.66669	-6.22193713671194	176.826867451184	0	0	0	0	0	0	
2640000000.00002	-6.28103555634362	176.920619251964	0	0	0	0	0	0	
2643333333.33335	-6.29506486652659	177.349665248699	0	0	0	0	0	0	
2646666666.66669	-6.25392779815578	177.387160122121	0	0	0	0	0	0	
2650000000.00002	-6.24311313038363	177.128640800345	0	0	0	0	0	0	
2653333333.33335	-6.28121148813748	176.678649781559	0	0	0	0	0	0	
2656666666.66669	-6.37533181963733	176.608623550851	0	0	0	0	0	0	
2660000000.00002	-6.41485615775258	176.848137025863	0	0	0	0	0	0	
2663333333.33335	-6.43300398317704	176.87712820347	0	0	0	0	0	0	
2666666666.66669	-6.45398633705458	177.035723828998	0	0	0	0	0	0	
2670000000.00002	-6.44847764554166	176.888522470346	0	0	0	0	0	0	
2673333333.33335	-6.47891759497881	176.815995524394	0	0	0	0	0	0	
2676666666.66669	-6.50868519534683	176.829426456586	0	0	0	0	0	0	
2680000000.00002	-6.51474201408921	176.796788927475	0	0	0	0	0	0	
2683333333.33335	-6.55146405858203	176.753503636845	0	0	0	0	0	0	
2686666666.66669	-6.53926593939038	176.879569776921	0	0	0	0	0	0	
2690000000.00002	-6.53957213169107	176.425783176562	0	0	0	0	0	0	
2693333333.33335	-6.61879790318306	176.188828217322	0	0	0	0	0	0	
2696666666.66669	-6.67724910290336	176.414763688477	0	0	0	0	0	0	
2700000000.00002	-6.68326825864968	176.52266272228	0	0	0	0	0	0	
2703333333.33335	-6.72184636083377	176.593527393171	0	0	0	0	0	0	
2706666666.66669	-6.71544193698784	176.945174781951	0	0	0	0	0	0	
2710000000.00002	-6.68676593615274	176.864321062815	0	0	0	0	0	0	
2713333333.33336	-6.70279800730693	176.676750396346	0	0	0	0	0	0	
2716666666.66669	-6.73746612226381	176.558376300228	0	0	0	0	0	0	
2720000000.00002	-6.80487883200699	176.541338921642	0	0	0	0	0	0	
2723333333.33336	-6.8436253690391	176.817695646795	0	0	0	0	0	0	
2726666666.66669	-6.84379750742198	177.122627344339	0	0	0	0	0	0	
2730000000.00002	-6.81602368390311	177.133727460339	0	0	0	0	0	0	
2733333333.33336	-6.82613021711124	176.865742202587	0	0	0	0	0	0	
2736666666.66669	-6.87938190245557	176.687102166693	0	0	0	0	0	0	
2740000000.00002	-6.94281371563193	176.838766882979	0	0	0	0	0	0	
2743333333.33336	-6.98438766330369	177.142640688706	0	0	0	0	0	0	
2746666666.66669	-6.99164229441451	177.513326867145	0	0	0	0	0	0	
2750000000.00002	-6.94152532107648	177.688163265097	0	0	0	0	0	0	
2753333333.33336	-6.92437409782871	177.10976339585	0	0	0	0	0	0	
2756666666.66669	-7.05551314259316	176.855309813926	0	0	0	0	0	0	
2760000000.00002	-7.11786828527347	177.592286712875	0	0	0	0	0	0	
2763333333.33336	-7.10500535997977	177.810941460524	0	0	0	0	0	0	
2766666666.66669	-7.12121508591682	178.126250003267	0	0	0	0	0	0	
2770000000.00002	-7.11448750298485	178.266515234605	0	0	0	0	0	0	
2773333333.33336	-7.15734145533728	178.341686193952	0	0	0	0	0	0	
2776666666.66669	-7.21094833371169	178.674323200133	0	0	0	0	0	0	
2780000000.00003	-7.27346959078149	179.08267435808	0	0	0	0	0	0	
2783333333.33336	-7.34170322471283	179.922027265306	0	0	0	0	0	0	
2786666666.66669	-7.36102953863721	-178.859979858685	0	0	0	0	0	0	
2790000000.00003	-7.28589342896411	-177.525083823294	0	0	0	0	0	0	
2793333333.33336	-7.15166424629943	-176.085455916042	0	0	0	0	0	0	
2796666666.66669	-6.81857596676726	-174.53797522913	0	0	0	0	0	0	
2800000000.00003	-6.25079596919158	-174.96249794298	0	0	0	0	0	0	
2803333333.33336	-5.92719036960279	-178.140698234383	0	0	0	0	0	0	
2806666666.66669	-5.95750537966375	178.988678259197	0	0	0	0	0	0	
2810000000.00003	-6.11843233779575	177.080658125517	0	0	0	0	0	0	
2813333333.33336	-6.31213667990995	175.963280006802	0	0	0	0	0	0	
2816666666.66669	-6.51066122970604	175.377797627323	0	0	0	0	0	0	
2820000000.00003	-6.6860200139944	175.448270822155	0	0	0	0	0	0	
2823333333.33336	-6.78896256444523	175.855469590208	0	0	0	0	0	0	
2826666666.66669	-6.80813753893846	176.16369004807	0	0	0	0	0	0	
2830000000.00003	-6.82404908033037	176.257769808184	0	0	0	0	0	0	
2833333333.33336	-6.82664824678746	176.173470145505	0	0	0	0	0	0	
2836666666.66669	-6.87711046850711	175.91926506903	0	0	0	0	0	0	
2840000000.00003	-6.96799502614678	176.061467639881	0	0	0	0	0	0	
2843333333.33336	-6.95926989988604	176.42858470367	0	0	0	0	0	0	
2846666666.6667	-6.96073928297327	176.129672537426	0	0	0	0	0	0	
2850000000.00003	-7.03200048243596	175.81374691111	0	0	0	0	0	0	
2853333333.33336	-7.15226722206402	175.749454364172	0	0	0	0	0	0	
2856666666.6667	-7.28099526482944	176.279342422061	0	0	0	0	0	0	
2860000000.00003	-7.2898295074969	177.187330658063	0	0	0	0	0	0	
2863333333.33336	-7.24540053263315	177.342322288175	0	0	0	0	0	0	
2866666666.6667	-7.25791516340685	177.161010910774	0	0	0	0	0	0	
2870000000.00003	-7.32141022359022	177.08447432233	0	0	0	0	0	0	
2873333333.33336	-7.38177481698675	177.29248149299	0	0	0	0	0	0	
2876666666.6667	-7.42343932441178	177.630600693485	0	0	0	0	0	0	
2880000000.00003	-7.41701425168445	177.82177136327	0	0	0	0	0	0	
2883333333.33336	-7.4204671846986	177.762622122102	0	0	0	0	0	0	
2886666666.6667	-7.45001402248116	177.594672355064	0	0	0	0	0	0	
2890000000.00003	-7.5070465568426	177.511258953904	0	0	0	0	0	0	
2893333333.33336	-7.60751897002547	177.462941038568	0	0	0	0	0	0	
2896666666.6667	-7.70055183976993	178.12677116415	0	0	0	0	0	0	
2900000000.00003	-7.69603389415542	178.659307774747	0	0	0	0	0	0	
2903333333.33336	-7.72389973920859	178.854781459922	0	0	0	0	0	0	
2906666666.6667	-7.77008637258333	179.17383240609	0	0	0	0	0	0	
2910000000.00003	-7.83502741665613	179.705449356578	0	0	0	0	0	0	
2913333333.33336	-7.82191776352024	-179.6604493515	0	0	0	0	0	0	
2916666666.6667	-7.81779929857002	-179.331676766081	0	0	0	0	0	0	
2920000000.00003	-7.83917885553127	-179.338166609728	0	0	0	0	0	0	
2923333333.33337	-7.92260241744442	-178.959623909105	0	0	0	0	0	0	
2926666666.6667	-7.96872952001303	-178.438910905692	0	0	0	0	0	0	
2930000000.00003	-8.02418026356797	-177.823309948631	0	0	0	0	0	0	
2933333333.33337	-8.06705803796214	-177.266116355278	0	0	0	0	0	0	
2936666666.6667	-8.09909076035109	-176.617288100827	0	0	0	0	0	0	
2940000000.00003	-8.13046766197068	-175.923122044007	0	0	0	0	0	0	
2943333333.33337	-8.13508521722071	-175.381391790974	0	0	0	0	0	0	
2946666666.6667	-8.18588507432109	-174.774074070914	0	0	0	0	0	0	
