!Agilent N9923A: A.07.32
!Date: Thursday, 02 June 2016 02:44:26
!Model: N9923A
!Serial: MY52412257
!GPS Latitude: 
!GPS Longitude: 
!GPS TimeStamp: 0001-01-01 00:00:00Z
!GPS Seconds Since Last Read: 0
!CHECKSUM:0557572891
!Correction: S11(ON U)S21(ON U)S12(ON U)S22(ON U)
!S2P File: Measurements:S11,S21,S12,S22:
# Hz S DB R 50
1950000000	-13.7356402423034	109.828745927167	8.1853805068806	-130.102077483294	-30.0748723803914	-166.848779341027	-19.0191659416152	1.74926797926419	
1953333333.33333	-13.7869726235171	107.595423150404	8.18120198495615	-131.570297902201	-30.1484968822141	-167.814035869932	-19.1562422174609	0.0569424277487713	
1956666666.66667	-13.8345160184319	105.350836101712	8.17815952557778	-133.02360930367	-30.2082014673455	-168.848342862042	-19.3251423243811	-1.52342753184828	
1960000000	-13.8780216482471	103.129625108631	8.17190927315397	-134.43096884738	-30.2792152159767	-169.784171465244	-19.4823999795739	-3.09574828935106	
1963333333.33333	-13.9235675737634	101.053425985702	8.17197564370467	-135.822936221824	-30.3428386800766	-170.5660737597	-19.648503252315	-4.3868197850465	
1966666666.66667	-13.9752359917624	99.0404190408166	8.16599375225675	-137.171871742767	-30.3711254536757	-171.459685231269	-19.8268878650332	-5.65387261795848	
1970000000	-14.0224166228125	97.2174655461597	8.17558405242262	-138.521802716564	-30.4194661718799	-172.187479085321	-20.0166301628005	-6.87873688989566	
1973333333.33333	-14.0216711439459	95.6890671794407	8.18914533873858	-139.861455051393	-30.449397524335	-172.955447191857	-20.1923690915319	-7.9450077764267	
1976666666.66667	-14.1275058010477	93.9630644868055	8.17605914287494	-141.092792104689	-30.4568450157036	-173.717737206404	-20.3699957159934	-9.00541162280527	
1980000000	-14.1898709259912	92.4743935643824	8.23161476630877	-142.559335958525	-30.4706913655246	-174.479201917725	-20.5504485850349	-9.92713909574294	
1983333333.33333	-14.1891114432764	91.2244712456791	8.2607385741066	-143.96791118069	-30.4762813103873	-175.294613441367	-20.7159624354673	-10.847672486119	
1986666666.66667	-14.3635216737793	89.596765556599	8.24494196534614	-145.278718559351	-30.4553459513632	-176.129877383108	-20.8915081699895	-11.8508003868973	
1990000000	-14.4605341520919	88.2368714314222	8.32123922041626	-146.902218726131	-30.4470908209638	-176.794451164746	-21.039735769147	-12.7822757139987	
1993333333.33333	-14.499171855544	87.029117654252	8.35018745630918	-148.366960126931	-30.4472884858579	-177.877607137064	-21.1809783975343	-13.7330464971949	
1996666666.66667	-14.6522224132632	85.485930236218	8.36580589979283	-149.806319070852	-30.4330635739643	-178.754672974992	-21.3227609924331	-14.8910328577121	
2000000000	-14.7522186265745	84.050361588242	8.3936502693454	-151.309272417069	-30.4285105950798	-179.724079009346	-21.4544390183234	-15.9333750911209	
2003333333.33333	-14.8575331690175	82.5358548324103	8.40988021745104	-152.786638181077	-30.4265139903122	179.143115308974	-21.5705184328344	-17.2006364928748	
2006666666.66667	-14.9524671542009	80.9537911396459	8.42296028614462	-154.262706425222	-30.4347874891247	178.267426248155	-21.6951484183601	-18.466795172355	
2010000000	-15.0467649800867	79.221710909442	8.43346843348645	-155.733765271094	-30.4301015207642	177.323788682437	-21.8185995470635	-19.6723320434102	
2013333333.33333	-15.1443259871744	77.4171080097323	8.43280345426063	-157.19120731973	-30.4410240377191	176.40362421847	-21.9473708628844	-20.9740218961709	
2016666666.66667	-15.2386420005299	75.4583305374295	8.44460699601524	-158.647394290479	-30.4667192479053	175.503658884994	-22.0600227051447	-22.3210473162325	
2020000000	-15.3309783579645	73.3949883633939	8.44520633759	-160.107528563124	-30.4719887500159	174.524970421069	-22.1779475378064	-23.7038583919804	
2023333333.33333	-15.4197035260487	71.2185650074705	8.44717347639843	-161.547335777933	-30.4893225748426	173.702145985834	-22.3055862119724	-25.0704480867603	
2026666666.66666	-15.5060083383393	69.0105587540456	8.44230547899096	-162.984713223575	-30.4929136654262	172.897336320505	-22.4382601464202	-26.2432244196571	
2030000000	-15.5811071358179	66.7423376504969	8.4341371250698	-164.397279385071	-30.5150039837007	172.125122631791	-22.5673312639119	-27.3674904837021	
2033333333.33333	-15.6595611976987	64.4931912658705	8.42861298568541	-165.804134475469	-30.51078594067	171.420503861806	-22.7021982093245	-28.5089288233933	
2036666666.66666	-15.7229426509791	62.1881520820862	8.41733397520909	-167.211065741127	-30.5139829639508	170.660457160121	-22.8275517188219	-29.5157484493623	
2040000000	-15.8003323533482	59.9461837081229	8.38012342275059	-168.584058861177	-30.498958267647	169.950182047074	-22.9580206142441	-30.399991894367	
2043333333.33333	-15.8765275421662	57.754784427668	8.39413644047089	-170.00692528578	-30.4891429355724	169.320086733039	-23.0957711097001	-31.2446518221328	
2046666666.66666	-15.9021914807209	55.6733058162693	8.38235538776414	-171.389079123129	-30.457122867834	168.586307857821	-23.2164482729485	-32.0278803808038	
2050000000	-16.0531011958895	53.7255356608229	8.34642448648629	-172.740742674892	-30.4083166186239	167.961678241804	-23.3307395609651	-32.7893890466137	
2053333333.33333	-16.1625344681193	51.9477533505794	8.3706461819291	-174.11453451957	-30.3606386555791	167.21437528751	-23.4520542226357	-33.4045152045869	
2056666666.66666	-16.259042076161	50.2797006326484	8.37157678859054	-175.463851397259	-30.30664305941	166.417922779256	-23.5617367748401	-34.1243033645592	
2060000000	-16.4177039768285	48.78230049948	8.37714433147851	-176.791877609609	-30.2319044150005	165.654770066461	-23.6766033791415	-34.7570374476636	
2063333333.33333	-16.5669098049462	47.4857203739924	8.38845774628366	-178.115428619746	-30.1723219818386	164.726304736238	-23.7670529384755	-35.54990741439	
2066666666.66666	-16.7255095423658	46.3074603699394	8.40492925264904	-179.42642304706	-30.091174560801	163.81841605721	-23.8696265787297	-36.174900077498	
2070000000	-16.8855311078942	45.3200517323141	8.42651098381386	179.262236287357	-30.0294907802329	162.882469274195	-23.9614086850405	-37.0501099077277	
2073333333.33333	-17.0465286293394	44.3962777870532	8.44672516708484	177.948743689466	-29.9697096229476	161.932972491576	-24.058748998883	-37.861002461129	
2076666666.66666	-17.1990083402223	43.5230059671025	8.43923242387008	176.649046403129	-29.8849817285082	160.816603612055	-24.1471135328201	-38.7372479196645	
2080000000	-17.3456080089264	42.6225295870002	8.48635714511493	175.301227389101	-29.852307482019	159.739148987152	-24.2411173936396	-39.9304635767765	
2083333333.33333	-17.4805959165932	41.7256036844009	8.50194921336885	173.966060604584	-29.7865904877121	158.673693165679	-24.3157626030044	-40.8414174205235	
2086666666.66666	-17.6116583051817	40.7275814618889	8.51062363248028	172.647899943616	-29.7400634205708	157.554709889851	-24.4082544269034	-42.0738557968675	
2090000000	-17.7221063131715	39.6590091699151	8.51647358091224	171.320036625023	-29.6898045696632	156.529217447032	-24.4808671498467	-43.3993504184497	
2093333333.33333	-17.8174088107915	38.4583953774632	8.51709137184701	170.006276003429	-29.6499763631149	155.483225260253	-24.5554926148856	-44.6525512984132	
2096666666.66666	-17.9151099882306	37.1421722139682	8.51776115737343	168.677679234136	-29.601896774173	154.413701903842	-24.6342471383933	-46.0590641892883	
2100000000	-17.9875395971168	35.6494745456822	8.51299766564855	167.351501313808	-29.5540075051579	153.350666083334	-24.7106680858729	-47.3947394801927	
2103333333.33333	-18.081741477562	33.8967428062226	8.47896582011187	166.030040187928	-29.5020126402448	152.377109769512	-24.7663234459533	-48.7774254741468	
2106666666.66666	-18.1593693749563	32.003707398398	8.49539764912954	164.678628066331	-29.4711323722668	151.347691527555	-24.811065325467	-50.1328472652737	
2110000000	-18.1390255660088	30.0726865132408	8.48503857967513	163.343769016775	-29.4198568735463	150.352564650141	-24.8538460847296	-51.4899869265157	
2113333333.33333	-18.3206865491991	27.8610357916323	8.44790202304068	162.039652771167	-29.3555718846562	149.218664014748	-24.8799040712186	-52.9045389100067	
2116666666.66666	-18.4149990543001	25.7990548463767	8.45722373007268	160.68960083638	-29.3009452975782	148.253493006239	-24.8947584481641	-54.2174998537784	
2120000000	-18.5008656029065	23.7028012411218	8.44267576923229	159.362988841663	-29.2496674843706	147.247011500499	-24.9011270384591	-55.4164475906092	
2123333333.33333	-18.6236645937522	21.5931585051332	8.4292171942565	158.048136602436	-29.1733540565284	146.061519808716	-24.8877624652058	-56.6271653381734	
2126666666.66666	-18.7332453707677	19.5899871750013	8.41554300741667	156.715381344516	-29.1052138171042	145.080341865653	-24.8679657807175	-58.0947270336672	
2130000000	-18.8589687008625	17.7120488738123	8.40219678524046	155.383618946245	-29.0305027416931	143.972911615813	-24.8402361620117	-59.0632373730781	
2133333333.33333	-18.9966501664123	15.9319574763359	8.39148303784251	154.053657084149	-28.975836319009	142.626928219998	-24.8232684892698	-60.4336674058802	
2136666666.66666	-19.1401091051057	14.3206537209256	8.38351967453855	152.750026784292	-28.8932617932968	141.428198424439	-24.7819993930255	-61.7433002715393	
2140000000	-19.3057184965697	12.8423456241506	8.36188679102851	151.474195624326	-28.8162908210654	140.164697800643	-24.7436093188892	-62.9978304573075	
2143333333.33333	-19.495021055337	11.5931643629861	8.37933390991547	150.190270084757	-28.7551608467566	138.790052635667	-24.7362191062267	-64.56470162264	
2146666666.66666	-19.5743426694939	10.7967441736093	8.38713207832954	148.931409346972	-28.6930299719688	137.482820772905	-24.7128867571988	-66.1368473993185	
2150000000	-19.8765405083973	9.74085060351176	8.39885917731698	147.69268455761	-28.6388084969377	136.020546778824	-24.6954243146897	-67.967213221862	
2153333333.33333	-20.0619932578491	9.11109646226511	8.41677334333874	146.453571512868	-28.5787444884148	134.73310701099	-24.6853885367986	-69.4855912076232	
2156666666.66666	-20.2821879595023	8.49561726811142	8.43536733605127	145.203292822682	-28.5291602253487	133.171134356551	-24.6865909841141	-71.268957797372	
2160000000	-20.4879947925928	7.94326437993453	8.45809086888099	143.942369118933	-28.4946089989686	131.811293291877	-24.712970280252	-73.364267069666	
2163333333.33333	-20.6863269637019	7.30008448926307	8.47462416643794	142.672339405908	-28.4665182622885	130.435872921348	-24.7176338137	-75.0730036182603	
2166666666.66666	-20.8756569642613	6.67216784158317	8.48873691491181	141.400107691528	-28.4302099342161	128.936076383625	-24.7556446885046	-77.0115304708613	
2170000000	-21.0579073580184	6.09566480074027	8.49776722678473	140.122700941466	-28.4105399677389	127.715840113401	-24.7848493291788	-79.1058248402725	
2173333333.33333	-21.2332203545773	5.38940817114257	8.48838053226954	138.897603433672	-28.3801724883435	126.404133715996	-24.8108180446802	-81.1184769175709	
2176666666.66666	-21.3869646568112	4.66847262982467	8.50566775034386	137.606965238261	-28.3477118708573	125.162521624013	-24.8301909316323	-83.2756552583294	
2180000000	-21.4562374913903	3.91017034934201	8.50537662315175	136.356237738353	-28.3296440032994	123.88935886387	-24.8592589579657	-85.5363862870764	
2183333333.33333	-21.685392669086	2.51192482780772	8.46456608507217	135.14097502752	-28.296461863095	122.574095589477	-24.8667130102079	-87.6345188265668	
2186666666.66666	-21.8044103257765	1.14216347844218	8.49970223558554	133.796869003036	-28.2691794437	121.307556736903	-24.872013315139	-89.8807194700532	
2190000000	-21.847956898596	-0.432160345127784	8.49507571387528	132.485849508409	-28.2374571435317	120.026817842958	-24.8435510225339	-92.0591496749336	
2193333333.33333	-22.0584111724552	-2.36161456590445	8.47285390451896	131.188403505226	-28.2018984585301	118.812435654141	-24.8153954350503	-94.1874215157138	
2196666666.66666	-22.1798786908944	-4.31983133517036	8.47562020990259	129.838989782878	-28.1608979354807	117.446718150443	-24.7705459407774	-96.4383195400383	
2200000000	-22.3069396339758	-6.1469120969364	8.46104547905016	128.51447413191	-28.130071725154	116.193913061132	-24.7174822740761	-98.4896088143955	
2203333333.33333	-22.430757946867	-7.99681771003402	8.44546460985181	127.187990339319	-28.0944372225506	114.819621114236	-24.643569872791	-100.583190433219	
2206666666.66666	-22.5788424756693	-9.73720294243833	8.42821873802663	125.872616265776	-28.0513804421183	113.457533691724	-24.5665847798411	-102.85392357912	
2210000000	-22.6906310472233	-11.4279013725391	8.41135861032016	124.572626184338	-28.0189203778142	112.042926130082	-24.4828307480791	-104.68172867653	
2213333333.33333	-22.8257617747427	-12.9196009018437	8.3903266545562	123.277812203496	-27.9802780682246	110.584999196521	-24.3993369746149	-106.763689663993	
2216666666.66667	-22.9646710885838	-14.208242830195	8.37427435259723	122.00002282236	-27.9649364710609	109.172252209787	-24.2907470907928	-108.796897391312	
2220000000	-23.0994006947139	-15.3260045797565	8.35416094971584	120.739246245603	-27.9363496326303	107.713886757289	-24.2039540382322	-110.852074323744	
2223333333.33333	-23.2717986763918	-16.1569879027604	8.33702477727099	119.494687543091	-27.9336887694634	106.260816984032	-24.1101635158788	-112.841519711994	
2226666666.66667	-23.4150348130246	-16.8108383051544	8.32434926267125	118.275484299528	-27.9107189890697	104.673251933711	-24.0309948015086	-114.921434922895	
2230000000	-23.5892279115011	-17.1883200388119	8.31436017199153	117.076958852212	-27.9103843803968	103.301890076476	-23.9681032854956	-117.221586245201	
2233333333.33333	-23.7085073550551	-17.3395725256185	8.30635919008679	115.872522711652	-27.9116264010078	101.870577503326	-23.9039285102395	-119.124594943868	
2236666666.66667	-23.9085915310164	-17.5690200704666	8.27892533136885	114.732376562601	-27.9271473344494	100.439269546768	-23.842348823963	-121.224064325998	
2240000000	-24.0729674009004	-17.4560536532523	8.30098979956886	113.505096488679	-27.9337752669775	99.0738150980178	-23.8043670363245	-123.473758240832	
2243333333.33333	-24.0800234203468	-16.9397316699725	8.29632026123871	112.317774261381	-27.9403933347028	97.7801905068598	-23.7800784896449	-125.626153684742	
2246666666.66667	-24.3935597166912	-17.3190621070995	8.26701019354445	111.184340250093	-27.9538715842313	96.5566736123423	-23.7806947724851	-127.818088865464	
2250000000	-24.5285773981384	-17.0982110623433	8.29448434875119	109.94247125334	-27.958278201423	95.2066221205864	-23.7458844989255	-129.928266677634	
2253333333.33333	-24.5353380376631	-16.3571649391999	8.286023933734	108.774398728255	-27.974530192314	93.9974616561471	-23.7276919697083	-132.124780705588	
2256666666.66667	-24.7540840845469	-16.522345879328	8.27909761828622	107.607875243898	-27.9780713107938	92.8037158364902	-23.6950629450433	-134.287663837312	
2260000000	-24.8596263517853	-16.2952084682872	8.26987819369204	106.433256693398	-27.9879758780678	91.7023663834162	-23.6767086320422	-136.547980926664	
2263333333.33333	-24.9362876877631	-16.366543371395	8.26174539219057	105.271327054043	-27.9905992586691	90.5606998361859	-23.6497713938596	-138.771037555299	
2266666666.66667	-25.0219373319816	-16.6966243866974	8.25255788554483	104.092649542469	-27.9791536177256	89.4067054186284	-23.5941074752201	-140.946941649941	
2270000000	-25.0457795308258	-16.9195196774555	8.24283497508561	102.904713083087	-27.9656485932397	88.237645476803	-23.537714380718	-143.076837048422	
2273333333.33333	-25.1564948955864	-17.8963832514934	8.21457720325082	101.77619301795	-27.9493589187215	87.0092780746722	-23.4718410853838	-145.167739946536	
2276666666.66667	-25.2364825973557	-18.7950962774518	8.22618740999495	100.479350630161	-27.9325983197886	85.890552478069	-23.4015931585711	-147.283841652577	
2280000000	-25.1239591288286	-19.4734281845809	8.21865258655005	99.2467867421708	-27.9184503502839	84.6856771329874	-23.3088780675021	-149.169862713971	
2283333333.33333	-25.36723931858	-21.416465924982	8.2122574310486	97.9698058985016	-27.9050802554577	83.4227220974192	-23.1967550809721	-151.23370248705	
2286666666.66667	-25.4422245514107	-22.9279040433552	8.20331952374581	96.6931580777262	-27.8713241516521	82.1141296315187	-23.0901301592372	-153.346537218313	
2290000000	-25.5039631279368	-24.4804591155679	8.19634980611636	95.4102421802683	-27.8655392870642	80.8899322248718	-22.9941537183969	-155.052195197368	
2293333333.33334	-25.5550880056831	-26.0641460845584	8.18848698060064	94.1091340143565	-27.8470921125047	79.5650086622026	-22.8657505929176	-156.896213889074	
2296666666.66667	-25.598073826213	-27.4608446433489	8.18006553820232	92.81636795726	-27.8313592297125	78.1883546284703	-22.7547568146565	-158.878679347431	
2300000000	-25.6174963289122	-28.8194621483763	8.15179054432965	91.5752483121434	-27.8313380539069	76.9263977121548	-22.6553819889105	-160.531929269124	
2303333333.33334	-25.6160167630519	-29.9201314170867	8.15878576549947	90.2537949425432	-27.8406604545712	75.6450000875626	-22.5404747321683	-162.311126405587	
2306666666.66667	-25.4687747030115	-30.4648224422869	8.1466301461006	88.9911608713842	-27.8417037610125	74.2670184462962	-22.425826501379	-164.012910524357	
2310000000	-25.5818850553427	-31.5337020174153	8.11044033166386	87.8116160192578	-27.8503428736148	72.9829532049253	-22.3230932282902	-165.640713132506	
2313333333.33334	-25.5390844925387	-31.9547378500017	8.1192222708628	86.5321405208536	-27.852047295501	71.6139322145984	-22.2355914129886	-167.344683035129	
2316666666.66667	-25.4263453115354	-32.2008490280522	8.10697385405689	85.3146674209734	-27.8800612600103	70.4085516224145	-22.1579970676717	-168.911157069939	
2320000000	-25.4507841755113	-32.5437103970084	8.09358114378253	84.1217764275768	-27.896240514581	69.1574680973816	-22.0769976682588	-170.510414778619	
2323333333.33334	-25.3970680557705	-32.5643677507552	8.08557318361666	82.9348724286364	-27.9142315945695	67.9966629066454	-22.0021254195506	-172.251605992397	
2326666666.66667	-25.3495957213879	-32.7239152673428	8.07469616048329	81.7438858606265	-27.9324286977933	66.830605629877	-21.9346671991651	-173.740489700283	
2330000000	-25.2994133738766	-32.7067684594113	8.06751106646009	80.5595601246269	-27.9386821752045	65.6041572825976	-21.876604945382	-175.314338486083	
2333333333.33334	-25.2619999977142	-32.6413484992269	8.06303529804468	79.3767035416514	-27.9548434035637	64.6060015021515	-21.8089090709093	-176.994127116927	
2336666666.66667	-25.2480721561078	-32.7434370727112	8.04861600053733	78.210420574399	-27.9677244367727	63.5900496482166	-21.7588181678873	-178.589696334807	
2340000000	-25.205261122816	-32.6091969032005	8.05062085520383	76.9816972974485	-27.9574124725535	62.4992352293574	-21.7073977381591	179.723666928167	
2343333333.33334	-25.0346699341905	-32.3391365887039	8.04029154919068	75.7888578100203	-27.9681658371998	61.456688291044	-21.6578377277295	178.129429937445	
2346666666.66667	-25.1207289902327	-32.5729508006887	8.02136281429594	74.6380274106906	-27.9543020718491	60.4508804140611	-21.5948620207161	176.511735823717	
2350000000	-25.0565184189746	-32.8192448400305	8.02576249967684	73.4147407295004	-27.9451908970497	59.3806860149102	-21.5352173488289	174.743568961383	
2353333333.33334	-24.9763424819647	-33.2036739215111	8.01798736122523	72.2325501764719	-27.9368840047293	58.3261662676237	-21.4663963320086	173.174668131089	
2356666666.66667	-24.8934028339591	-33.5319919233721	8.01138649236577	71.0470521553885	-27.9070440240009	57.2529730607326	-21.3848924506022	171.640797249885	
2360000000.00001	-24.7939530142439	-34.1806827622778	8.00312459442534	69.8589156498908	-27.8916021825856	56.2892523857889	-21.3025998029621	169.978505714333	
2363333333.33334	-24.7102661500932	-34.8610638629626	7.99515805720843	68.6609138363659	-27.8659232114634	55.108483368524	-21.2119742182836	168.451914370584	
