!Agilent N9923A: A.07.32
!Date: Thursday, 02 June 2016 02:19:10
!Model: N9923A
!Serial: MY52412257
!GPS Latitude: 
!GPS Longitude: 
!GPS TimeStamp: 0001-01-01 00:00:00Z
!GPS Seconds Since Last Read: 0
!CHECKSUM:1854060507
!Correction: S11(ON U)S21(ON U)S12(ON U)S22(ON U)
!S2P File: Measurements:S11,S21,S12,S22:
# Hz S DB R 50
1950000000	-12.0712373388129	72.663186112389	-24.8944431048757	101.361081861449	-63.7356127211428	113.891030924931	-2.56322773565449	-24.4741395012439	
1953333333.33333	-12.0290115519982	70.7709062524976	-25.06393060067	99.3881429318978	-63.7143025944093	110.220455946663	-2.53415152252984	-24.8660659511461	
1956666666.66667	-12.0297822979874	68.8593490469247	-25.3086510915051	97.3046898311899	-63.6968689691821	109.317424528172	-2.48104510179161	-25.0679186067872	
1960000000	-12.0201406465617	67.0951994147271	-25.5876604188835	96.2257197391435	-64.1459116066403	108.176998268538	-2.40779911885877	-25.3317556772352	
1963333333.33333	-12.0199733428252	65.4212969314856	-25.7060911306546	94.6851339562802	-64.5768766257761	107.41403065444	-2.34238230054121	-25.7898313656506	
1966666666.66667	-12.0503565725261	63.7538793310519	-25.8251794500692	93.1025035489166	-65.2912215888667	103.094644812232	-2.28454085809292	-26.4723273189729	
1970000000	-12.0956047764286	62.1526449467248	-26.0086607205511	92.041952278499	-66.3891820455289	98.9573772978688	-2.20584123325284	-27.2049416784566	
1973333333.33333	-12.1657585906222	60.5620813012593	-26.3590150643642	91.6706346312626	-67.0863427269527	98.7590512852512	-2.10648422533804	-27.9105287337813	
1976666666.66667	-12.2599527084918	58.9753653694396	-26.5681698376532	91.608455818689	-68.0954793544761	96.8995615843904	-2.01749652253014	-28.6295067796672	
1980000000	-12.3771348311863	57.3101389119338	-26.6439217636931	91.1428241080185	-69.8917678996002	87.0295034265956	-1.95991191184729	-29.3913409130475	
1983333333.33333	-12.5266781864439	55.5795957177178	-26.5942582550509	89.920308945242	-69.8835701792033	84.4970765246299	-1.9635016241117	-30.2111486472294	
1986666666.66667	-12.6919979890774	53.7773568932524	-26.4548017116218	87.7342639018837	-68.7408579394435	82.2192416608989	-2.01588765791814	-30.9670402150186	
1990000000	-12.8752504071772	51.8594366401889	-26.4442622311313	86.658073423789	-68.5679733377065	79.6431406357091	-2.08347635966062	-31.5416683762224	
1993333333.33333	-13.0807379768214	49.8233052307053	-26.4593013194563	85.9239194396135	-68.9218659875291	81.895134148403	-2.13504576876846	-31.9226182379136	
1996666666.66667	-13.2847688629165	47.6411362108123	-26.3498046718095	84.7860124890401	-69.0646771147487	83.9289409203645	-2.16511753316993	-32.2266664734382	
2000000000	-13.4691780808876	45.4380399099269	-26.2362266084496	82.9106019772434	-67.8280936720773	70.2123962124419	-2.18710296673097	-32.4600206733883	
2003333333.33333	-13.6929326646246	42.9060811802521	-26.2076344773111	80.7725542045517	-67.7073640076426	79.4759305979556	-2.21254105598937	-32.6410579231487	
2006666666.66667	-13.8799792275303	40.3318252895341	-26.1721607806148	78.6550027612567	-67.8838127751685	79.7215127351783	-2.23356283640708	-32.6850640618413	
2010000000	-14.0521294053405	37.668603906139	-26.1966017713385	76.9816584313947	-67.3216357380405	73.5690560831456	-2.24306034259456	-32.6649856097229	
2013333333.33333	-14.1975654602609	34.9142291981248	-26.2468749157905	75.5367493024768	-67.9932577949017	82.5869995355493	-2.25004956237644	-32.7667085204374	
2016666666.66667	-14.3225783489875	32.1331301474389	-26.1853607729232	73.6481660561881	-68.3382341792817	78.5879465419606	-2.26826670267851	-33.1336937291194	
2020000000	-14.4291093297913	29.3675423624664	-26.1228843284326	71.7925400308529	-67.7343970651973	75.6498559123002	-2.28336798364016	-33.8460495893241	
2023333333.33333	-14.5139555006044	26.68595532109	-26.0750602102967	70.2937054904125	-68.6757260066456	72.4949848427184	-2.28591200190633	-34.7466803866344	
2026666666.66666	-14.5718422921087	24.1036398359857	-26.0361671862889	68.7625472561241	-69.0047885802565	68.9987321129082	-2.2932778169766	-35.6704132442588	
2030000000	-14.6372048687338	21.5238228595057	-26.0455302975966	67.1568675209267	-69.5223750666167	69.9972445843446	-2.33615746049094	-36.5712351241101	
2033333333.33333	-14.6871817472471	19.0895006593633	-25.8942402512917	65.2514782319085	-68.6323066600622	72.5646605493031	-2.41525676564658	-37.5024108400496	
2036666666.66666	-14.7167336058585	17.0974140605507	-25.7753741136529	63.3543096520803	-68.7621410476998	72.6577381987853	-2.52836213132494	-38.4770514996398	
2040000000	-14.8198707013452	14.6455505311533	-25.684114125856	61.544522068842	-68.3272812578566	76.2728410329969	-2.654754228151	-39.404390464686	
2043333333.33333	-14.9121164850907	12.602238338313	-25.5217127439252	59.7059176356764	-67.4240994611271	70.1798641927906	-2.76794720685756	-40.1889529286292	
2046666666.66666	-15.0116675486088	10.8627965152329	-25.3743967701806	57.6281165189656	-67.8167154482921	72.4789980158175	-2.83190208280433	-40.7579678190683	
2050000000	-15.1862357109176	8.85814350001244	-25.2632912193189	55.1648858541802	-67.9382423580202	77.0560949779889	-2.84019778358953	-41.1946443850291	
2053333333.33333	-15.3824911693457	7.09314786601279	-25.1568508510848	52.2401851953864	-66.994556412045	76.8370725768718	-2.7927015013487	-41.6054916570111	
2056666666.66666	-15.6141628601534	5.37600517960649	-25.0348032943443	48.9794557402868	-67.5318107373237	76.1581826366758	-2.71119524007687	-42.037197846835	
2060000000	-15.8920127129315	3.72196233258485	-24.9328077878077	45.0932782892307	-67.7761409707179	75.5817771353833	-2.62097000973429	-42.4705240361825	
2063333333.33333	-16.2193202062933	2.00122166223295	-24.8916943414984	41.9171999729662	-68.9603832674105	74.7522920951378	-2.537421106907	-42.9806612276604	
2066666666.66666	-16.5773798958596	0.244602454260064	-24.8871662191746	39.2869091971956	-68.2914867443979	70.0697488515908	-2.475407334642	-43.5545953147477	
2070000000	-16.9825825711422	-1.59682944173235	-24.8290682626796	36.3437479190027	-67.1659067836785	76.8743308634681	-2.42621482513242	-44.2366981282646	
2073333333.33333	-17.410291611699	-3.36546492301886	-24.8592266937826	34.2951423655843	-68.3252513009756	82.0607391068294	-2.37383701650407	-45.0956284385678	
2076666666.66666	-17.9013439961422	-5.70911186516852	-24.9647571519173	33.1607279012235	-67.596411032313	70.6812789041783	-2.32366395611351	-46.0734359320193	
2080000000	-18.3879445420537	-8.0251680821845	-24.8981697150306	30.6986471166809	-67.2953700458759	61.4526102297103	-2.29346052280156	-47.0198605387573	
2083333333.33333	-18.886045316716	-10.5511155176302	-24.8695004669833	27.5437115333222	-68.0220469538588	58.505314976439	-2.30501518025173	-47.9150773638493	
2086666666.66666	-19.3912097560037	-13.3465784543068	-24.874336108728	25.7362872373707	-67.6357209596158	61.4050000617626	-2.34793541543929	-48.7264453151985	
2090000000	-19.889910908571	-15.6055817503812	-24.8623536093423	24.6209363285425	-66.7904814686738	53.9286951307173	-2.41808877385673	-49.419700827997	
2093333333.33333	-20.3970047524937	-19.4238308663211	-24.8821628019973	22.4105717427136	-66.2775675315463	51.2001380625374	-2.49219582080735	-50.0344030144892	
2096666666.66666	-20.8908682002037	-22.6027911594903	-24.804927759009	20.6139081376495	-66.1127324520801	55.5332144090096	-2.56175368814062	-50.5249067717472	
2100000000	-21.3876513005426	-25.1730197384792	-24.7957308553524	19.7610069895005	-65.6506017042236	57.5953051227097	-2.61712084373492	-50.9452368278445	
2103333333.33333	-21.8161529156062	-29.0576589265887	-24.7907788966504	17.6961096428317	-65.5829420828474	54.0842410124173	-2.65781935636739	-51.2930066789043	
2106666666.66666	-22.2565173358614	-32.0522105628382	-24.7881913481341	14.8066761472349	-66.1687107081787	50.2262930200803	-2.67677308245764	-51.4529830896089	
2110000000	-22.7091952300053	-34.3564191175301	-24.8463378142331	12.7237528770566	-66.4045397013226	52.8235765047032	-2.65416114468144	-51.4164323285185	
2113333333.33333	-23.1308877838948	-37.0236087439747	-24.9316257201466	10.7563202737007	-65.6421873164094	50.983746478374	-2.59871049621293	-51.3554297735172	
2116666666.66666	-23.6005717861452	-38.8921947566078	-24.9662272917604	8.09376904025271	-66.6265633549424	48.5590366868809	-2.5282824445831	-51.4318316305808	
2120000000	-24.1478865063089	-40.2002763506684	-25.0252490479989	6.17982650673788	-66.69807092921	50.799901021837	-2.47149199901369	-51.6837836801386	
2123333333.33333	-24.7057262038748	-41.035254677727	-25.0640750974761	4.54110578687931	-65.9511691432998	42.5567122695945	-2.44139903855752	-52.1195177945882	
2126666666.66666	-25.3402559253564	-41.158446924407	-25.1212642583934	1.97748240054272	-66.5393465002917	46.4872140753655	-2.43274514546401	-52.7311179907013	
2130000000	-26.0282216125922	-40.7576464731623	-25.1772712614639	-0.622909793933809	-66.5017965306603	38.0232320092635	-2.45892030464154	-53.4983688278013	
2133333333.33333	-26.7804838070894	-39.8241887506521	-25.2054000645987	-2.79419195762074	-67.2146731396365	32.7321180019861	-2.52194429382449	-54.3594368587959	
2136666666.66666	-27.6374606204398	-38.0735517027158	-25.2455504078542	-3.88916737176761	-67.5963379736005	32.7930785489926	-2.6329937554543	-55.2898600076723	
2140000000	-28.5710718057102	-35.6779851566756	-25.2428765212157	-4.37498299139652	-66.4238568095059	20.2200016741583	-2.80002407407625	-56.1857288754602	
2143333333.33333	-29.6070813137019	-32.5627670773407	-25.1800973920795	-5.45845703415983	-65.8956031292157	19.6576833358239	-2.99697909396606	-57.0168159514587	
2146666666.66666	-30.848495731843	-26.982371026872	-25.1070082173908	-7.46369998332368	-65.1082860684244	17.1928422865004	-3.19294036240355	-57.7147225040849	
2150000000	-32.1545593342943	-22.0658263739836	-25.0704292944951	-9.39685548148078	-64.5749145897254	13.2985640455524	-3.36155175155346	-58.2770414471397	
2153333333.33333	-33.6572592795448	-12.9281824478334	-25.0721714038694	-11.162767647042	-63.6999060582495	10.3310004477508	-3.48320258334048	-58.8467869475162	
2156666666.66666	-35.2254719384862	-0.978296909065769	-25.0906524352268	-12.5540067330598	-64.3306912822996	11.12956892551	-3.56163962190473	-59.4352860634485	
2160000000	-36.3648811992755	16.071906776843	-25.1244594694179	-14.4494673997674	-64.9015086949567	6.44949161981822	-3.5901099443617	-59.8762425837528	
2163333333.33333	-36.7871191868603	36.0139404054992	-25.1873488587009	-16.783304942792	-63.9177337946106	10.9497940704704	-3.53746481377552	-60.1214892403178	
2166666666.66666	-36.2963219403635	55.1183181309516	-25.2720661108444	-19.4762512400327	-64.0290753658431	11.3083142171016	-3.39822243016638	-60.4075020926095	
2170000000	-35.1977644791349	70.2442305435285	-25.3653042547856	-22.3568275275085	-63.8143233969855	11.365249542621	-3.19508946008665	-60.9933953068642	
2173333333.33333	-33.9963343876509	81.279221057982	-25.4323071877718	-24.3581800682985	-63.9273935063014	13.4846967658518	-3.01216915966994	-61.9169492003952	
2176666666.66666	-32.8774909214313	89.2841456261586	-25.5092284630796	-26.0331256681049	-63.0502633034173	15.5572573073511	-2.8922246685041	-62.8566294472658	
2180000000	-31.9363817109285	94.8850167604054	-25.5483187834373	-28.7987256789653	-63.7223525841898	15.0394728943248	-2.81164812557712	-63.8063877887454	
2183333333.33333	-30.8681008482812	97.8778716028711	-25.5870083647969	-32.0292721043997	-63.4715094459234	13.289663751749	-2.76813508659735	-64.8016481276831	
2186666666.66666	-30.5882910759959	102.334973266686	-25.6459728538209	-34.4032777107019	-64.4788417172836	3.29446221421362	-2.76220451738903	-65.8140609080852	
2190000000	-30.1544694614566	104.510350840924	-25.6068313205356	-36.3679429610289	-64.2027570973955	0.692043014556037	-2.80547198938947	-66.8310906630908	
2193333333.33333	-29.1841583932533	102.236127864735	-25.5874519592173	-38.5734239285967	-63.4143749329437	0.625084872546832	-2.91055369216026	-67.7329340780866	
2196666666.66666	-29.5418940954599	106.661313482226	-25.6575218938768	-40.3680289356751	-64.2821168809599	-4.10604463633663	-3.05478046143306	-68.4262447290934	
2200000000	-29.3109522581434	106.381327485803	-25.584523089055	-42.1511081717855	-63.0815386942052	-4.45520216182908	-3.2058645772899	-68.9299929799286	
2203333333.33333	-28.9145732819609	104.158268634737	-25.5786782567374	-43.6639919615641	-62.6149266798901	-7.17589293624981	-3.34801499050719	-69.2981808707889	
2206666666.66666	-29.0534662070682	104.772273609021	-25.5960595797304	-45.0010437484039	-61.9984846064774	-12.6308208268357	-3.45803243829701	-69.5776284941328	
2210000000	-28.9342069840141	102.762244893284	-25.6170069595738	-45.942525566042	-61.7883678941818	-11.2360867329727	-3.53590566494092	-69.7659652729507	
2213333333.33333	-28.7657391265592	100.518721930184	-25.6495069735312	-47.5046217786613	-62.2532042982041	-13.6922944051053	-3.55576639427668	-69.7475408359359	
2216666666.66667	-28.5599961656633	97.4484315581611	-25.7321153375146	-49.8589898268481	-61.6354719955269	-14.7721218153169	-3.48435675589074	-69.6058814391335	
2220000000	-28.2193351245007	94.1387067088253	-25.8288650749303	-51.7409026587067	-61.5539124074395	-16.8895916077108	-3.33305086404786	-69.6072793116376	
2223333333.33333	-27.8234861126972	90.7535486995097	-25.9165430936	-53.2376590592896	-62.0831624607888	-15.6437241132484	-3.14425799086269	-69.8628961373503	
2226666666.66667	-27.3350502289142	87.2245193431931	-25.9738770564183	-55.476931718653	-61.5797430781656	-19.8323787274872	-2.97977004754223	-70.3052661602338	
2230000000	-26.7527556520596	84.2537950990113	-26.028767424103	-57.9980439769522	-61.7396076265884	-13.618288322983	-2.86707620257714	-70.8521196259901	
2233333333.33333	-26.138327810995	81.4117147737576	-26.0756686463101	-60.4534182823338	-62.0952526020113	-15.881885093439	-2.8077286009181	-71.4596724127302	
2236666666.66667	-25.4278099713516	78.8715251437926	-26.1147199938286	-63.1671753027445	-62.0348089683527	-17.8146835143086	-2.78370608232607	-72.0573399759795	
2240000000	-24.8074069442187	77.1961202483683	-26.2255698714373	-65.4539488922401	-62.6072493701175	-21.7909746958854	-2.78736028038034	-72.6401566214306	
2243333333.33333	-24.1861292374127	75.7363961859189	-26.1670271679243	-67.9294896711582	-62.5248868183144	-24.1290154376379	-2.84272117229317	-73.204495252199	
2246666666.66667	-23.1097319295297	72.899827991822	-26.1931154732691	-69.6477671720516	-62.5941986963259	-28.1621162486992	-2.9531897503512	-73.6907590877217	
2250000000	-23.0121671325829	73.7674859969459	-26.2502423744343	-71.1010173712027	-62.6181933506555	-33.4668508385553	-3.09812872484503	-74.0125736176384	
2253333333.33333	-22.5121438034136	73.1869026485509	-26.2174865249327	-72.708800968003	-62.4262593560542	-30.9868289414522	-3.26022136174994	-74.2813186213444	
2256666666.66667	-22.076904206427	72.735218198855	-26.2621433081202	-73.2530925911406	-62.3300623815209	-34.9722192401675	-3.43508531358854	-74.5882816745487	
2260000000	-21.7031218680477	72.4312985715992	-26.3385867060206	-73.1886720476891	-62.4358565404146	-42.0644284469488	-3.58106229605581	-74.9761820578887	
2263333333.33333	-21.4217196358734	72.2129609618219	-26.4030523345739	-72.5284968535634	-62.5083957009568	-40.6676393961991	-3.66456745572895	-75.4998629144603	
2266666666.66667	-21.1990820701941	72.1085540404062	-26.4101004179177	-71.5797547957062	-62.4064756237027	-46.3192528498842	-3.65854683468292	-76.160329048894	
2270000000	-21.0319735200444	71.8738816896119	-26.3887662431229	-71.4353695259262	-62.8094603279548	-43.1037693580362	-3.56148426187131	-76.9343579245824	
2273333333.33333	-20.9117096733451	71.5760800066573	-26.4067240118994	-72.4528814877579	-62.1451329468563	-43.2100389651062	-3.39018032522838	-77.8020682194698	
2276666666.66667	-20.8458786448819	71.0522410983784	-26.4337716359903	-73.2793374170476	-61.7061266004904	-42.5534872901014	-3.17783575601688	-78.8393600982669	
2280000000	-20.8184670430959	70.360657016834	-26.392824434333	-73.4209143136276	-61.3548254345921	-45.1026911007093	-2.9801218842594	-80.0707155704398	
2283333333.33333	-20.6375999139878	68.474559450829	-26.3008906748548	-74.509965525445	-61.2964086816396	-45.4421330805716	-2.82312694920875	-81.3985820555146	
2286666666.66667	-20.9123651141321	68.319163432953	-26.2672074843465	-76.7865876674835	-61.6534185345124	-46.8723212619792	-2.69915121016388	-82.7101917859915	
2290000000	-21.0102038486821	67.0594530383044	-26.2233315517285	-79.5531115322839	-62.2431682695614	-56.9463911670967	-2.59705032655877	-83.967674008512	
2293333333.33334	-21.1233431493283	65.5551068223709	-26.2044132693741	-81.2690728378694	-62.9910123654185	-52.6234018713966	-2.53750230370174	-85.2446148384217	
2296666666.66667	-21.2554220005792	63.9062609110971	-26.0833164348943	-82.5354737752296	-62.9789892143009	-50.7501168224076	-2.5548344109092	-86.5989775537325	
2300000000	-21.3547462547872	61.9310471174243	-25.9369421925338	-84.8719845594507	-62.1862495891767	-58.5297457898626	-2.65518981757571	-87.9422170497675	
2303333333.33334	-21.4195330705251	59.773125027105	-25.8427372390122	-88.1544152117321	-62.0689749743832	-58.8452326007657	-2.82789335016599	-89.1883615541922	
2306666666.66667	-21.4241913012639	57.295056076918	-25.7606977666536	-91.861534994606	-62.185998302243	-61.2890193546091	-3.04744270632645	-90.2146599748472	
2310000000	-21.1112081689799	53.5410689905185	-25.7375644263457	-94.1284986801151	-61.8883761505351	-66.4489847287213	-3.25491532200545	-90.9949397532666	
2313333333.33334	-21.2096233372067	51.8164703209697	-25.7382285383442	-93.8621347071944	-61.5771804868994	-67.5274496331796	-3.39367976054543	-91.7364290364346	
2316666666.66667	-20.9944423001403	49.0277977414961	-25.5421598761045	-95.9258272866031	-61.5416017330662	-71.9722395634862	-3.45774006763886	-92.3439680006683	
2320000000	-20.6654622228879	46.1561540813247	-25.4909772265648	-98.6523843075894	-62.371721723402	-76.3349399215327	-3.4344383512311	-92.5507788888585	
2323333333.33334	-20.3925343999455	43.7415234987415	-25.5401150475097	-101.480281584756	-61.9548574237461	-74.3998921603479	-3.32598430722159	-92.4500900821388	
2326666666.66667	-20.0230690178541	41.4029078907798	-25.5934625291087	-103.704529312448	-61.7636600191156	-79.4794883128016	-3.13282701453963	-92.3801644874907	
2330000000	-19.6231122271685	39.1685952791998	-25.5682211917618	-104.239952773673	-61.958271375658	-76.8689977945955	-2.94137306521124	-92.7245651432585	
2333333333.33334	-19.3028638471956	37.4764808255016	-25.4564925864271	-106.118242695142	-61.7780774991742	-79.6563255926657	-2.82140031676258	-93.1529761406489	
2336666666.66667	-18.9754297613168	35.988914368714	-25.3694376043506	-109.349960387189	-62.2131111590491	-78.6649890854986	-2.75477154907752	-93.57474925166	
2340000000	-18.6915425744524	34.7119135143612	-25.3170531254412	-113.229299976228	-63.4778249565931	-84.2034437099135	-2.70700126934744	-94.0122543637626	
2343333333.33334	-18.4475319457561	33.6779055766819	-25.2936132397902	-116.898894602023	-64.4280752564775	-85.5394296699162	-2.66207886842292	-94.5002017506459	
2346666666.66667	-18.2519037478627	32.7506309544278	-25.2831283248374	-119.042288971506	-65.2488847211109	-90.1725452023728	-2.652755399661	-95.2550404968766	
2350000000	-18.1255899351121	31.9656024817584	-25.1302921786934	-120.596130561794	-64.0746438846838	-85.970093039383	-2.74265928370934	-96.2902688690489	
2353333333.33334	-18.0299418617602	31.2958738651259	-24.9207139329395	-123.57394508196	-63.7614385363699	-89.5699227599101	-2.92980914537757	-97.3969913537434	
2356666666.66667	-17.9928327226923	30.6049509439631	-24.7098578170528	-126.953858240416	-61.7709070765758	-93.5098346617046	-3.18977023189294	-98.4391823720079	
2360000000.00001	-17.9847597088205	29.9006034892554	-24.5458369463098	-130.451855724463	-61.5953743569342	-95.5826508417116	-3.47891998991381	-99.2521932248582	
