!Agilent N9923A: A.07.32
!Date: Tuesday, 12 January 2016 00:57:21
!Model: N9923A
!Serial: MY52412257
!GPS Latitude: 
!GPS Longitude: 
!GPS TimeStamp: 0001-01-01 00:00:00Z
!GPS Seconds Since Last Read: 0
!CHECKSUM:0939941957
!Correction: S11(ON Q)S21(ON Q)S12(ON Q)S22(ON Q)
!S2P File: Measurements:S11,S21,S12,S22:
# Hz S DB R 50
2000000	-36.0906093990704	164.917906554878	0.0771365953809401	-5.62405575229125	0.0553893926000723	-5.61498917555562	-36.9862162701047	160.448323049179	
31990000	-31.9384669076695	-98.7524587287113	-0.0509339050796036	-84.3574918074356	-0.0717522161112642	-84.3663020587085	-31.223518899785	-109.170715607928	
61980000	-43.3603449971806	126.693621684487	-0.116801910846831	-162.731308030786	-0.139522843551654	-162.764776736404	-39.0010070890894	64.9455703659954	
91970000	-31.7660723181441	-52.2990681793653	-0.159527409912757	118.987979428421	-0.182166049981833	118.920151878162	-29.897305226048	-69.390002949933	
121960000	-34.773708310675	87.3814769625864	-0.206344211128575	40.7903283210057	-0.22979038135279	40.7119284623892	-31.5597238094824	85.2085952805859	
151950000	-34.2466312507239	22.2975962855414	-0.240677681046744	-37.3989999795013	-0.262192568396972	-37.5553800151799	-34.7463794240352	-10.9694997359376	
181940000	-33.6481657461883	141.194395668316	-0.278395402195253	-115.610309312155	-0.301457813262981	-115.76270571211	-30.712351676067	131.952410300122	
211930000	-32.9313033974067	92.8925276346903	-0.303684370258843	166.201002339986	-0.327650596507755	166.096446675096	-35.8793312404227	69.4947956476524	
241920000	-32.1018997491704	-132.645155326786	-0.324629423238374	88.0018208242738	-0.347753463482411	87.8892967034348	-31.7407509719331	-153.484285525816	
271910000	-34.2389742779062	108.415371292839	-0.355871670683658	9.91130328323384	-0.381082900213303	9.76928292934212	-34.0325949071145	76.2217669085933	
301900000	-29.5320985304397	-69.5421285696692	-0.365448410007143	-68.2322811553271	-0.389078489544461	-68.4089707414758	-31.1588560015132	-82.2418221993155	
331890000	-35.116101434354	99.0691950596665	-0.397131113213468	-146.314598518771	-0.420784929419024	-146.490409806892	-30.3617556189046	79.4121020966148	
361880000	-30.7095706179201	-5.21795174627232	-0.406296704903897	135.572136671971	-0.428953931229035	135.394787210057	-32.1424809343273	-11.1722462748243	
391870000	-35.8559663618002	131.911978649169	-0.436385223950513	57.4468206945091	-0.457567584633704	57.2193330106375	-30.0158848844801	113.035156877203	
421860000	-30.8710676957857	62.3969854481603	-0.454990840375228	-20.6425393776603	-0.474485536734167	-20.8319033437836	-31.293140951587	51.7930949527705	
451850000	-34.4216638489532	-133.953632927693	-0.464818323445698	-98.8213700619352	-0.492585977575732	-99.0097191992318	-33.046770870373	-173.504934640572	
481840000	-31.8517866724546	96.8059536053792	-0.48885234560756	-176.858514203023	-0.514088607625972	-177.080013777931	-30.5005008095151	72.1422621305828	
511830000	-29.9346323482326	-71.0780066838287	-0.485022993961936	105.058696656245	-0.511471185248954	104.747439166833	-30.7818141927104	-89.4028594180234	
541820000	-33.9211680304519	92.1846845926421	-0.510636297298553	27.0299943229956	-0.538132116583761	26.6278637489798	-29.1250900698792	77.4655338515434	
571810000	-28.8540145612948	-13.7413654366181	-0.511354042254573	-51.0012072108793	-0.535780946844705	-51.4888792584996	-30.5213062946557	-25.7814013231477	
601800000	-36.0534055982628	99.3341727258465	-0.533064358167101	-129.083424460108	-0.560347690016425	-129.591191389997	-29.1513875866287	95.941714545815	
631790000	-28.937473723221	44.772392389673	-0.543228446533672	152.830239943237	-0.573395015814716	152.368000577352	-30.9881928767511	37.5305085946423	
661780000	-39.6489011959641	-151.582367820749	-0.557329300784451	74.684297431945	-0.589328219130675	74.2708035601023	-33.4225336884543	148.559262328246	
691770000	-29.5807042594383	85.3953644450337	-0.574007292010824	-3.38083489238692	-0.604054607804659	-3.7849445481463	-30.3442305833252	75.8859674014074	
721760000	-29.9514125635545	-75.160752188418	-0.571134301955953	-81.4674242162704	-0.604672630062191	-81.8789937584303	-35.3914463873228	-102.460945980801	
751750000	-33.1136588455378	98.109183986346	-0.594502883019558	-159.467724320486	-0.62099108273231	-159.982906944693	-30.2656699387676	72.6869330231912	
781740000	-27.9531316201248	-29.3207812828974	-0.591149699212143	122.49252830165	-0.613454332486538	121.908693607304	-31.7630429422396	-32.8557805686086	
811730000	-38.3143160238815	91.5655637715529	-0.612337422993366	44.3401932461729	-0.633621576570813	43.9797010130962	-29.1188784782497	79.2675483876059	
841720000	-29.2006090510291	24.613194953046	-0.61908452253591	-33.7275488739727	-0.641148785563583	-34.0846862080697	-31.5190996027337	24.6034684492339	
871710000	-47.5250557014772	-118.59848248764	-0.635376418161303	-111.856319305436	-0.661548884858012	-112.158862311126	-32.9865869812292	104.668487161442	
901700000	-30.9046898294032	79.4130836101265	-0.648723719012358	170.13802840427	-0.670729957211715	169.734218100013	-32.325139182209	63.2769972918773	
931690000	-30.6623847194042	-67.2728287543275	-0.655892937566558	92.0440973126716	-0.676091626248309	91.6332684274687	-42.2620645446471	-77.633887611951	
961680000	-35.9152476207189	102.351457853941	-0.668574065853309	14.0299589008135	-0.692024150673198	13.5735164250669	-32.4566808700393	59.9861073604503	
991670000	-27.2107487788993	-35.9748531219046	-0.664498285802438	-64.0122255231814	-0.687133033412171	-64.495403190788	-31.2252158137066	-31.9924381722456	
1021660000	-40.5403741177365	75.5667325661268	-0.681715531718836	-142.047949511539	-0.706637835952459	-142.560141106752	-29.1932035100765	64.3938395042031	
1051650000	-28.5358563580532	9.93744656466583	-0.68144915073737	139.899119600617	-0.704875447428189	139.358160522368	-30.8145121042243	6.41067026729247	
1081640000	-46.5259802010021	35.4413692050836	-0.69650310019249	61.8238020760609	-0.720855603717318	61.2732416042823	-31.3275097115078	88.8721818501584	
1111630000	-31.8640271593103	59.5949834366728	-0.706732997363591	-16.2198877897865	-0.729564446855949	-16.7944932029436	-35.9020982816062	53.1443063128149	
1141620000	-33.5571802859814	-72.7428989756548	-0.715532749316242	-94.3321583925951	-0.742774802623496	-94.8767706333303	-48.9176459486502	139.458241271076	
1171610000	-37.1577251746081	107.54595242471	-0.72555968766752	-172.408061922008	-0.749875992975879	-172.896607313022	-38.0934670143878	44.4387208183442	
1201600000	-27.6744853412659	-45.6523396358835	-0.726037769482683	109.510892267647	-0.74704284091474	109.072234350109	-33.0117642938764	-40.8585473537659	
1231590000	-50.2699470079762	35.0006433364822	-0.734102779363077	31.4684228694432	-0.759287977224813	31.0047433031259	-31.2086328280507	40.1118539785752	
1261580000	-28.0844944591218	-11.3513835341233	-0.734275404079947	-46.5688512982265	-0.756781802224917	-47.0315383041603	-31.231143217867	-7.02058643117514	
1291570000	-41.1721197672544	-7.47393473900096	-0.746467780290141	-124.618238364059	-0.770904450876829	-125.120161653285	-29.918246247997	62.6212821095471	
1321560000	-33.4733741882362	41.9456445057397	-0.751737091579987	157.357005198895	-0.777336864822104	156.79957745762	-37.2951613659402	23.8767355069208	
1351550000	-36.2497815949574	-54.1647509091066	-0.766868825593112	79.3133100976791	-0.792353209127513	78.7202686369162	-39.3154601020612	81.8180513896945	
1381540000	-40.8190272577553	123.21017893906	-0.77554301222732	1.29045712841703	-0.799605786874333	0.641744488433999	-47.0784645829165	-8.49731588220898	
1411530000	-29.0983413568882	-50.8163823054872	-0.781289735471119	-76.7783896033453	-0.806300836383873	-77.3692956494008	-34.9182719076535	-42.2255770921009	
1441520000	-46.9901945857143	-74.7707474568955	-0.788675977665962	-154.808461036433	-0.812259015186781	-155.4652466598	-34.2863576636549	10.1022781828857	
1471510000	-28.4595414267521	-26.0696230948528	-0.785865303421048	127.173639316535	-0.813427127532814	126.453257538631	-30.6244052417827	-26.0364086656838	
1501500000	-38.4948352841891	-5.02670315888997	-0.793298426724517	49.1732725860844	-0.821696687820071	48.3705882891724	-30.8911741776473	48.5538053741582	
1531490000	-34.4335526144477	0.748199786771344	-0.802082212055492	-28.8610318906497	-0.825157637936843	-29.7347835664531	-37.3824120825435	-21.0485215043529	
1561480000	-42.902722336451	-35.5695852868413	-0.811029665871568	-106.906959228409	-0.834878863398649	-107.810212432827	-34.0653898052477	88.2382764013236	
1591470000	-45.7068179739656	-168.169225853155	-0.820298747421241	175.0581228169	-0.84508378754311	174.142151407039	-38.1595359566832	-82.270298061525	
1621460000	-31.6573356320385	-59.876671152373	-0.82911881873184	97.1263063138416	-0.850923258729317	96.0599610788381	-40.7019834972569	-59.2287434366462	
1651450000	-36.5087111783083	-93.1553843399092	-0.835004786092869	18.9664862524657	-0.855371464410903	18.0267520302973	-33.0294895438558	-46.3259728593561	
1681440000	-28.1462647237059	-39.3801467805802	-0.835504568195289	-59.0646144399142	-0.86105821199048	-60.0399478304902	-31.0970486091078	-37.0179916617612	
1711430000	-36.3709593401173	-31.0146011289328	-0.842158195743678	-137.076926219892	-0.86520200631241	-138.074574802333	-31.3394792735202	22.310820510818	
1741420000	-32.456832874776	-14.251611419337	-0.847388734494845	144.874100166281	-0.866273739834763	143.879887468902	-33.8461290615045	-29.9058937494432	
1771410000	-42.184439159458	19.4724498199165	-0.847847306651108	66.7986397470183	-0.87373343037603	65.8641232571931	-32.2932380284027	83.8149550518525	
1801400000	-48.7041023954525	-140.646034899169	-0.858758775288108	-11.2685259263036	-0.88183844146024	-12.1096087133319	-35.5805804014411	-85.8382547707234	
1831390000	-38.720775170359	-77.1796436433076	-0.863176276562608	-89.3402027898384	-0.889396203445563	-90.1982048543224	-42.2128884290916	-165.078822865574	
1861380000	-33.7244555009726	-109.585679579803	-0.872071534186782	-167.386109615507	-0.89878670274949	-168.209418177641	-30.5166802675501	-74.5432782740637	
1891370000	-30.4807494114258	-58.3213511112574	-0.876381502538107	114.523379382244	-0.898601706694009	113.753312415634	-32.1738710372836	-64.3588558008335	
1921360000	-34.2528132992143	-59.1260837949801	-0.882369622968884	36.5313485617077	-0.907550324393956	35.6881242205817	-30.620851295332	-14.1116178551031	
1951350000	-32.095472998111	-35.9440190788717	-0.883299344802759	-41.5469997544725	-0.908947810248775	-42.347166088602	-30.9234301799238	-43.9758560810662	
1981340000	-38.2120375230146	18.3547812513511	-0.892873455270691	-119.577264353347	-0.916268758900062	-120.355952507416	-32.4651027796807	61.7720132347306	
2011330000	-47.0369135739901	-78.9427923451109	-0.897856720023373	162.392252995476	-0.922905610185696	161.594356032834	-34.4383856916453	-72.1050815727679	
2041320000	-58.5505445000624	57.0752500129446	-0.901747006360588	84.3526771837535	-0.923725990024539	83.5707517965703	-38.6470190052923	150.094511426307	
2071310000	-32.6649831819966	-120.056177483301	-0.9095875339794	6.32064535534066	-0.933081001211653	5.56257374966633	-29.1673740583598	-87.2647219492516	
2101300000	-35.3802098899825	-81.0228114300852	-0.915415028900389	-71.7123156946901	-0.940975180733751	-72.4199407958558	-32.8326193564283	-88.8827491291917	
2131290000	-32.8027413469683	-76.7085765118527	-0.924845197329691	-149.778044874139	-0.951148549180471	-150.494750368399	-29.7639487070338	-46.8538108774419	
2161280000	-33.3194942118074	-49.2142411454717	-0.925265397972662	132.181212410058	-0.956638871014015	131.451443112275	-29.4277108223729	-53.7465109414661	
2191270000	-36.6373595510697	10.7994494959568	-0.927989692300773	54.1505799816521	-0.950374125780842	53.3926000152484	-34.548181995936	35.9668535542871	
2221260000	-43.0256006937984	-37.3724251034376	-0.938396920099293	-23.8085416633041	-0.962684017668217	-24.7653252280346	-33.35609482846	-54.9964383723742	
2251250000	-37.3486511327041	93.6830398948408	-0.938690677518703	-101.848528115688	-0.964994689646693	-102.757138640524	-35.8817006102662	140.343664680783	
2281240000	-35.3665153115389	-130.842897319631	-0.946470792007084	-179.94601901454	-0.971712908414112	179.24876962028	-29.9993982733729	-95.080955308896	
2311230000	-41.9599389524753	-135.255877678078	-0.954778829567185	102.069111051468	-0.975941726510802	101.217100855738	-32.3920101375577	-114.587071733773	
2341220000	-32.0288204747514	-88.471746929678	-0.969570548901883	23.9972266343024	-0.985996816572904	23.1927616825131	-28.2351291718554	-70.9652844594497	
2371210000	-35.3696354216148	-60.3356530483832	-0.971783708011289	-54.0414536338299	-0.99172027546268	-54.8136178416851	-28.8041003596045	-61.701446063599	
2401200000	-33.9629295513832	-10.5843274690429	-0.970175337540403	-132.163542638249	-0.999050730958446	-132.785698842168	-32.809314185973	-13.9248446238459	
2431190000	-39.0318033940991	-27.6655130590446	-0.978230521024956	149.734930022898	-0.996276850016896	149.176997024488	-31.0457006369263	-46.6045297431452	
2461180000	-33.7457342439354	75.5313910828699	-0.969084553904779	71.7143525836557	-0.992060737350154	71.2340941193362	-36.1600170245226	111.241594179805	
2491170000	-39.2611696325579	-155.049798073134	-0.974130939646123	-6.35989119646006	-0.992944969039747	-6.76430496758576	-32.1818209146579	-92.7621476932972	
2521160000	-37.2373065350536	148.048783672343	-0.979133025801239	-84.384749395498	-0.993872004010385	-84.7462171096356	-33.2906252423425	-146.399606563372	
2551150000	-31.6327750517145	-113.640300174073	-0.981465841024145	-162.43263609477	-1.00386280155407	-162.787494526951	-27.1201899441375	-84.9487105106921	
2581140000	-37.6721852863309	-95.3713090830385	-0.99353886019438	119.580210812168	-1.01142067585447	119.152077742613	-29.1049233240728	-78.3955384201293	
2611130000	-33.2402653707289	-45.0646915117662	-1.00221705703377	41.5070391937441	-1.01669065123975	41.0993830506256	-29.2833820424907	-46.8018446708496	
2641120000	-37.783758229229	-22.7727702014494	-1.00816269338029	-36.557680117261	-1.02452705968173	-36.9377566379807	-29.1885352059676	-38.156601055285	
2671110000	-31.9263830238028	46.9118071094407	-1.01007332424445	-114.464477945494	-1.02231461712403	-115.026946212056	-39.2475927286695	31.8279308696883	
2701100000	-43.691742597259	128.912402869226	-1.01353163899526	167.511566023354	-1.03344257380361	166.948165849943	-35.1642577317798	-53.1922138242196	
2731090000	-31.4333696419821	105.732542058739	-1.01389038365063	89.5092174573924	-1.0317578739782	88.9190444450707	-34.3432111848754	-158.086551200991	
2761080000	-34.540533893002	-140.061662416617	-1.02167125212538	11.5448185349013	-1.03675654080647	10.9403724252779	-28.8303672792728	-93.9937930348072	
2791070000	-37.5392471146935	178.880390846003	-1.03093587108037	-66.3885544046209	-1.04918006134523	-67.1645864225349	-29.0386653901214	-97.596973462775	
2821060000	-33.1263915420746	-70.9295675218807	-1.04758843050439	-144.274510962023	-1.06712674997308	-145.271866419354	-27.0063123349396	-63.7132954387855	
2851050000	-42.3725181002868	-74.0433991497346	-1.06021616360774	137.756214292972	-1.07877060293125	136.506294251087	-28.0101523123288	-53.6818265276489	
2881040000	-31.323102204059	14.5154264297181	-1.06609917941951	59.7977561641566	-1.08786855952992	58.4105864570157	-31.783475035511	-25.1164596591641	
2911030000	-43.9158455376178	48.2095299667445	-1.06913140618053	-18.2264640999415	-1.09115674562543	-19.6090052855511	-32.9887421801042	-38.0361578677719	
2941020000	-30.5672168222289	72.0387833413095	-1.06647652412963	-96.3146938055799	-1.08605418751821	-97.5653901489682	-52.7264071948455	-160.221378175991	
2971010000	-38.5774205893189	-177.348821373383	-1.06639891528903	-174.354007554304	-1.08206216669923	-175.498014423626	-31.7701792898485	-90.9356097430581	
3001000000	-33.7496363438482	123.412246261142	-1.06498156944291	107.583537350374	-1.0863801606588	106.444353445692	-31.1308094766208	-105.419473259522	
3030990000	-37.2989832198597	-87.6085672428786	-1.07146197205276	29.5628887556593	-1.08770104676382	28.3682372003548	-27.2506695065734	-79.0388012052763	
3060980000	-48.327222229903	178.228132389476	-1.08100741093321	-48.4579178025835	-1.10190566896055	-49.6880370560256	-28.3456529236512	-61.5719034356858	
3090970000	-31.3416894478151	-0.181098192560505	-1.09836610432727	-126.507400326884	-1.1111170615337	-127.795256493552	-28.5152347495181	-42.7036741345687	
3120960000	-44.6978535184626	52.9458802268554	-1.10483331909395	155.453016382623	-1.12328703157774	154.144105382118	-30.9075018845967	-33.7778163553673	
3150950000	-28.9221881073547	51.352274273143	-1.10422873186092	77.4568502371893	-1.12286002539126	76.0649556129462	-37.7028349388061	-12.6843974861699	
3180940000	-39.1011554761393	140.744765548601	-1.10440880736191	-0.524022625377092	-1.12433460730156	-1.95309610806637	-34.1136267473704	-74.8210769284748	
3210930000	-31.2177585792005	94.0099653582308	-1.1064359904177	-79.0214437734021	-1.12206617731971	-79.9436317601729	-35.0271307817619	-97.9904629587935	
3240920000	-36.6700378994621	-120.758722456206	-1.10192191094572	-156.443395311279	-1.11924180256625	-157.919050526297	-27.1450319883993	-80.8524287745894	
3270910000	-39.7844188562784	134.183756570652	-1.09892394925863	125.587836376998	-1.12568023590405	124.092780844118	-29.2914366454072	-69.6398872079293	
3300900000	-31.0527527339724	-28.4136280165055	-1.11151035982263	47.5021478603393	-1.14882586861163	46.0585635957762	-25.6993831003196	-50.2185910920789	
3330890000	-52.9275024235165	3.89956859160065	-1.12837430618719	-30.5559222738772	-1.14796637762211	-31.9786820145667	-29.4865607731933	-39.3652381442427	
3360880000	-27.5406858775099	24.8069205383893	-1.13802541868629	-108.624866937056	-1.1535413452516	-109.956060816104	-29.2155781335269	-18.8427105625828	
3390870000	-45.1884526456729	111.135390128451	-1.12545781105977	173.448899905878	-1.16280901036899	171.975413300191	-33.6808547795011	-50.8502124823753	
3420860000	-28.3989191787486	68.9657692778923	-1.13335802826373	95.2919118561843	-1.1663466384671	94.0155003048786	-38.7549971516157	-57.820967157566	
3450850000	-40.938221787464	-173.522232929877	-1.13761613181938	17.2751026521079	-1.15513198046423	16.0704085722242	-29.4174528764483	-82.8628863998768	
3480840000	-32.0478130954725	107.372057248381	-1.14226712351889	-60.8193434760442	-1.16081983973721	-61.9134633574823	-30.4561965954636	-73.1321838739554	
3510830000	-35.4307131635405	-38.3816763522466	-1.15196051143041	-138.855077134231	-1.17181091879872	-139.911606661616	-25.4178525377651	-61.3995821192822	
3540820000	-44.4748186100424	156.190010671559	-1.15925384451351	143.043309096681	-1.1791375204689	142.113937569205	-29.6433721301879	-52.1938726162789	
3570810000	-28.2404226921689	5.52426958994705	-1.18635113626099	64.9559318228634	-1.19706867152273	64.0558267903862	-26.211419047703	-28.1296313074672	
3600800000	-51.6193576164288	20.9782778246534	-1.19411114818288	-13.0672653953341	-1.20767953882794	-13.9552490336853	-32.5001454111533	-47.5664233761531	
3630790000	-26.7396890742991	39.4720047605359	-1.20728753325033	-91.1628246084265	-1.21767982180694	-91.9739881656216	-30.8736029510227	-16.8039421191697	
3660780000	-48.0495257973898	70.5196276932893	-1.20266008370238	-169.177039309871	-1.21235906992516	-169.849495411376	-30.476697252292	-82.7448625191875	
3690770000	-28.591390387334	71.042314125508	-1.19327463061148	112.656411708446	-1.2209983942704	112.307144515699	-31.7577111711147	-46.8733956657554	
3720760000	-38.3277985746374	-4.61261227055927	-1.19195679396403	34.7056105413277	-1.22158510873274	34.318110630916	-26.1409491511949	-67.2105996438516	
3750750000	-33.8011644518385	108.578509908715	-1.18807233785556	-43.0151750983735	-1.21995302684914	-44.1916487410169	-29.0205667766921	-47.0205599819491	
