!Agilent N9923A: A.07.32
!Date: Monday, 11 January 2016 22:37:00
!Model: N9923A
!Serial: MY52412257
!GPS Latitude: 
!GPS Longitude: 
!GPS TimeStamp: 0001-01-01 00:00:00Z
!GPS Seconds Since Last Read: 0
!CHECKSUM:1572783361
!Correction: S11(ON Q)S21(ON Q)S12(ON Q)S22(ON Q)
!S2P File: Measurements:S11,S21,S12,S22:
# Hz S DB R 50
2000000	-40.4092096447347	155.291174335474	0.0387359980597186	-5.56951381344884	0.02623067098916	-5.58111627336199	-41.3693470263069	146.531406969255	
31990000	-34.0138082190653	-85.6927229057138	-0.0971627853888349	-84.7121009833786	-0.108992987234968	-84.7334303751716	-32.9964019737188	-99.772948049588	
61980000	-42.2640897358391	107.913338947183	-0.165189240672879	-163.448065631434	-0.179530079187964	-163.48787066155	-37.6374902455385	60.0079370460949	
91970000	-33.5833190416509	-52.867907260598	-0.214790976838202	117.90185170436	-0.229942469569938	117.84204438653	-31.5382032644484	-73.9628925341404	
121960000	-35.138528852414	110.141450746759	-0.268504833983927	39.3426291519312	-0.281414883210767	39.2770334804004	-31.1491991098338	83.762358195433	
151950000	-35.8499052599472	22.1125105407233	-0.306087761837759	-39.1688270216712	-0.31846864281473	-39.2970744763193	-33.9372302913066	-25.4155380860283	
181940000	-33.2641763522333	154.672778702419	-0.351651809725195	-117.707581848653	-0.365761599754505	-117.829237837474	-31.23060221227	123.53338720963	
211930000	-33.9993576023164	86.2316571484592	-0.377983084211778	163.793858239617	-0.39439558701484	163.714633489262	-35.7915683838708	30.9953711572517	
241920000	-32.0023584408189	-139.46929116842	-0.410627004753431	85.27970124983	-0.424427286284405	85.1776848781614	-34.2360108150592	-168.124100305621	
271910000	-33.7771541475435	104.926659748221	-0.442374196783817	6.87065363736872	-0.458567521130223	6.7506254076074	-33.3013560235031	53.1931597764045	
301900000	-30.6868315864691	-81.8318649924503	-0.460984248567988	-71.600096538486	-0.474685866990015	-71.7356009443426	-34.2616492212569	-88.0158697862908	
331890000	-33.9251889479097	117.515397498477	-0.494421412071616	-149.989046055015	-0.509020320986717	-150.128663015513	-30.2510279119685	73.2662980630073	
361880000	-32.1387253648058	-16.3195223618548	-0.507354345126926	131.596967165664	-0.52286732842237	131.455279105536	-32.5593645762265	-14.3536761335432	
391870000	-34.9636612769395	155.072335301371	-0.542110652129364	53.1565162697395	-0.553972545663006	52.9770232675224	-30.9066903629999	106.676705496216	
421860000	-32.6067718711761	48.380560618632	-0.561831380507662	-25.228303484297	-0.573216413028697	-25.3731128509071	-30.8648366675766	28.2897265267568	
451850000	-33.6466510574969	-144.38415874553	-0.579722060467378	-103.707153538586	-0.594584401568775	-103.855731105037	-33.2550861840163	-179.411573880742	
481840000	-31.60001821691	80.1123577790235	-0.604921985651298	177.968175176215	-0.620231127500258	177.800456930671	-29.0742577625064	52.8297853480716	
511830000	-31.5842363214938	-80.7037094651285	-0.608246128894276	99.5478752981516	-0.62440749508718	99.3262092776065	-31.9335366938988	-100.902566053505	
541820000	-32.047588983078	93.753265274649	-0.63654600012776	21.2429287313762	-0.654878869026064	20.9377138866548	-27.6034504632151	67.6641032947232	
571810000	-30.9997305707046	-18.3846397004581	-0.640206349689275	-57.1327095988665	-0.654080317410089	-57.4809199812722	-30.5410105379748	-42.9440747645532	
601800000	-33.3800158816899	114.593993690197	-0.667410339104751	-135.504874243298	-0.683145379052707	-135.876737784001	-28.2713199976677	93.0910358994997	
631790000	-29.6514524442842	37.5435814023061	-0.672280562293464	146.122655910408	-0.692624008205179	145.793506952928	-30.3412434141422	8.63021135250292	
661780000	-36.2031571543705	-175.121049975066	-0.69491770356355	67.6763169420833	-0.713483625556405	67.3700920876253	-32.2210879135343	137.970683166142	
691770000	-29.7953791971811	77.9794716544923	-0.712183444226014	-10.6498942869974	-0.729527735764123	-10.9410130816357	-29.3236592350131	38.4406707319562	
721760000	-33.454677332933	-99.4931358974536	-0.711666459908113	-89.0797507836657	-0.735377102456873	-89.3711411653465	-34.7825702233243	-127.963304359115	
751750000	-31.0689648214017	97.062596560102	-0.73642019628204	-167.34962350737	-0.755225383335363	-167.728222943509	-28.0702027214476	52.6002321035953	
781740000	-33.3528672429216	-33.8036349377362	-0.738395806273623	114.282126900352	-0.754978886734178	113.843303195823	-30.8544119823852	-60.3988373030606	
811730000	-33.0291010889944	100.808417532359	-0.758183580759428	35.8739532173313	-0.774509002655309	35.593611644634	-28.7119759037511	80.0556215078642	
841720000	-31.5727408272915	25.5061303881223	-0.764893782277003	-42.5122615024704	-0.779824071883499	-42.7894098003256	-30.8773365831949	-11.2655145380954	
871710000	-37.2021848900515	135.23457983056	-0.785209000276898	-120.916465905326	-0.803852121635843	-121.160847409903	-32.2744732432791	124.744690439051	
901700000	-30.5835540679217	62.2486050624272	-0.796603523718548	160.783618603886	-0.810862355903022	160.483747580873	-31.1838941357334	26.9677849703398	
931690000	-37.8753213868968	-114.899764882545	-0.80975719342294	82.3470850168515	-0.82250293387114	82.0292507088863	-34.8448202845103	-145.807784768041	
961680000	-30.639125361786	77.163533956528	-0.824953914190314	4.07589298416377	-0.840904346677722	3.74204558034308	-29.6649366866901	49.0505071296604	
991670000	-33.3935842025688	-45.2140715235102	-0.821241040682992	-74.326813821731	-0.83625959952215	-74.6921607308119	-31.7629147267707	-76.8243605235804	
1021660000	-30.6826881636913	81.8125311341775	-0.844802848749377	-152.622575771578	-0.858084247317101	-153.002450319028	-28.6847772404569	72.1133301306554	
1051650000	-31.3619106216181	8.14971159595482	-0.841312598100073	129.015290133204	-0.856716734431211	128.597259843027	-32.6380171698702	-30.2999947624041	
1081640000	-33.4620017295582	108.019100960074	-0.86206158547686	50.6309372523604	-0.876549381144596	50.2223667381677	-30.3206148699296	106.312669896823	
1111630000	-30.5236038421908	53.2978600365277	-0.868943144659401	-27.6837498820164	-0.883315537484961	-28.1166900130098	-34.3789248836453	13.4632098768811	
1141620000	-40.127754698099	-172.413223182129	-0.880466575973426	-106.105585352723	-0.898838904481806	-106.517194210528	-35.6603921805822	176.120522623393	
1171610000	-30.7731911359488	75.3610937707286	-0.893683923533179	175.553676488858	-0.909307355390465	175.189716661151	-32.9311309870371	39.935248314803	
1201600000	-36.1661325100112	-65.586145474084	-0.8973173091705	97.1576508186139	-0.906350910850374	96.8136875252941	-33.2838261157043	-90.32973832227	
1231590000	-31.2366391169496	73.3840520958322	-0.907211413871727	18.8471573858832	-0.924016881267633	18.4650330680707	-31.0745244351557	63.0128206845165	
1261580000	-32.5459743978253	-13.7143311357115	-0.906975786266488	-59.5094980375686	-0.919810725808503	-59.8896207959361	-33.253761099152	-41.5062886082241	
1291570000	-32.3427423755613	84.8766018979876	-0.922031448129663	-137.855632652878	-0.937894509565714	-138.253608155329	-31.2392372813293	98.2219289577228	
1321560000	-31.5961022478813	31.7252165935529	-0.925928527906152	143.820607991261	-0.943006165577337	143.390969825235	-36.4895084837353	9.18499675264798	
1351550000	-39.0110606794543	122.957717092802	-0.943823784240926	65.4700583899697	-0.95805233673946	64.998912517547	-34.0968709561174	163.142304452096	
1381540000	-30.9808248518946	55.4512437484792	-0.95185569306979	-12.8393027757386	-0.966260673639281	-13.3375418339919	-36.4192719236299	55.6721476916481	
1411530000	-39.5763819997989	-80.1561520790822	-0.95609309515077	-91.2234329331067	-0.972637351264246	-91.6971300260426	-33.889522762327	-115.405329558149	
1441520000	-30.2117336561885	61.0894295253295	-0.973375965680111	-169.535131230942	-0.987980557188441	-170.022900010544	-32.9164812143199	66.5416172069455	
1471510000	-33.601249277315	-26.5968077216379	-0.967670210047142	112.103996649737	-0.986150115614173	111.559782620213	-33.3084949462308	-67.174702964133	
1501500000	-29.4322203537265	71.2989985053043	-0.980000955281736	33.8289190912372	-0.997587484751462	33.2180465663546	-30.7079962251552	95.6842622484637	
1531490000	-31.5605554417222	12.4117735959674	-0.982536117027484	-44.5317926072499	-0.997521167264266	-45.1635309323116	-41.5782074714571	-9.94693576840984	
1561480000	-33.1952238634342	99.8987394310018	-0.996665662193531	-122.872110486969	-1.00909880040683	-123.527775528856	-32.1599423963497	132.778106025153	
1591470000	-31.3649953739583	43.9446634030616	-1.00248667741919	158.798119289342	-1.02215186874628	158.107597313686	-42.8572382860211	85.4049602247497	
1621460000	-45.906929346938	-133.402571569833	-1.01170354051681	80.526323768284	-1.02755727200632	79.7394548273678	-36.4686244745863	-149.270966540726	
1651450000	-30.6042242407372	48.9715600373702	-1.02766872062169	2.10319404801031	-1.03422168338137	1.4165066297741	-39.0131783556634	92.0313240394015	
1681440000	-32.7390346888875	-56.3652396353384	-1.02554336662408	-76.2486713607644	-1.03466164520721	-76.9891025004463	-38.5469695117326	-80.9971083457953	
1711430000	-29.4325427021492	69.7773114595566	-1.03428971929343	-154.524347258899	-1.04955460934408	-155.254267205934	-30.9145350373007	87.6357187397769	
1741420000	-31.6777410981052	-3.51927320051244	-1.0363619706533	127.130671871984	-1.04853975220797	126.386685364573	-40.3535071244958	-5.17254702522707	
1771410000	-30.8616774431218	90.8441127495265	-1.04483894611768	48.7508354027223	-1.05975066171025	48.0720541290514	-30.4102396617169	122.409728453481	
1801400000	-31.64518595486	30.699933846155	-1.05124235142144	-29.588736838589	-1.06374563136276	-30.215645202766	-41.3601409950493	98.7079388714645	
1831390000	-41.3720937451608	143.09936068457	-1.06021223770319	-107.958103117195	-1.07375067662881	-108.626755892072	-33.8098922073813	179.570538849341	
1861380000	-31.4821732170614	42.5561799348279	-1.06675082360697	173.726796359043	-1.08766443305885	173.071006552142	-40.0441904430773	116.659799078173	
1891370000	-35.2497845049758	-68.2174118170874	-1.07181793917027	95.3149772865247	-1.0856836865317	94.6957118113853	-37.5460150162103	-107.469900613716	
1921360000	-28.9868664945052	57.9055433010652	-1.09021176241763	17.0535445652841	-1.10088520437476	16.3964828545755	-33.0204984654853	84.570905821076	
1951350000	-30.4828865177006	-17.320823390577	-1.08018910300752	-61.3185698115928	-1.09781677542571	-61.9601913440835	-39.8410942268779	-5.49766746354971	
1981340000	-29.6121527225592	75.1179641164357	-1.09417408065118	-139.664587670335	-1.10804192566321	-140.260105483953	-30.356181101036	102.060357344007	
2011330000	-30.2206033169613	17.6199976655928	-1.09496185532588	142.014484257467	-1.10873420350577	141.374776047649	-39.0408359689774	97.511222852444	
2041320000	-36.4293825619847	112.844522434562	-1.10604654117555	63.6519818590872	-1.11751490979943	63.0447488037244	-32.7579083198005	138.5737128551	
2071310000	-30.7366538317927	42.3629010053452	-1.11159240323006	-14.6725661115791	-1.12666723037958	-15.2581084102133	-37.1339405295851	132.810614853068	
2101300000	-38.6265299602773	-70.2605557338329	-1.11424119602066	-93.0065406576032	-1.13350661272656	-93.5556634446643	-45.478207188777	-127.15633876438	
2131290000	-30.4473881719105	48.1950070881565	-1.12800209192309	-171.339408455912	-1.14652872172418	-171.89064435386	-39.2159201603574	92.0477881817142	
2161280000	-31.616226719886	-32.9690587157824	-1.12532854723026	110.314936521859	-1.14675405398562	109.742108753389	-42.0725561369549	-5.42328161847471	
2191270000	-29.3739686946257	68.6333178182096	-1.13752070224456	31.9974828224048	-1.14625791071169	31.4073882045639	-31.2653340307633	93.9220007234879	
2221260000	-29.6022003449004	4.07588482524265	-1.13940384921052	-46.2912383433291	-1.15566963707896	-47.0267804191536	-36.1676109273583	81.2226293226208	
2251250000	-34.2593115814424	97.9856902831443	-1.14620009612788	-124.65303609351	-1.16662102466016	-125.355601451133	-31.7335535417583	115.298124375607	
2281240000	-31.1263772715571	33.887655619713	-1.15013307996326	156.976732318412	-1.16515029437446	156.315219635857	-36.5349392648816	129.040612864155	
2311230000	-42.888504883521	-108.083745632563	-1.16383209416466	78.6658581470612	-1.17364049706015	78.0133542858496	-40.9920959480233	166.661142166933	
2341220000	-30.8730419571676	44.4388381918877	-1.17479435659576	0.315618708206073	-1.18766403698967	-0.310826898733636	-39.2235553847732	109.115546636848	
2371210000	-30.9554775045491	-43.2434475785069	-1.17702102618855	-78.0246137030618	-1.19034999993239	-78.5936193221896	-39.8413953233379	16.0159664752627	
2401200000	-30.4174813075895	59.0655591162202	-1.18567090151996	-156.378320201363	-1.20267802608141	-156.889309530965	-31.8277020404081	69.3035594167315	
2431190000	-29.2048678270846	-3.51253498715697	-1.18564321641942	125.229225553119	-1.19942658578044	124.768243081872	-35.362410726257	56.7699264840726	
2461180000	-32.3378514884664	84.4698159081626	-1.18547852423547	46.9029700001125	-1.19205442341637	46.4756732965557	-30.1414023906443	93.211141330624	
2491170000	-29.7453026070104	28.2920570815691	-1.18502033862452	-31.4686032382694	-1.19515384597003	-31.8456676938551	-33.8573823664254	113.920347812985	
2521160000	-45.4619343519292	-149.959897564694	-1.19470684909687	-109.801354702672	-1.20286258316982	-110.140013134367	-35.6477355299308	106.449260143466	
2551150000	-31.6504656857266	50.8485526426905	-1.19919897438504	171.834895928478	-1.21735354209995	171.516681945482	-40.183296787774	134.449736610292	
2581140000	-31.2054487838244	-51.0506225354208	-1.21583955641999	93.553335787982	-1.22208502862857	93.1514376517675	-37.9941201929594	23.9860235015086	
2611130000	-31.3710828194789	52.5406809453239	-1.21876176275083	15.226394357904	-1.22906802105265	14.8226845700217	-36.1172064209587	55.1413618173424	
2641120000	-27.4616722327286	-14.0024625589988	-1.22249160236527	-63.0986054345736	-1.23765135069267	-63.4963954363985	-30.8174073288104	47.7669374032765	
2671110000	-34.4544794928354	74.7487338259272	-1.22460285056997	-141.401195629623	-1.23396346368371	-141.877106648219	-29.0023809737088	61.041818267522	
2701100000	-29.0090830188011	31.7156473682743	-1.22767844264124	140.298987212062	-1.24049987338722	139.796544479313	-32.8626409987643	72.6204300981535	
2731090000	-44.0876102213895	123.965014330102	-1.23349068398616	62.0067308034171	-1.24456794095849	61.4446168482814	-32.2128629720183	84.3809124580543	
2761080000	-31.9062044945382	63.9455366687389	-1.23678577184436	-16.285948369532	-1.2480140235381	-16.8592485891964	-40.8933248255819	109.168591930907	
2791070000	-34.5726358159621	-66.2965017336198	-1.24920410453028	-94.5645730381041	-1.2614095492387	-95.2324250884551	-37.4130014162011	37.6803103338445	
2821060000	-36.3386660248373	63.2691887389467	-1.26109227800307	-172.782109181912	-1.27458257068477	-173.608239532897	-37.7310348360311	2.59515324075253	
2851050000	-29.2197963288657	-24.7167036225196	-1.27747848450438	108.942893757	-1.28729265922604	107.94921736408	-31.4005762915302	31.7155617460405	
2881040000	-37.2406532714775	51.0174172180375	-1.28113511764509	30.6462991524097	-1.29484640018247	29.6128481259898	-30.0152664449718	32.325704791426	
2911030000	-28.190902941908	15.93611339709	-1.28421922321596	-47.6660992207442	-1.29960010314402	-48.7092006057279	-30.9998197973995	60.9027615834545	
2941020000	-48.8869984618383	61.9091346426877	-1.28560167942236	-126.011662587989	-1.29580356391441	-126.966974101024	-29.2780105087842	56.5127017645542	
2971010000	-30.1292995044427	60.6837554623761	-1.28594737986327	155.628327072234	-1.28950264868917	154.751501434357	-37.3029985388071	79.0616617075109	
3001000000	-38.827536971419	-61.7583858893955	-1.28903376606549	77.2779557039061	-1.29877770667316	76.394872529551	-34.1715890646788	49.1155971716507	
3030990000	-33.6868802343904	78.7480533290234	-1.29206547046371	-1.0511465749943	-1.302043849425	-1.97045269651607	-40.140603649414	12.3990388609849	
3060980000	-30.1774971775762	-28.0418146885778	-1.30164622664105	-79.3394827391125	-1.3184184953251	-80.3082155528605	-30.3954276373881	27.3036028504731	
3090970000	-41.6097124917144	58.2160675864406	-1.31174264278009	-157.683444504894	-1.32234960189848	-158.688936846862	-29.7454254651743	12.9976862126965	
3120960000	-28.2887066558423	10.2641820980935	-1.32196183338105	123.972115903944	-1.33213119342169	122.954468283496	-29.108299653198	44.9055103536488	
3150950000	-43.6395621404601	-18.6217218347501	-1.32685719183086	45.6918268213557	-1.33932806867165	44.6062249275423	-27.5535068232269	33.0783295747184	
3180940000	-30.1627154902607	52.7263722389171	-1.32532570446201	-32.6290069412408	-1.33727207971241	-33.7019763663216	-35.3490795484111	62.3239353539302	
3210930000	-37.3742587868336	-70.3231540491004	-1.33267183835897	-111.446246791508	-1.34771134171793	-112.0460899508	-29.8803696954873	42.9678581856411	
3240920000	-34.0367060076644	99.4482663716367	-1.32896839094406	170.82935742467	-1.33802007964992	169.700627142783	-38.0932394295495	-12.9175914419347	
3270910000	-31.9461979409875	-37.922550021753	-1.33772963606793	92.5381162552863	-1.34806247080629	91.3843179538683	-30.169375839963	27.860265863266	
3300900000	-50.8871147587261	131.328054240606	-1.34386062847823	14.1462949207461	-1.35243791234977	13.03199225957	-29.4775952292402	-4.99472581049468	
3330890000	-29.4526572586446	3.19440078298083	-1.35367395187137	-64.1356973711926	-1.37024181254862	-65.3098915271925	-28.7151514954319	32.40656469082	
3360880000	-40.1224152914663	-22.9174271669236	-1.36149642176139	-142.530470175368	-1.36825368868952	-143.534662712465	-27.1705302058333	16.8190619050821	
3390870000	-29.2165051045165	42.53256016365	-1.36368422300067	139.178286379865	-1.3741098071328	138.082515379607	-31.9048652005011	52.8646419682626	
3420860000	-38.3082249727459	-43.0102947417793	-1.36982664526016	60.8414158583071	-1.38483662524004	59.7995616114571	-28.2249149530207	35.2781265925047	
3450850000	-31.7752499782931	88.9829670365365	-1.36272329058306	-17.5327622943185	-1.37778728684716	-18.4715127953507	-40.1962410267178	9.39767294474368	
3480840000	-34.4110842618364	-42.6789863744556	-1.36711905365375	-95.9132103098851	-1.38561748305119	-96.7667380944003	-29.9855489771109	31.5986687242271	
3510830000	-40.0260493303488	153.241120471982	-1.36655507244914	-174.214681695485	-1.38345982018852	-175.059725804088	-30.3545864292546	-24.2604264041197	
3540820000	-32.9713055432941	-15.8152068305252	-1.39375056972831	107.41137870543	-1.40371069556083	106.605909396424	-30.1441538695267	32.952233352874	
3570810000	-40.3747842927014	-78.3054715915934	-1.40734696288315	29.0628766876636	-1.41425935520902	28.3137826954426	-26.8604153153018	1.71496811030975	
3600800000	-30.7505754322569	26.5486978397666	-1.423163371619	-49.2739281027846	-1.42610861018824	-50.0401779234411	-31.5253144139148	44.626840592397	
3630790000	-35.7997403599318	-33.4769710318379	-1.42768815646555	-127.662617442277	-1.43409645586756	-128.30701909042	-27.8446128366431	20.2416698990386	
3660780000	-29.9682756804345	58.0455295431083	-1.42793166911378	154.075429986589	-1.43078781611359	153.424430832815	-39.121873120266	55.6025154854132	
3690770000	-34.5078743011749	-24.1420447139988	-1.43034257633877	75.7035983510785	-1.44964769868113	75.2011773441456	-29.4754501900306	28.5096059994294	
3720760000	-36.0284523786579	91.0229931943463	-1.41339701520599	-2.53019410705276	-1.43506460999978	-3.12043748526639	-34.6262280735405	-29.9276625575454	
3750750000	-35.8887236639166	-13.509675031188	-1.41865368230606	-80.6785648355218	-1.44455212356028	-81.7292460555533	-30.7365915067374	36.9885602217656	
3780740000	-57.4818501873605	-91.3466867696101	-1.42408144572276	-158.817845707646	-1.44802413353935	-160.315226889475	-28.4697842138221	-9.86352997171617	
