!Agilent N9923A: A.07.32
!Date: Monday, 11 January 2016 22:34:04
!Model: N9923A
!Serial: MY52412257
!GPS Latitude: 
!GPS Longitude: 
!GPS TimeStamp: 0001-01-01 00:00:00Z
!GPS Seconds Since Last Read: 0
!CHECKSUM:2099238837
!Correction: S11(ON Q)S21(ON Q)S12(ON Q)S22(ON Q)
!S2P File: Measurements:S11,S21,S12,S22:
# Hz S DB R 50
2000000	-39.0418670223167	160.529898649256	0.0494491990215189	-5.56392093029745	0.0338380236492555	-5.55924840887911	-40.0705596272488	154.181200979012	
31990000	-34.3888491462534	-100.666288802136	-0.0832556008219252	-84.5707740536827	-0.0991739088996119	-84.5725003728376	-31.6274037613252	-107.720611875556	
61980000	-39.2356414049447	77.3901229453679	-0.150900274120493	-163.171317488415	-0.16574666189413	-163.197221292034	-39.3742371455087	93.3893333315165	
91970000	-31.0051100777664	-55.5960111265615	-0.195808258138488	118.318239511052	-0.211883306153091	118.272672063419	-33.317775603243	-76.3443629643041	
121960000	-34.8026667568797	108.892787547187	-0.245537914417815	39.8915882277876	-0.261574379362582	39.8458951636832	-30.8941096236015	86.5841941341708	
151950000	-34.3646600283062	17.3505170674585	-0.280359277767734	-38.511344445844	-0.295517641922449	-38.6186949595268	-34.6342206899796	-13.9760607986353	
181940000	-33.7084231633748	146.66527251977	-0.321691253110618	-116.932328290931	-0.336554201281763	-117.043669481032	-31.3428270142927	131.328874038493	
211930000	-33.9712677490402	70.6726269314099	-0.346661388789441	164.681373170786	-0.364699107857019	164.600633535955	-36.364937900827	57.1677138841311	
241920000	-31.045194325244	-133.111304366795	-0.374448843470906	86.2652338033186	-0.390989685478976	86.171066595823	-33.1991880325953	-170.442144349376	
271910000	-32.9263947678787	104.29204584236	-0.405351801694676	7.96977655300589	-0.424340348378234	7.87261291937554	-32.0314588042308	61.3430981621038	
301900000	-30.4509826216318	-76.0671007409867	-0.419943055415582	-70.3917542239203	-0.436113594431526	-70.5197266401559	-32.7371932824779	-85.3492235805568	
331890000	-33.3152935297095	112.468508657258	-0.451968998053317	-148.671252673118	-0.470890503427679	-148.806307826275	-29.5187080598361	77.8023786482854	
361880000	-31.9760194605625	-10.9859673978145	-0.462262895151428	133.01159151583	-0.480827258468217	132.873064974616	-31.9326489345974	-18.7368780231843	
391870000	-33.2902392772626	141.623472969646	-0.495454219110406	54.6758038591309	-0.511258437831376	54.4997422456891	-29.6247459884589	115.111171302211	
421860000	-30.6626695793004	51.0179411583286	-0.511272811912876	-23.6002933557677	-0.526970671402038	-23.7519230203358	-30.6303803614703	37.892504023995	
451850000	-33.1219333035686	-142.984142483799	-0.528807751540584	-101.992532727788	-0.547729608330732	-102.143143078449	-32.8875110562147	175.064905677149	
481840000	-31.0351169799699	87.7789076837863	-0.551960532253378	179.792435405626	-0.570936778981194	179.620826303577	-29.1333913707352	55.4500669142582	
511830000	-31.2319765755325	-82.9076340762601	-0.554308093921448	101.466487994473	-0.57140613018807	101.240138526601	-31.6478319320439	-101.730956508801	
541820000	-31.1323396999951	100.579334726406	-0.582613347046253	23.2762793393103	-0.599940198929313	22.9610548766384	-27.2973843945843	71.3690659153696	
571810000	-30.5940426499014	-14.0786112321314	-0.581202108377653	-55.0010462534379	-0.599468524530599	-55.351700849233	-30.2102584787759	-36.0806553716063	
601800000	-33.2976185489349	116.89599706804	-0.604551357377967	-133.269556615995	-0.624743093403056	-133.653994696208	-28.2762702537044	94.8930043993964	
631790000	-29.5421698131034	43.3762048617515	-0.614263297393507	148.459491688541	-0.637780151879798	148.116697213125	-30.0065197929923	13.6593197239709	
661780000	-35.872847291365	-177.251250577416	-0.631489841273189	70.0969763290638	-0.65529838077729	69.7866483637613	-32.0259401073977	145.621075004084	
691770000	-29.0210475605297	84.8039715170173	-0.647562204904723	-8.13000740317051	-0.671884452541849	-8.4315150054388	-28.8157752324063	45.028852630563	
721760000	-34.7106821969413	-94.9466187248628	-0.646492023165615	-86.4455273894006	-0.6737832325734	-86.7533995473422	-32.562076089456	-115.41601661688	
751750000	-30.416841983732	92.1672617403356	-0.672590195910165	-164.617104345412	-0.693452376901606	-165.005431186978	-28.6157601447935	63.2207873260057	
781740000	-31.7483413366465	-31.9921246181194	-0.667588626828587	117.109447480916	-0.689253266156666	116.659576665195	-30.8125163776338	-56.1156378281994	
811730000	-31.8904876697937	103.343295671679	-0.695676534197912	38.7822854166303	-0.709069073003289	38.5106354495808	-28.1276903426821	86.6841784816779	
841720000	-29.9764821655888	29.3282005400861	-0.696491913053054	-39.4780043031805	-0.714125367079399	-39.7469846415352	-30.4163497039222	-0.366890808863911	
871710000	-37.1631902944782	142.15619061121	-0.716367694550323	-117.794823224143	-0.736564353244118	-118.04452946646	-31.748893587466	125.459471100128	
901700000	-29.3993589002448	72.40903668989	-0.728448660774564	164.004227957464	-0.744879294299181	163.692719278163	-30.4057023781317	35.0179885361088	
931690000	-38.7844937863476	-101.971657463681	-0.736522637671751	85.6738106391637	-0.751755574895869	85.3547825469949	-34.6396400771019	-130.942455911418	
961680000	-30.622422204351	84.1276780609496	-0.753893098397971	7.48640221427931	-0.770926090001348	7.14157729614214	-29.9737489169975	55.1398672983909	
991670000	-32.7732269092652	-40.0696489194649	-0.750631707162163	-70.811297741068	-0.766055482491059	-71.1674760219828	-30.7918544366827	-67.8799304901678	
1021660000	-30.8117068577978	87.9402393122912	-0.771506240211993	-149.00126042977	-0.787772295913181	-149.395525630477	-28.5389637088303	77.4126424720613	
1051650000	-31.0239385359074	16.5201746446529	-0.767403019069293	132.738598352344	-0.784154841195099	132.319399854031	-30.8981678126008	-23.7917349795147	
1081640000	-32.3413423544986	108.334335657047	-0.788008779834604	54.4506597293254	-0.803365392083931	54.0217019974594	-30.0147899125598	118.402873445071	
1111630000	-29.107511126616	60.0328364016828	-0.794283219113233	-23.7443780230143	-0.809364273871514	-24.1910002932139	-32.493041712181	28.3476085393024	
1141620000	-43.4290240410262	-176.529355663144	-0.802923465096156	-102.094514413011	-0.822284376287486	-102.515254815483	-35.0683936851165	-162.987487898448	
1171610000	-30.0439787140701	80.7861451559092	-0.81778975107046	179.665159005663	-0.832953477730195	179.300197320273	-32.6117223317987	53.1538755159209	
1201600000	-35.7471826988731	-49.9557097462048	-0.816729034401166	101.375239536378	-0.828371116158584	101.028847224951	-31.155708119278	-80.3212776846733	
1231590000	-30.2792211855747	75.7587493951744	-0.828561305071752	23.1633578863072	-0.846794376897673	22.7769269028041	-31.117077225191	76.0028426595429	
1261580000	-30.8729380038938	-4.98370429906556	-0.826615840979908	-55.0877237454827	-0.842648259941635	-55.4685771805127	-31.8004436435972	-31.2077695639257	
1291570000	-31.2184969958495	86.8815491276989	-0.841786924412726	-133.349366324818	-0.858979138026664	-133.743166369133	-30.6205359809639	107.56343305714	
1321560000	-29.4631719696885	39.9081232129312	-0.846702336173609	148.457226509528	-0.86657937939349	148.002207442891	-34.2664279522868	26.4694693173808	
1351550000	-39.5406852044187	114.368257718517	-0.859918427245671	70.1760246989986	-0.877939042280092	69.6904419794453	-34.2664911885441	170.621648282667	
1381540000	-29.7492937281015	65.8246342486522	-0.871564685814609	-8.0308127500238	-0.890029071488651	-8.54034220081982	-34.8337339927935	70.7982613586058	
1411530000	-38.1879122187459	-57.0681970138164	-0.872002861288988	-86.3149223662853	-0.889262099004999	-86.7985166928013	-33.2806911360888	-98.2642549647347	
1441520000	-29.9045145739684	69.6508565632714	-0.891446898540682	-164.538172418347	-0.906481261028841	-165.042245157654	-32.6361593070246	78.1743298926058	
1471510000	-31.2662610371444	-15.8195574335705	-0.88124346829807	117.238066095826	-0.901511566876151	116.661308483451	-31.8065572583232	-46.0492494367694	
1501500000	-30.2405302758178	74.6451263985342	-0.89532663483307	39.033300895272	-0.912154654856215	38.4115501777259	-30.941227790533	97.3106489735616	
1531490000	-31.2748522849254	23.8850223602627	-0.895984152884106	-39.2169330238542	-0.911735800307109	-39.8693384036737	-37.0498106491514	-5.73397660013067	
1561480000	-32.3312091100673	106.277170488458	-0.909144771206998	-117.448223773609	-0.925517500266174	-118.146982310081	-30.9144637476228	144.385486550304	
1591470000	-29.5801430194583	60.3039103642039	-0.917235117216694	164.310620571815	-0.938775261243287	163.603027850997	-36.5425078488203	74.6280656987348	
1621460000	-52.5499011948324	-37.2025026026933	-0.922505975674573	86.1288696598378	-0.939624237646195	85.3274259281991	-34.5749293332276	-123.552863402005	
1651450000	-29.6008378194376	60.1497340488682	-0.938803909361175	7.82520640561848	-0.952510763110927	7.08875278902117	-35.9552742777082	103.170545146014	
1681440000	-31.3658234245792	-31.1454873597491	-0.934005811762559	-70.4327270187919	-0.949816769537032	-71.1865216649943	-33.8211641621591	-53.0218879673942	
1711430000	-28.6223393163692	70.7405803541028	-0.946320764279707	-148.627302185908	-0.963080575784761	-149.380514101106	-30.936820843801	100.5233421614	
1741420000	-28.8700036997328	9.60351733374731	-0.945756639840882	133.140501034007	-0.958444107142278	132.375588999146	-35.2708453664166	12.9923045232952	
1771410000	-30.7040821093889	89.5285199680604	-0.952111854103814	54.8499404385163	-0.969012932725893	54.1590759338559	-30.4160685623317	127.472341313656	
1801400000	-29.3739239353163	45.3584633116111	-0.959639160326598	-23.368584264545	-0.976716740782344	-24.0425918078334	-37.1419348090854	86.8420016455541	
1831390000	-46.1065682185172	107.716910224396	-0.965940587439895	-101.648230981116	-0.982142503666121	-102.356830093456	-35.3455529165983	-168.916699521473	
1861380000	-30.7954319692356	60.4592718986696	-0.975874699298135	-179.917592566235	-0.99451418963979	179.449545540927	-38.3832984153829	117.276232968089	
1891370000	-33.4419457753997	-35.8109865025053	-0.97767958009546	101.822667855051	-0.994610531287591	101.201988578856	-35.2037486115125	-66.2229589572135	
1921360000	-29.6141375262526	62.2140959778474	-0.990127935582764	23.6387423660054	-1.01059217323075	22.9554113264779	-34.8201871196578	88.8746005360197	
1951350000	-29.0554320368934	-4.46402473916581	-0.987625678866532	-54.6244822679059	-1.00405089613064	-55.2761948557005	-35.0829643271897	-1.15714165635612	
1981340000	-29.8787347541389	79.7204154997419	-0.996262422732951	-132.877417105907	-1.01430029156571	-133.507403216537	-30.4501917137427	106.484630889081	
2011330000	-28.5747772091575	35.287703372379	-0.997935815888029	148.910297287255	-1.01573124543104	148.243833812034	-35.8835950312995	72.6729199882818	
2041320000	-38.0339739270494	95.7450167014162	-1.01086395571028	70.6031262707604	-1.02224025045647	70.0027604847173	-34.4982466049575	146.749227576442	
2071310000	-30.4468280806698	60.8013635434145	-1.01224927303396	-7.59207780829167	-1.02718413595455	-8.1864949471067	-37.1086529749485	128.45988351911	
2101300000	-37.1407513454132	-36.0920249456127	-1.01837609800284	-85.8215671395763	-1.03861544770972	-86.406389587808	-40.1493571025606	-75.6840629829018	
2131290000	-30.896977245497	62.7613850292988	-1.0342755092161	-164.060448294546	-1.05154885136522	-164.643179680236	-38.7638360972849	95.0525224317113	
2161280000	-29.9042770648276	-8.1112399622464	-1.02492061775969	117.692174209219	-1.05113788993931	117.118365528324	-33.7776584735492	-10.4408335735902	
2191270000	-29.4955191602539	69.8999970693099	-1.03553623337415	39.4603270346778	-1.0548033140035	38.8432178071443	-32.0849156394686	98.5306052956897	
2221260000	-27.669801551329	24.6592794719865	-1.04350838592176	-38.7189553469219	-1.05822147110277	-39.4605742541075	-33.0266087152416	55.6681770119375	
2251250000	-34.4994296510768	73.4715685172158	-1.04447262280975	-116.992864728047	-1.06532459953865	-117.711029896344	-35.1738668582876	119.221309898582	
2281240000	-30.6939091404199	48.4614495855273	-1.0532036395721	164.743167245538	-1.07193940055845	164.073003409676	-36.7503790084786	132.182751132848	
2311230000	-40.1007007480956	-47.0052297165893	-1.06147789406847	86.5406485871054	-1.07555083677033	85.8714288506863	-49.1668257345947	-136.427853003948	
2341220000	-33.0326435842507	64.1620857707924	-1.07437699765069	8.29241055934934	-1.08865920599049	7.63004861596001	-43.6956246519137	96.7441536935438	
2371210000	-30.4130490960744	-15.9930664524218	-1.07647461663677	-69.9530173318051	-1.09095113380817	-70.5707140350019	-33.4310923414565	-14.6008600363155	
2401200000	-30.9753993148877	58.4055558013175	-1.08055587355882	-148.247120287391	-1.1029822360737	-148.747025679723	-33.9729357374164	72.3499230714987	
2431190000	-27.8246617512114	13.5406677575975	-1.08483234178408	133.514413878383	-1.09922098737353	133.034453250271	-32.4678997847314	37.9443429499265	
2461180000	-33.5730922052319	76.5014953944502	-1.08089748053689	55.2493277034321	-1.09393339733593	54.8250586862564	-31.213774688036	93.0347732006086	
2491170000	-29.1585097277595	55.0604414812267	-1.0802013328915	-23.0192297105268	-1.09506296057993	-23.3815491383821	-35.224694415372	87.8728139272297	
2521160000	-42.8909077261856	22.8126760217898	-1.08908210746014	-101.256126504493	-1.09871045527369	-101.599553152949	-47.1222181285565	113.878644530383	
2551150000	-32.9262858061778	72.7129946584027	-1.09203928962902	-179.509136138774	-1.10545061606272	-179.820277090898	-45.0400466653947	152.620389091653	
2581140000	-30.5839846037665	-15.7242429236013	-1.10625754637443	102.270262993885	-1.11929188417824	101.921584427927	-32.8515325672386	-17.8770983002403	
2611130000	-32.5133479751172	43.5128125414356	-1.11406208340183	24.060287037548	-1.12766425124441	23.6630496310497	-41.9029950683264	25.2816867962316	
2641120000	-26.6639668555369	7.03676794746898	-1.11871968771054	-54.1511713085677	-1.13298604248322	-54.5432759960592	-29.4107669047423	26.2858139227622	
2671110000	-32.5180138981075	42.8714179461763	-1.12136842528221	-132.317695565815	-1.12949296627207	-132.840047796857	-32.7313436491427	51.5312919800454	
2701100000	-28.7994363271744	42.3029984382694	-1.12000110377308	149.445039136794	-1.13729752340731	148.93950190745	-34.1212284232336	67.3303408876473	
2731090000	-40.3126519113147	54.0475407617674	-1.12574406773727	71.2514113918236	-1.14000484153084	70.6701268027232	-35.8314395604918	87.2141547533146	
2761080000	-32.5199586527658	84.6907550220598	-1.13700288798165	-6.93008087628484	-1.14401365522275	-7.53557218828389	-50.2634126014841	118.188052699941	
2791070000	-35.3249013461529	-21.799137232747	-1.14297036065998	-85.1295872215895	-1.15690837943969	-85.8082502900952	-37.7240232831755	-15.5650932179349	
2821060000	-40.2890159941728	65.9217287501543	-1.15612101860057	-163.214745089591	-1.16776798580736	-164.1034379232	-36.8262870244605	-24.9005899225381	
2851050000	-29.246183458885	3.2916049690804	-1.17036720767307	118.613933739223	-1.18002803966317	117.566671486306	-30.0972449586562	5.50005118763638	
2881040000	-33.4397599711242	21.1807142802123	-1.17338427426491	40.4216030843821	-1.19049591595358	39.3196291067087	-32.3385749328457	14.127425100306	
2911030000	-28.4544618599568	33.0069671143833	-1.17765638142482	-37.8039301278963	-1.19412212850603	-38.8790155232971	-32.5267909384125	44.0803039185483	
2941020000	-34.9553177987665	40.8537135583749	-1.17755239759279	-116.079768583557	-1.1891655660076	-117.065304330579	-33.7265341230454	56.494963327849	
2971010000	-29.747328996179	72.9603841914478	-1.17567067984242	165.679402312127	-1.18669838063572	164.760835660662	-39.5900328768597	83.3134977757835	
3001000000	-35.1388622722939	8.60726565776219	-1.17844583821062	87.4336171562918	-1.19251425479918	86.5027526218524	-37.2425453200214	4.52775059994832	
3030990000	-36.9131681025202	77.2492745464162	-1.1827675274116	9.1992284088842	-1.19434366000862	8.22238938650865	-40.7139030530368	-60.6756727835107	
3060980000	-30.7681202685812	-0.755366850162859	-1.1926584693862	-69.0201743561037	-1.20873547233708	-70.0120090404744	-31.2255754309455	4.80065218351673	
3090970000	-36.7639944863902	23.9601676768531	-1.20861788045137	-147.265089344619	-1.21513686377075	-148.303800153672	-31.9072899504888	-1.03154525002351	
3120960000	-28.3836314501091	30.0386994938315	-1.21455891407107	134.501756604645	-1.2274567536218	133.426937974124	-29.8220689579385	31.103654677614	
3150950000	-32.9119068207225	19.504496234765	-1.21580419757889	56.3084836661886	-1.23270127548841	55.2007074860865	-31.1862174523985	26.9434212084334	
3180940000	-29.8634381980281	60.0213430355393	-1.21644385466244	-21.9035670907675	-1.23000493787989	-23.0166040333237	-37.6086308926597	71.5669344519587	
3210930000	-35.7940007887406	-5.64366595318731	-1.22552674889716	-100.602458515092	-1.23541586936744	-101.239109725527	-33.5088220093822	33.6807488361943	
3240920000	-36.1740314137994	105.713077808812	-1.2155354088649	-178.241195236376	-1.24092689885552	-179.441921878815	-39.0640127817177	-51.6417833509622	
3270910000	-32.1002239651491	-5.61653914567046	-1.2265108123929	103.583497579907	-1.23909664651956	102.369279650291	-31.7726582877644	8.8820248803904	
3300900000	-40.8292063472799	-13.3707322299964	-1.24079908783413	25.3026818848301	-1.24665209107361	24.1905458121316	-30.8558542061724	-22.8410866745543	
3330890000	-29.4147012139891	14.0929837215985	-1.24301366369322	-52.9377646282393	-1.26326170164047	-54.0862965088686	-29.9211005351567	26.8284174504165	
3360880000	-33.1517638206014	-3.265401443675	-1.25278611213352	-131.202728101896	-1.26149825149694	-132.252437587154	-28.7504202001828	12.6473391714595	
3390870000	-29.6720347200254	52.8349455855185	-1.25729475872451	150.662643154165	-1.27134798659522	149.471117319366	-33.824216058163	48.4070280087201	
3420860000	-33.7651721678958	8.41088003238424	-1.24993310573299	72.3586956653002	-1.27484049858402	71.271930446241	-31.5534250266124	34.0708078136535	
3450850000	-32.558530315338	94.7957917127719	-1.24941649183616	-5.90688944675685	-1.26572261620911	-6.87482133151773	-44.7036820059558	-23.633554703482	
3480840000	-34.3128142619093	6.97647651032195	-1.2578537745808	-84.1940494360454	-1.27247301882075	-85.0729726598517	-33.7567343032171	13.6908473404113	
3510830000	-50.4280348196555	78.2259503517422	-1.2596768240617	-162.447526434756	-1.27373098397793	-163.275892037447	-32.0525798660079	-40.7743489063393	
3540820000	-32.8386953606375	2.62315736881357	-1.2784138647129	119.348533807095	-1.29010703760971	118.50369434004	-32.411025962509	25.8031480211343	
3570810000	-36.1767826079359	-20.6022652786339	-1.29713102203332	41.0455084035582	-1.30529504649434	40.2982726566418	-28.6634624835448	-1.22058853688603	
3600800000	-30.4633514517349	31.1267427682042	-1.30833740967789	-37.1815043049039	-1.30921515011717	-37.9323915391317	-33.4150264978201	50.3866791834874	
3630790000	-32.4018399483646	-4.98477456159557	-1.31595494319235	-115.44699642507	-1.32430675038067	-116.13122139134	-29.687112131465	23.0366957247487	
3660780000	-30.1117887257522	62.8455275363825	-1.31549445568095	166.354679977198	-1.32524647689148	165.710396442889	-44.2322560385836	79.6046471484463	
3690770000	-32.5930696624219	6.83468126985554	-1.31183337768466	88.1370367146649	-1.33361595661016	87.5854056601969	-32.51537712387	25.6748776510843	
3720760000	-34.6118579675666	73.9695137358965	-1.30950529270461	9.93413223355989	-1.3310095695444	9.33510462275176	-37.8409831737523	-50.7681866459474	
3750750000	-34.1760994917998	4.60424035376703	-1.30860037272237	-68.1129751348549	-1.33631732863054	-69.1575993402884	-32.9518026486037	38.900565478284	
3780740000	-42.8436969291305	22.1382395737802	-1.30848448583705	-146.130019636814	-1.34086971657595	-147.663825953475	-30.2091005299281	-4.17996942065153	
