!Agilent N9923A: A.07.32
!Date: Thursday, 07 January 2016 23:01:26
!Model: N9923A
!Serial: MY52412257
!GPS Latitude: 
!GPS Longitude: 
!GPS TimeStamp: 0001-01-01 00:00:00Z
!GPS Seconds Since Last Read: 0
!CHECKSUM:1771198235
!Correction: S11(ON Q)S21(ON Q)S12(ON Q)S22(ON Q)
!S2P File: Measurements:S11,S21,S12,S22:
# Hz S DB R 50
2000000	-43.8603618879827	30.534253334092	-0.0466392751219034	-5.80956455206334	-0.0410751907412814	-5.82000529277695	-42.3449802180798	31.5224377904267	
31990000	-43.2920400432496	-68.0335327043636	-0.190764096274462	-89.8331451848809	-0.18684645038703	-89.8320341787737	-35.9188819947615	-96.6839848504881	
61980000	-34.5574353871376	76.591710316364	-0.268384760864855	-173.360142031841	-0.264772097248388	-173.356996114028	-34.5906173346255	81.2618652015332	
91970000	-46.4969660412514	-27.7776396571973	-0.325654787105135	103.223196522477	-0.322634685130826	103.224093113583	-33.9654390788101	-87.8007001847054	
121960000	-32.8624878615546	95.4631266758484	-0.381839671384805	19.8769141570798	-0.38077853836	19.8915859807126	-31.7801925157024	112.574691380178	
151950000	-40.0542343979346	-8.8635914140188	-0.425504133563652	-63.4193707165426	-0.423113514215118	-63.4192689304959	-31.1146905848796	-65.9314377631199	
181940000	-30.0617562604983	106.887277938819	-0.483659628732712	-146.7092762053	-0.480536089316683	-146.68979675737	-28.4896304853114	126.73774399395	
211930000	-31.1381755595764	35.5128246452104	-0.513465200767239	130.112571242276	-0.511366983026529	130.125814260481	-28.1292948464887	-23.3026798028035	
241920000	-29.4416121578293	102.00557408908	-0.559230832863554	46.8388219650163	-0.556673647046774	46.8532862871262	-28.1236516999979	153.473765493332	
271910000	-27.1467569598533	53.0525406752421	-0.59195303248774	-36.2546404068814	-0.590262224922062	-36.2556359889696	-26.4736009769083	7.52973305207792	
301900000	-28.4522419971777	96.7462125569018	-0.629076212760617	-119.538949367287	-0.627485040885287	-119.505846095341	-26.5965724605004	-169.317921196494	
331890000	-24.3977983039295	53.4656897502562	-0.664087663964976	157.432592317777	-0.662370921777286	157.455125656109	-25.6894722603302	48.0676397350893	
361880000	-33.2925456172978	78.6956085338536	-0.680669470128108	74.1733092841425	-0.678356846635793	74.2100120160017	-28.1181127732233	-133.938751817643	
391870000	-24.0810535363304	60.5503709057376	-0.726237291391814	-8.88581372537293	-0.722243803220465	-8.87171927006536	-25.260674859396	66.1583539797664	
421860000	-32.6244112550371	55.9413946140106	-0.7382294953533	-92.0992520866546	-0.735012211824245	-92.0825729549889	-28.0465619206652	-101.751247374571	
451850000	-22.5654166642895	71.0102354950247	-0.792326492679301	-175.171596456199	-0.7895577087136	-175.155477733402	-23.4810320212584	88.011929127444	
481840000	-26.4016717182973	42.1551239064839	-0.796149496724792	101.727363368362	-0.791885147394466	101.756533098094	-26.2705117360942	-52.7455229654998	
511830000	-22.666311678937	72.0527176616516	-0.842162800333912	18.572822800872	-0.837572559144901	18.6056830834146	-24.0614209459903	120.036829857418	
541820000	-24.6777332847408	37.8911583340161	-0.846978940578154	-64.4693744317411	-0.844536606709201	-64.4287354613415	-25.7266740123377	-20.9245746073118	
571810000	-23.4517059703031	78.8963663599374	-0.888268736179011	-147.738434445782	-0.884839631604734	-147.640757038145	-24.2347299181447	147.581482331352	
601800000	-22.3125453488624	39.1094706693983	-0.903968880702941	129.368139266548	-0.897849694466937	129.461519317365	-23.6046975493833	7.14334012214106	
631790000	-24.3685008248992	72.4537788427136	-0.927711231118453	46.065863734336	-0.925209414586869	46.1578398876503	-25.1599096728575	-178.830864718733	
661780000	-20.5120160942857	40.8705150344438	-0.960789723253175	-36.7719836772569	-0.953148000302707	-36.6969963001332	-22.2136061024324	35.5132916603304	
691770000	-24.8568403021905	59.446739712469	-0.966213774162714	-120.037431707665	-0.96129416474515	-119.992705458469	-26.6955296627954	-142.8405877573	
721760000	-19.3686897150586	47.5641353515854	-1.0132905593983	157.017130927836	-1.0108583711065	157.079206049191	-21.2808525796241	62.2012032632527	
751750000	-24.2319420447496	42.317902134262	-1.00154266909683	73.8565244200022	-0.998732021003722	73.95588932434	-26.667792298745	-94.0112831090092	
781740000	-19.4864903765658	53.2536212341872	-1.05813280670333	-9.22159169980219	-1.05235382601559	-9.12549711543571	-21.6966361433742	87.3683224197899	
811730000	-22.6235477543509	32.1064353897455	-1.043669107618	-92.2115081764633	-1.03647720894671	-92.1338406721794	-24.2262497543122	-57.1033593276186	
841720000	-19.5567081990949	52.0198427762391	-1.0920153752968	-175.387436248014	-1.09157964812829	-175.336532589039	-22.25329811328	116.252891860754	
871710000	-20.817677879501	24.7735285782435	-1.08584665843503	101.740360774229	-1.08709889553339	101.770440296494	-22.7708176353089	-22.8279119094849	
901700000	-19.5199837495847	50.2077493657113	-1.13019358694028	18.485654502331	-1.12674179031442	18.5054280961331	-22.8017537395723	144.82034471315	
931690000	-18.8394503219179	21.4064538424747	-1.14394207106257	-64.3394830503521	-1.14103136163744	-64.2815478813547	-21.3554619261972	14.9617976587269	
961680000	-20.845719352091	48.2452288218283	-1.15537551883449	-147.6560606093	-1.15002883794448	-147.598778090249	-25.000879082777	174.453940170662	
991670000	-17.8586877422841	25.8140758191276	-1.19667722020393	129.522354796859	-1.19330775320184	129.580795435142	-20.380683634653	39.5404384045641	
1021660000	-22.1115017553228	35.5125571643925	-1.18364727248212	46.3010810622878	-1.17660662594385	46.3696910376011	-26.398399309828	-135.518968304147	
1051650000	-17.8413657711447	27.7322179359128	-1.23193183134655	-36.649325339219	-1.23106356532704	-36.5815572786009	-20.7269031695684	60.9831540364816	
1081640000	-22.2519786035648	21.7947752601107	-1.2105436793148	-119.760171799863	-1.20567643753681	-119.687947340514	-26.0746043498048	-89.5820725972811	
1111630000	-17.490953510654	32.687469427701	-1.27321172472077	157.206428932961	-1.27000927210169	157.23650781769	-20.5193714006388	79.7051850318363	
1141620000	-19.9485944380116	13.1119405669331	-1.25462359516018	74.2762600986157	-1.25326663414157	74.3203521505842	-23.1367738641623	-47.1063533873944	
1171610000	-17.7266786567402	33.6980156810628	-1.30583311145419	-8.99223049402441	-1.30128855646035	-8.92473067483227	-21.4069593938841	108.195433279366	
1201600000	-18.6383145315225	10.1358251554032	-1.30462528774833	-91.7699108803723	-1.29542631412372	-91.7119581238992	-21.626372498887	-16.2703604053458	
1231590000	-18.4750669609442	32.5066691584223	-1.33348660048089	-175.108671530976	-1.32580053955701	-175.066281966531	-22.6228577760351	141.653369503526	
1261580000	-17.6020786884306	5.56855644411705	-1.35297051896459	102.179330937819	-1.34961077013063	102.235595908228	-20.4015310336913	11.7048830873023	
1291570000	-19.8764652947713	25.0873530945588	-1.34743247660347	18.8494499636111	-1.34236871268915	18.9050305322794	-25.2497022947896	179.78942416669	
1321560000	-16.7503637081601	6.03442945553139	-1.39622970031236	-63.924143900866	-1.39277872563179	-63.855135820111	-19.5285959042302	34.0787266345051	
1351550000	-20.5340842411029	13.8873645602707	-1.3674241568819	-147.116715007881	-1.36609473561601	-147.062948101222	-27.6209141710525	-127.794269084257	
1381540000	-16.4109465022527	11.5844492465369	-1.43683338696602	129.890025612552	-1.43257476159297	129.968638640829	-19.3098034023766	54.6985203875607	
1411530000	-19.8543246489623	4.48977726631744	-1.40651808815101	46.8805733005697	-1.40217969521298	46.9701939381919	-25.3648492250251	-79.2239541269699	
1441520000	-16.6001651612873	14.7401945639634	-1.46924389910599	-36.3172778460757	-1.46388361551402	-36.2198148110423	-19.8738214712724	79.9726626384137	
1471510000	-18.8888764721478	-5.97764759533976	-1.45042087183019	-119.109017856685	-1.44567365647174	-118.976687884969	-22.3607600062823	-44.7230434270167	
1501500000	-17.4475914786497	13.5651713559129	-1.48613108854325	157.582305303329	-1.48590113548021	157.684078798515	-21.6422698742447	106.913357611131	
1531490000	-17.6606321971865	-10.7025748999637	-1.49190664585847	74.866765981033	-1.49039353008913	74.961579834537	-20.3562009485083	-19.0215168442212	
1561480000	-17.9028707259296	8.92020952909576	-1.50452572517994	-8.47094731256826	-1.49794347742113	-8.35068870673699	-23.8344347207028	139.393327027785	
1591470000	-16.6669781062819	-12.4516156388806	-1.53451525813795	-91.1541998808738	-1.53325928330664	-91.0600009396864	-19.3193655142774	9.31625374256226	
1621460000	-18.941180671659	4.84410747165748	-1.52299433820054	-174.386349851255	-1.51784340067238	-174.35550059044	-26.466318333819	177.467221071553	
1651450000	-16.2956938534493	-9.87621987312088	-1.58074115723657	102.693512684255	-1.57256689854437	102.796687220053	-18.8339057103479	34.040358445861	
1681440000	-19.9713260723627	-4.91828213029061	-1.54553173711339	19.5427705301505	-1.54028559358569	19.6623415393939	-27.1729937834793	-125.026688126795	
1711430000	-16.3108142117704	-7.25975066550628	-1.61237074124192	-63.4811831116125	-1.60936902644894	-63.3760140816798	-19.2717705064786	53.8161116413124	
1741420000	-19.3474603568675	-17.7590813271863	-1.57957113773309	-146.393226461619	-1.57670188289374	-146.266485246497	-23.8122454044347	-79.4197207251888	
1771410000	-16.198186528814	-7.68008192164012	-1.64124161175259	130.386190016601	-1.63734377693203	130.520733944817	-19.9206918950397	76.2468949527266	
1801400000	-18.0294652768237	-27.5374794338176	-1.62501993853321	47.6697815360674	-1.61625335251198	47.7982084319247	-21.066521754951	-41.4252316181438	
1831390000	-16.8828666693787	-7.64642180795571	-1.65814363231565	-35.6418929229636	-1.65015838671883	-35.5513324512114	-21.5987113097195	101.477438722984	
1861380000	-17.1556634960379	-29.9027549365604	-1.66880552412333	-118.31087267594	-1.66615946723708	-118.187307704127	-19.5609872641455	-14.0996881475938	
1891370000	-18.0845813499657	-10.5231662349129	-1.66825606822269	158.295439939379	-1.66298201169242	158.423284459435	-23.881883577547	137.897182481975	
1921360000	-16.7517752143806	-33.2160926333295	-1.71750041708181	75.6134138531242	-1.71043249527831	75.7186251454296	-18.8899514059932	10.6770633914185	
1951350000	-19.6768316220558	-18.4971817021305	-1.6854403642737	-7.63816188804725	-1.67716470640198	-7.55694073687509	-27.3792293265936	-172.979225663703	
1981340000	-16.2645907792527	-31.2918210622987	-1.74978020864143	-90.5791377919199	-1.7446421350523	-90.4512840030414	-18.70476604141	27.4868976095177	
2011330000	-19.7881185644699	-30.5648526346958	-1.71228307537554	-173.578059209211	-1.70371005525381	-173.490549031527	-26.5201586335809	-109.475610245674	
2041320000	-16.1098134840229	-27.9376981005706	-1.77820523632223	103.284103269436	-1.76769289008573	103.425536804101	-18.9861550861281	46.9215335586727	
2071310000	-19.0199903197718	-39.1671259037115	-1.74473042964062	20.475631561214	-1.74214281440505	20.6123463724973	-23.2392071994992	-71.3288921651855	
2101300000	-16.515524780136	-26.20625524263	-1.79599220437016	-62.7878384619165	-1.79236070563745	-62.6710566144192	-19.6538581012869	73.3227310681146	
2131290000	-18.0740672018269	-48.5715565956392	-1.79450882524571	-145.442669927866	-1.79276040662113	-145.325289341673	-20.4919230185488	-41.8399385626503	
2161280000	-17.7631388837189	-30.2370630671223	-1.80147440377117	131.175841173073	-1.8011680291295	131.310202122997	-22.197692200735	105.111107304431	
2191270000	-17.3076547277915	-54.4649942829309	-1.83276865086164	48.4938840379872	-1.82446368772909	48.6579466570775	-19.1952551083015	-18.1860424023073	
2221260000	-18.8313203847833	-36.426005109101	-1.81747556698224	-34.8451278523815	-1.8133847206356	-34.6874759498517	-25.8824731705203	142.144296392707	
2251250000	-16.9656070919296	-54.8293706752822	-1.86155646033793	-117.641029948765	-1.85860929022647	-117.486279815455	-18.7173748361566	4.85266012223881	
2281240000	-19.9128393991281	-39.7432631262772	-1.83696908417522	159.176303325229	-1.8309628608655	159.276601794183	-29.326811762842	-171.271793410193	
2311230000	-16.5999237933054	-50.7782383833175	-1.90324627653432	76.2629231039506	-1.89802415035945	76.3596501039167	-18.3534352091308	25.876058009934	
2341220000	-20.4219598267416	-52.712723209944	-1.86461176459578	-6.71273721179444	-1.86188089498312	-6.61773290978889	-26.7820105790896	-110.749971757323	
2371210000	-16.8338220152808	-49.1135939495803	-1.93117079135548	-89.8499524478109	-1.93007720224408	-89.7915823367243	-18.852878380165	47.8309918922571	
2401200000	-19.4725532322995	-67.2078428234768	-1.90687221291893	-172.614481436326	-1.90938873274422	-172.522105820028	-22.4229270754776	-72.954903917305	
2431190000	-17.2093840892933	-51.3267186337619	-1.95182029454952	104.078391322972	-1.94750232344547	104.10908472707	-20.5417064943512	70.975409731685	
2461180000	-18.2761876361711	-74.8479475130317	-1.94746488341146	21.4514779908528	-1.94311577912955	21.4810415387141	-19.9331521619472	-43.657794588408	
2491170000	-18.0944547680736	-53.1669995648056	-1.95494098030771	-61.9273868554355	-1.94586005834507	-61.8957818325233	-23.0340702814456	95.9666739756793	
2521160000	-17.7044549437661	-76.9149951731286	-1.98615301071478	-144.622503932707	-1.97886118208019	-144.569160587109	-18.8321300670931	-17.937569744176	
2551150000	-19.6987740401713	-56.396865718537	-1.96529137335789	132.033223159748	-1.9627717098751	132.09774084407	-26.0600795760788	131.453913799015	
2581140000	-17.3008264808269	-78.0296741631035	-2.02922079948065	49.2890183326374	-2.02946093807146	49.3127533957635	-18.3183650877539	4.89913109745589	
2611130000	-21.3775237225324	-69.8479097913681	-1.98937342050591	-33.8494013206291	-1.9787210649654	-33.8196542285471	-28.8130645265421	-164.818188737991	
2641120000	-17.0639351053436	-76.206493754659	-2.05700808714233	-116.909518795142	-2.05411665107695	-116.7909817033	-18.4210764727277	22.2199459739407	
2671110000	-20.9759547851338	-86.2229554903189	-2.01399426837815	160.256097000966	-2.0046346564006	160.355972302525	-25.0547809986933	-100.051804149768	
2701100000	-17.5147954643563	-73.189083180471	-2.06577508901389	77.0123984075346	-2.06184664773482	77.0694130484587	-19.5714750244925	39.4739807803677	
2731090000	-20.0758718286141	-90.294329199755	-2.04833725857495	-5.78066043080948	-2.04530342371015	-5.69673875435583	-22.5394812904981	-71.1051512381868	
2761080000	-17.7137899571346	-73.3053362464537	-2.09930084677164	-89.0998834042121	-2.09056948090445	-88.993832650409	-20.0054297262782	64.7565252157453	
2791070000	-19.079473286437	-103.965084855634	-2.09722427227921	-171.711650956908	-2.09061822825459	-171.568744324908	-19.8215470207466	-38.8610834122389	
2821060000	-20.1874731699067	-74.373645578322	-2.09691232720266	104.906276641272	-2.09255438404235	105.028005421581	-23.6622001929808	87.1440454975898	
2851050000	-17.9615170932297	-101.548722417855	-2.15101252356353	22.1923192030418	-2.14665491435227	22.3630454263085	-18.5759073795595	-25.2113572211972	
2881040000	-20.9988067506353	-87.1743574420966	-2.11403820148834	-60.994396151188	-2.11249279889393	-60.8544406522942	-27.9365663625712	138.522908278318	
2911030000	-17.3823686596644	-101.094361172612	-2.18230153103034	-143.847962641632	-2.17982402721726	-143.652862473413	-18.0080618872177	-4.92932736684264	
2941020000	-21.6377823132231	-100.115441887032	-2.1327969155163	133.12868070654	-2.13271949786279	133.296573060896	-28.8971970258223	-143.775446407434	
2971010000	-17.7733894719463	-97.3257055090195	-2.19267124100211	50.0598228108692	-2.18589477485597	50.2257325012915	-18.4777039159068	14.6174851901485	
3001000000	-21.5282086904299	-112.264432450951	-2.15473422866811	-32.8065272764215	-2.15344439675396	-32.6245989480239	-25.4462209298793	-101.816375609006	
3030990000	-18.5385811074976	-96.203801204359	-2.19954803250445	-116.079985051975	-2.20562493357241	-115.948188179158	-19.6416439313526	35.6754640516301	
3060980000	-20.2446863669887	-121.618908315264	-2.19593258629155	161.203221157876	-2.19648825088787	161.348348385508	-22.1858738803552	-77.6875343056708	
3090970000	-19.1178902712243	-99.9494145937915	-2.22487032639282	77.8352732159674	-2.22397915621523	77.9955148558019	-21.4430544259961	60.6028131701216	
3120960000	-18.8595035450858	-126.627324748776	-2.24719595414696	-4.79474134377373	-2.24073112093642	-4.61458488483253	-19.8101819571724	-51.4327860477637	
3150950000	-20.3224807545099	-104.013809731304	-2.24197817496008	-88.0969275747695	-2.23896001089464	-87.9392648477878	-24.8398429106944	85.5882115238016	
3180940000	-18.2210340953584	-125.559128119867	-2.28682881118864	-170.84895671913	-2.28645743728693	-170.660652906048	-18.5607535085747	-29.6554137568363	
3210930000	-21.7265162638742	-114.81134260284	-2.2597411115674	105.564966294225	-2.24852951282421	106.151897495991	-28.9853131317955	131.798862681364	
3240920000	-18.3981782827121	-126.294790668868	-2.31014566171307	23.0933252236556	-2.31327594725394	23.2955249690465	-18.8133751685266	-6.63315976445713	
3270910000	-23.1725265937419	-129.303779606956	-2.26996353483299	-59.9537610671269	-2.26694605212584	-59.7823472657355	-30.9588300950467	-162.113265478651	
3300900000	-18.3896345412126	-121.031312296802	-2.33476030656912	-143.128468423378	-2.3418134051843	-142.948818005548	-19.1889100677239	7.28365075853706	
3330890000	-20.9721933391511	-140.658855921174	-2.30301190991405	134.108682840797	-2.30621374917701	134.201222767012	-24.8366490163613	-114.232886045911	
3360880000	-18.8374770642593	-123.527395576591	-2.35231138046755	50.8543349562464	-2.34444579441051	51.0446401822237	-20.2308180490535	29.7282656415131	
3390870000	-20.437385732742	-146.078219789317	-2.34048127996175	-31.9005343793915	-2.33893953162396	-31.7145523625272	-22.5786273072929	-78.2936217314882	
3420860000	-19.5772761982765	-121.355903662093	-2.36642299491656	-115.183284911339	-2.37435701348133	-115.023447632684	-21.2053227254006	48.7367551343755	
3450850000	-19.1643266078052	-150.712768265388	-2.38403927037174	162.172537479038	-2.37876097747687	162.268653881197	-20.3280521179375	-52.7430181140526	
3480840000	-21.335863510353	-128.4296393704	-2.36593026553122	78.8120163275226	-2.36909802153674	78.8977914196644	-24.3780637565321	74.9799018051536	
3510830000	-18.515579992083	-152.80469202976	-2.41655813955917	-3.97999293435629	-2.41609472509489	-3.84407840066018	-19.4694222731287	-32.9776242318555	
3540820000	-22.8119214294134	-142.718842015457	-2.38324692944466	-87.208349640059	-2.38095712847174	-87.1091744373596	-30.6098078310885	116.094414716432	
3570810000	-18.4431952825316	-148.173428772521	-2.44968597195104	-170.119941722931	-2.44244401789196	-170.042504641974	-19.1258520222938	-18.1713773031998	
3600800000	-22.3719186309649	-153.316056329192	-2.42626092088016	106.870667364977	-2.41816757215084	106.919346711355	-31.7571574013359	-157.210170152322	
3630790000	-18.6561797814867	-145.840027015391	-2.48608353591893	23.8257428515527	-2.48550067560506	23.8687412935975	-19.068845488729	1.04644167977224	
3660780000	-22.0072024040004	-166.541039899795	-2.46198340582536	-58.9487821576453	-2.44820828830637	-58.9175263961529	-26.6764093118587	-102.047479052468	
3690770000	-19.6873557971912	-143.123076832191	-2.49098931575752	-142.218551994413	-2.49492113918819	-142.129239466167	-20.3724238784934	17.9356491290083	
3720760000	-20.417134841866	-171.115728195285	-2.48529391579607	135.044918752714	-2.48969471197294	135.131885254957	-23.5768270812336	-85.2856952806232	
3750750000	-20.3936255658798	-145.680588826889	-2.49553802957057	51.7529477529296	-2.49274434138863	51.9213651837403	-22.2075244486557	37.4784076174728	
3780740000	-19.2841156559517	-173.547618919428	-2.50713147877629	-30.9597253544985	-2.51150682242552	-30.8569859226795	-21.1950838827442	-63.7810037610488	
