!Agilent N9923A: A.07.32
!Date: Thursday, 02 June 2016 23:50:21
!Model: N9923A
!Serial: MY52412257
!GPS Latitude: 
!GPS Longitude: 
!GPS TimeStamp: 0001-01-01 00:00:00Z
!GPS Seconds Since Last Read: 0
!CHECKSUM:2136946042
!Correction: S12(ON U)
!S1P File: Measurement: S12:
# Hz S DB R 50
1950000000	-41.860387799617	-15.9302363274734
1953333333.33333	-40.6422013073808	-22.7789569374659
1956666666.66667	-40.7904633455051	-37.6540269631278
1960000000	-42.0260897563736	-46.5756487069239
1963333333.33333	-43.5150605950201	-50.4172596718257
1966666666.66667	-44.1289073210429	-44.2354142471167
1970000000	-43.7626429574951	-45.9098027071364
1973333333.33333	-44.0222792793293	-43.5729941799274
1976666666.66667	-43.1887003996326	-43.1367123183338
1980000000	-42.0053074150429	-45.8129770081085
1983333333.33333	-40.862488279843	-58.2799014633187
1986666666.66667	-41.4090021972404	-71.9329299208986
1990000000	-42.6689148082674	-78.5229749011727
1993333333.33333	-43.2205819040901	-78.9465407864641
1996666666.66667	-43.16069611159	-80.0927054439956
2000000000	-43.1629096820668	-87.4855641104067
2003333333.33333	-44.1912585035221	-92.4309026480516
2006666666.66667	-45.1313251954842	-93.5621163365322
2010000000	-44.6987895861674	-89.2764980860162
2013333333.33333	-44.0700369556946	-96.3543887006022
2016666666.66667	-45.0189522487439	-100.755517417525
2020000000	-45.2205905684697	-97.0581268227041
2023333333.33333	-44.3516854116702	-100.144485576654
2026666666.66666	-44.0316623573287	-108.333205241073
2030000000	-44.4223324140834	-112.854953904569
2033333333.33333	-44.1335194108815	-117.912920934902
2036666666.66666	-44.7709768263874	-126.921043436886
2040000000	-45.626186850564	-132.494362707936
2043333333.33333	-46.6643720471397	-134.618717221667
2046666666.66666	-47.6660609298859	-132.590316565352
2050000000	-47.669518676705	-127.009557723668
2053333333.33333	-46.1471385825627	-130.359029761608
2056666666.66666	-46.1061249908166	-138.644493336478
2060000000	-46.1259623313938	-150.601735083757
2063333333.33333	-47.378167991103	-160.431587654598
2066666666.66666	-49.2978307322284	-169.464634298418
2070000000	-51.8503845103659	-159.313754614019
2073333333.33333	-50.8291790996568	-156.433987401116
2076666666.66666	-49.7189881300316	-163.102652126081
2080000000	-49.9671046687833	179.817240049214
2083333333.33333	-52.6766553183423	168.288688600633
2086666666.66666	-53.3377270468976	155.337682496733
2090000000	-56.2788571831157	133.483416014116
2093333333.33333	-56.7984417690349	109.023410247665
2096666666.66666	-52.6182262700746	68.2390366350437
2100000000	-48.2831117769444	8.20645574262655
2103333333.33333	-47.5736725049319	-32.9514341645704
2106666666.66666	-49.5122269552385	-43.5246160567627
2110000000	-45.6841215056506	-50.1032747580275
2113333333.33333	-45.7111857207751	-74.1702169495517
2116666666.66666	-47.93881321658	-79.9752916131352
2120000000	-47.1500782882605	-59.8274980832491
2123333333.33333	-44.5340584710076	-62.2821432135364
2126666666.66666	-42.3408346949242	-72.6558897147612
2130000000	-42.5793549858509	-83.9652621287136
2133333333.33333	-41.4447774617627	-76.6969135577926
2136666666.66666	-38.6066238582459	-89.6885437569798
2140000000	-38.8984066576303	-107.702829115299
2143333333.33333	-39.9013140801923	-114.651705871932
2146666666.66666	-39.723678871666	-110.246185285584
2150000000	-38.4783067418345	-115.154126850813
2153333333.33333	-37.9446910390924	-118.792621083315
2156666666.66666	-36.6451975416257	-125.424012671183
2160000000	-35.8159416929394	-137.441472176411
2163333333.33333	-35.9043034465887	-151.328021335757
2166666666.66666	-36.5201176533105	-159.442956007873
2170000000	-37.1351965621095	-168.110871175473
2173333333.33333	-39.2659769200996	-169.25463361574
2176666666.66666	-38.7719585158233	-155.305951490132
2180000000	-36.8007400524198	-157.521909704653
2183333333.33333	-35.5301183720626	-167.267884595527
2186666666.66666	-35.2738383503294	-179.64855556075
2190000000	-35.8616335348148	170.550046365669
2193333333.33333	-36.4861932640312	167.133017271799
2196666666.66666	-36.7760292985875	163.371817124766
2200000000	-37.1892177970171	159.551696916816
2203333333.33333	-37.7061277305449	156.422666119963
2206666666.66666	-37.8612449427073	155.74432289474
2210000000	-38.3959736308007	158.468595178438
2213333333.33333	-37.162167702989	162.614836688105
2216666666.66667	-36.0605052898108	155.761314561454
2220000000	-35.4516464911137	148.303083030008
2223333333.33333	-35.4326383835662	140.217920024808
2226666666.66667	-35.335404522852	133.178314997813
2230000000	-35.8540388309869	123.314761374522
2233333333.33333	-37.0745909156506	120.82059708006
2236666666.66667	-37.282267852173	122.741581144247
2240000000	-36.8469624181865	119.733282032965
2243333333.33333	-37.3114864799585	114.233937595108
2246666666.66667	-38.0128162992929	118.06496043588
2250000000	-36.9698098334642	119.338592353929
2253333333.33333	-36.3349085471604	112.756281866808
2256666666.66667	-36.4520941204248	106.020424233743
2260000000	-36.3813835609199	101.553752109629
2263333333.33333	-36.9066767794361	95.5312275225995
2266666666.66667	-37.7414257246659	95.2407824551269
2270000000	-37.4813628750745	96.8637102483595
2273333333.33333	-36.787632507837	89.5953975139523
2276666666.66667	-37.7590330511421	84.5960511305542
2280000000	-38.6367516860848	88.0885569313543
2283333333.33333	-37.9145994793909	93.7389653976282
2286666666.66667	-37.1814627479759	88.7364922191528
2290000000	-36.922838291315	85.0542097321631
2293333333.33334	-36.7175831013579	80.887731306206
2296666666.66667	-36.8823025109197	75.2708224596331
2300000000	-37.4713483541508	75.4760663341802
2303333333.33334	-36.8447057564056	75.7302775418678
2306666666.66667	-36.2878257392669	73.1263603601884
2310000000	-36.3173414815233	66.429830152926
2313333333.33334	-36.4251711738445	64.7412665568602
2316666666.66667	-36.239683849683	62.3496158129039
2320000000	-36.3330515606655	59.9459443229418
2323333333.33334	-35.7947223228289	58.6272950398193
2326666666.66667	-35.2020850914606	49.7185799272246
2330000000	-36.6661712633102	40.1228090697737
2333333333.33334	-37.7934523418532	51.348573210791
2336666666.66667	-36.2855161712048	53.6371251448656
2340000000	-35.04579875988	48.5289333617054
2343333333.33334	-34.9184532200021	37.7664675604674
2346666666.66667	-35.7838427778194	32.179305093207
2350000000	-36.3600511143517	33.7216836420798
2353333333.33334	-35.7827472188477	37.8290689579328
2356666666.66667	-34.8208468066316	32.2444139137761
2360000000.00001	-34.5555469276775	23.7886934964996
2363333333.33334	-34.9787864563318	18.4992188335999
2366666666.66667	-35.4203592105991	14.2776884692883
2370000000.00001	-35.6807016786928	15.0805704794499
2373333333.33334	-35.1842301989229	12.3584145219353
2376666666.66667	-35.3378805736061	4.79601630196279
2380000000.00001	-36.2671041736706	3.37978983592737
2383333333.33334	-36.6935759172126	7.79975480296564
2386666666.66667	-36.183160441351	10.9633168841426
2390000000.00001	-35.2023409970809	9.45624110531432
2393333333.33334	-34.8305072356008	6.3352814315109
2396666666.66667	-34.1903236983036	2.23531424506197
2400000000.00001	-33.9536464538741	-3.07706868330275
2403333333.33334	-33.518766749033	-8.5039016894613
2406666666.66667	-33.5705759341521	-15.553273794305
2410000000.00001	-33.8100985526994	-19.9969387450183
2413333333.33334	-34.0734170092196	-25.1618348627214
2416666666.66667	-35.2866500921317	-28.9693522070117
2420000000.00001	-35.5834325316879	-21.6493582534238
2423333333.33334	-34.396335355038	-18.190093295195
2426666666.66668	-33.3199502715106	-23.3132645782198
2430000000.00001	-32.7634925275879	-30.6257827045402
2433333333.33334	-32.5431293960164	-38.2509609836646
2436666666.66668	-33.0055881673864	-44.6811926485347
2440000000.00001	-33.0178015516093	-47.2358285759003
2443333333.33334	-32.8539699265939	-53.0771653601772
2446666666.66668	-33.1283316119319	-58.048567770076
2450000000.00001	-33.785990962907	-63.8641123194368
2453333333.33334	-34.5656122467768	-64.8264547136404
2456666666.66668	-34.8267128746018	-64.4715696227847
2460000000.00001	-35.0586230275481	-66.1903326694094
2463333333.33334	-35.2639928958615	-65.4136846325336
2466666666.66668	-35.3833956227915	-60.3463974235411
2470000000.00001	-33.9551781402532	-57.0458280601225
2473333333.33334	-32.6158916727167	-64.9702376241591
2476666666.66668	-32.2497399705196	-73.2498026162324
2480000000.00001	-31.9389303576724	-83.8344168352648
2483333333.33334	-33.0490044269453	-92.7598434319729
2486666666.66668	-34.1440899442693	-92.0293806318165
2490000000.00001	-33.8828093028019	-89.0371541561165
2493333333.33334	-33.2748375734584	-93.9402559244642
2496666666.66668	-33.7926067944425	-99.4630858546114
2500000000.00001	-33.9698966617477	-96.0285451003974
2503333333.33335	-32.9878482687673	-98.4363355916734
2506666666.66668	-32.8313295771529	-106.90961611641
2510000000.00001	-33.2912158116464	-110.222959532308
2513333333.33335	-33.4143766954961	-113.332380584545
2516666666.66668	-33.518418883244	-112.890309422209
2520000000.00001	-32.8255329369524	-115.930354108699
2523333333.33335	-32.574570049838	-121.97852274329
2526666666.66668	-32.5139380766333	-128.870323029107
2530000000.00001	-32.9735116185191	-134.287465895057
2533333333.33335	-33.3369385398112	-138.996206795228
2536666666.66668	-33.5842721633638	-142.386532266494
2540000000.00001	-34.2483801719664	-145.731935259333
2543333333.33335	-34.5605953344426	-148.021654022919
2546666666.66668	-35.2158903691275	-150.09006532226
2550000000.00001	-35.5120461588068	-147.849264546139
2553333333.33335	-35.808593057894	-144.502331379703
2556666666.66668	-34.4843121715843	-140.838118366744
2560000000.00001	-33.3175643773836	-147.843775311833
2563333333.33335	-33.2964430540488	-156.665287583165
2566666666.66668	-33.2582183105888	-162.890060787989
2570000000.00002	-33.8755387277556	-173.58905060905
2573333333.33335	-35.805298903951	-175.13728302905
2576666666.66668	-36.3592709491848	-164.374692730584
2580000000.00002	-34.5825465607452	-161.816427056991
2583333333.33335	-34.0121751447532	-170.848332341789
2586666666.66668	-34.5169649358812	-175.683824089822
2590000000.00002	-34.1593309267607	-174.638296543929
2593333333.33335	-33.7723189324295	178.91337958257
2596666666.66668	-33.6626926061248	175.108447246497
2600000000.00002	-33.3147075128004	169.412150158152
2603333333.33335	-32.9763290776935	158.805908154305
2606666666.66668	-34.0988199238217	146.610791182235
2610000000.00002	-36.0029026793373	143.712874445283
2613333333.33335	-36.954867042464	147.751783161243
2616666666.66668	-37.0154387913437	151.390858768891
2620000000.00002	-37.1813916805689	146.641587090433
2623333333.33335	-37.8226640447265	152.610544288747
2626666666.66668	-37.2887897395778	154.562119998086
2630000000.00002	-36.7462794826282	155.449674381452
2633333333.33335	-35.5964852706927	151.830999234703
2636666666.66669	-35.8314048546541	141.774431841547
2640000000.00002	-36.7216340245881	139.223544434081
2643333333.33335	-36.6633987550825	141.508339940377
2646666666.66669	-36.1445461631988	138.927446838965
2650000000.00002	-36.1522235844537	133.6652300306
2653333333.33335	-36.2849568831598	128.111476190666
2656666666.66669	-37.1803904439149	124.424529741091
2660000000.00002	-38.0901196441847	128.771897355417
2663333333.33335	-37.5128976187279	134.922963690525
2666666666.66669	-36.1099363574805	131.930703532312
2670000000.00002	-35.6850523376016	123.31408079184
2673333333.33335	-35.9509304437527	116.408713940731
2676666666.66669	-37.1546947000645	112.755669447896
2680000000.00002	-36.743621643007	124.238396960644
2683333333.33335	-34.4037114183268	116.840864762858
2686666666.66669	-34.4102378507583	98.2613787262436
2690000000.00002	-36.3984659235501	87.7885098651147
2693333333.33335	-37.8248741598866	93.6468720887038
2696666666.66669	-37.2209312554266	96.8345310805513
2700000000.00002	-37.5511746256691	91.1432449553201
2703333333.33335	-38.2448760724293	95.2506019253304
2706666666.66669	-37.1427516956888	94.7735677239868
2710000000.00002	-37.3900640701756	87.7541514029724
2713333333.33336	-37.7241619506842	92.5479592393603
2716666666.66669	-36.3707791321992	90.6657269253858
2720000000.00002	-35.7920907254216	82.5428772738201
2723333333.33336	-36.2988929849119	73.4708612479075
2726666666.66669	-36.9109793031422	70.2816831800111
2730000000.00002	-37.110308221729	66.3473836509338
2733333333.33336	-37.4999340854961	63.6214858629662
2736666666.66669	-37.7163650639659	61.1452547658057
2740000000.00002	-38.0603675642596	55.3278186866492
2743333333.33336	-39.9214384429834	55.4185634611015
2746666666.66669	-39.8745167828265	73.6749678674067
2750000000.00002	-36.7144557837109	75.3465565989719
2753333333.33336	-35.3281946671285	60.8513037279092
2756666666.66669	-35.5463163445004	49.223230520327
2760000000.00002	-35.3478739213988	43.0654496163639
2763333333.33336	-35.3819018180229	32.1819871683398
2766666666.66669	-35.9112519321976	21.7540928643983
2770000000.00002	-36.2275855893538	15.5948293358369
2773333333.33336	-36.4600944218802	-0.303819300210783
2776666666.66669	-38.9057716781686	-16.3703157806456
2780000000.00003	-42.7049123807308	-22.0615283860835
2783333333.33336	-44.0635159230723	-0.109925070183724
2786666666.66669	-42.8790934785839	-9.71546101701517
2790000000.00003	-45.8421552719657	-37.1631029733886
2793333333.33336	-55.321800596807	-27.195084535092
2796666666.66669	-55.4791832147902	51.2536333276304
2800000000.00003	-52.0179944486338	76.9285440540701
2803333333.33336	-46.252851485873	80.0318031955229
2806666666.66669	-43.8408259204918	64.9884840674783
2810000000.00003	-43.4784536889578	58.9830230715752
2813333333.33336	-42.2117740613526	58.2714690080726
2816666666.66669	-41.0024277840156	46.7577360797149
2820000000.00003	-41.4790508363219	35.7031412665861
2823333333.33336	-42.6577616221378	40.5112978275177
2826666666.66669	-42.047370047222	45.2403300029553
2830000000.00003	-40.8647443573429	45.8937036758635
2833333333.33336	-39.3460256507779	39.156866379418
2836666666.66669	-39.2983804915051	34.950421997547
2840000000.00003	-37.6217379019995	29.9936589779313
2843333333.33336	-37.2059891093387	12.2220358374954
2846666666.6667	-38.4696392658328	0.123076317785764
2850000000.00003	-39.3286886256031	-3.61403832306073
2853333333.33336	-41.2303020270812	-6.33436165790566
2856666666.6667	-41.7483329062025	-2.29030371468352
2860000000.00003	-42.5079874255223	0.995873297884191
2863333333.33336	-42.1487349599847	6.15490799337284
2866666666.6667	-41.7403840052585	6.03092734149578
2870000000.00003	-41.8214439956452	14.5013156473053
2873333333.33336	-38.9562687251222	14.9038422887825
2876666666.6667	-37.4837925398212	-0.204101884050868
2880000000.00003	-38.2562412219614	-11.9943477725857
2883333333.33336	-38.3700390872789	-16.1452017273273
2886666666.6667	-38.3476235064761	-24.0998321978846
2890000000.00003	-38.6506142823724	-32.7286700673659
2893333333.33336	-39.3829422423207	-42.1030090678104
2896666666.6667	-41.6723662164769	-53.577044233037
2900000000.00003	-46.6872030593572	-39.4370602385374
2903333333.33336	-42.879730613087	-4.76638681806021
2906666666.6667	-40.5272921465162	-15.8369656435281
2910000000.00003	-40.4103132238896	-25.1531744584005
2913333333.33336	-40.754859751599	-23.8851643515719
2916666666.6667	-39.7585091636473	-21.877691911651
2920000000.00003	-37.9708723805584	-27.0952026663503
2923333333.33337	-37.0456114564006	-40.2940062189156
2926666666.6667	-37.0486010537483	-53.2327394285591
2930000000.00003	-37.9752494718126	-69.3831973577391
2933333333.33337	-40.2377387559243	-75.5440798810463
2936666666.6667	-41.5741225281448	-72.1303172642346
2940000000.00003	-42.8679404273018	-74.7804481725451
2943333333.33337	-43.4941674862189	-67.3711680963538
2946666666.6667	-43.2304282842452	-61.974421796234
2950000000.00003	-43.6009134190953	-59.3337317526961
