!Agilent N9923A: A.07.32
!Date: Thursday, 02 June 2016 22:56:42
!Model: N9923A
!Serial: MY52412257
!GPS Latitude: 
!GPS Longitude: 
!GPS TimeStamp: 0001-01-01 00:00:00Z
!GPS Seconds Since Last Read: 0
!CHECKSUM:0493161398
!Correction: S11(ON U)
!S1P File: Measurement: S11:
# Hz S DB R 50
1950000000	-1.61176183832429	33.298700673829
1953333333.33333	-1.61773957728807	29.7067259870208
1956666666.66667	-1.64193119092315	26.1522924025212
1960000000	-1.67574548400386	22.612087133419
1963333333.33333	-1.71341231970952	19.1113665825194
1966666666.66667	-1.77301375236447	15.6030055403352
1970000000	-1.81174511000895	12.2245131807966
1973333333.33333	-1.82970501180317	8.70895585828052
1976666666.66667	-1.85743472114933	5.10734678497654
1980000000	-1.8875818397705	1.66276771517062
1983333333.33333	-1.8897263465394	-1.64919285000799
1986666666.66667	-1.87607177089588	-4.90175655602621
1990000000	-1.86632324389177	-8.15480271644034
1993333333.33333	-1.86097916540464	-11.1891044449769
1996666666.66667	-1.85135711095689	-14.1321468424398
2000000000	-1.83961511419652	-17.0114598686161
2003333333.33333	-1.83762432275299	-19.8138522197596
2006666666.66667	-1.83542124421486	-22.4827314961236
2010000000	-1.83777855495886	-25.1075040951781
2013333333.33333	-1.86372938317546	-27.8146651513261
2016666666.66667	-1.89248605100404	-30.3743681630641
2020000000	-1.9346955657145	-33.1415676503901
2023333333.33333	-2.00321924878435	-35.9135313501031
2026666666.66666	-2.07239205373071	-38.6194558439673
2030000000	-2.13000212290914	-41.3626106134669
2033333333.33333	-2.18511432263669	-44.211474616476
2036666666.66666	-2.23606377245473	-46.9098358168336
2040000000	-2.28781491357307	-49.6117170242332
2043333333.33333	-2.32561852856661	-52.291730049149
2046666666.66666	-2.36767936857393	-54.96464712261
2050000000	-2.43263352084565	-57.5953096162779
2053333333.33333	-2.50281222206339	-60.2942064756049
2056666666.66666	-2.62208261511798	-62.9912501742588
2060000000	-2.7615914476633	-65.6319003297167
2063333333.33333	-2.94646681201028	-68.3455173957742
2066666666.66666	-3.19431448684092	-70.902817460666
2070000000	-3.45493915716469	-73.2979569154082
2073333333.33333	-3.73482093835858	-76.0924890990286
2076666666.66666	-4.13201046323535	-79.1017230223589
2080000000	-4.61514794005429	-81.9758307755557
2083333333.33333	-5.17704099980106	-85.002609484747
2086666666.66666	-5.89944222583555	-87.607106011599
2090000000	-6.73080181160166	-89.5999540585602
2093333333.33333	-7.69066052992014	-90.6313144875195
2096666666.66666	-8.79548950883921	-89.8384584822392
2100000000	-9.83047682194521	-86.8014793956089
2103333333.33333	-10.7861624326316	-81.7642757965664
2106666666.66666	-11.5730716187943	-74.0077346411847
2110000000	-11.7657091511047	-63.8639025633368
2113333333.33333	-11.4189988091106	-54.4785156721652
2116666666.66666	-10.6637216356082	-46.79567941536
2120000000	-9.67162717719555	-41.4390788587552
2123333333.33333	-8.65806827298981	-38.7859528967707
2126666666.66666	-7.79918958437082	-37.7745305188161
2130000000	-7.04907359569235	-37.2572939424893
2133333333.33333	-6.32614569625353	-37.7288128562902
2136666666.66666	-5.74347449071729	-39.2317931697794
2140000000	-5.33345659618315	-40.8668389529609
2143333333.33333	-4.95195156705024	-42.4248150420745
2146666666.66666	-4.67241604535226	-44.3246454152467
2150000000	-4.43387928916264	-46.0547878802311
2153333333.33333	-4.20698539084735	-47.9058381973737
2156666666.66666	-4.00251943176344	-49.6688641951623
2160000000	-3.79881767127249	-51.4179023806546
2163333333.33333	-3.60474094723892	-53.1966781964761
2166666666.66666	-3.42332155231283	-54.9850241917199
2170000000	-3.26505037063035	-56.7016998737024
2173333333.33333	-3.13995862099162	-58.2976099275877
2176666666.66666	-3.03176853403851	-59.7331632034336
2180000000	-2.94683030546536	-61.0670943568499
2183333333.33333	-2.87830231689418	-62.0579544698046
2186666666.66666	-2.77036357642862	-63.1767414542713
2190000000	-2.70524723145662	-64.3646792703818
2193333333.33333	-2.65950723582397	-65.5772472833574
2196666666.66666	-2.63351010433177	-66.5166268599101
2200000000	-2.60547426224047	-67.7400268499637
2203333333.33333	-2.61096679079711	-68.7626816144392
2206666666.66666	-2.60088769126109	-69.7711847762357
2210000000	-2.58589330673949	-71.005503498543
2213333333.33333	-2.60742993819131	-72.2563942860853
2216666666.66667	-2.59869440100045	-73.3030599537254
2220000000	-2.57032157840604	-74.424036796518
2223333333.33333	-2.54525399437808	-75.4991849148566
2226666666.66667	-2.51230107012065	-76.5463117980217
2230000000	-2.48152081986877	-77.4303589025738
2233333333.33333	-2.43240481129015	-78.1536813242673
2236666666.66667	-2.37194067593358	-78.9313290678663
2240000000	-2.31915913079025	-79.7887800995336
2243333333.33333	-2.31094290343449	-80.761639834823
2246666666.66667	-2.33215830516931	-81.482200083893
2250000000	-2.33849329052821	-82.0717125123286
2253333333.33333	-2.33391566434751	-82.6772982593778
2256666666.66667	-2.32083578752728	-83.504198869392
2260000000	-2.35581784397929	-84.3402674946474
2263333333.33333	-2.41022038417323	-85.2115663574021
2266666666.66667	-2.45265343455825	-85.9263104026029
2270000000	-2.49114752665005	-86.7055869568572
2273333333.33333	-2.52399168112349	-87.4833555851212
2276666666.66667	-2.5357395581431	-88.3091543417306
2280000000	-2.53569602042724	-89.1007656795392
2283333333.33333	-2.51335528005588	-89.964565141008
2286666666.66667	-2.49200904711324	-90.8687594039574
2290000000	-2.47842671694701	-91.6937749760091
2293333333.33334	-2.46179103177374	-92.4754980595719
2296666666.66667	-2.46737106945065	-93.2076088944305
2300000000	-2.49347634098629	-93.5980520300243
2303333333.33334	-2.4727241341491	-93.8891284271623
2306666666.66667	-2.46272021854815	-94.3980156243471
2310000000	-2.49015661297038	-95.0150870444647
2313333333.33334	-2.54187121470112	-95.4254273398633
2316666666.66667	-2.5605530182192	-95.6882262560626
2320000000	-2.56384886637711	-96.2499871412521
2323333333.33334	-2.59571944784	-97.0423938327824
2326666666.66667	-2.64305226034165	-97.8830998643463
2330000000	-2.73149208101983	-98.7348172724196
2333333333.33334	-2.81014334459059	-99.3386987127361
2336666666.66667	-2.85473264874754	-99.8202884314513
2340000000	-2.85218957721578	-100.518818259844
2343333333.33334	-2.86663312633749	-101.327989796331
2346666666.66667	-2.87506607767674	-102.078961178365
2350000000	-2.87208436393457	-102.819107896785
2353333333.33334	-2.8772497760337	-103.410963874758
2356666666.66667	-2.86043332667646	-103.941527015108
2360000000.00001	-2.87172983017442	-104.548471541702
2363333333.33334	-2.9060945580241	-105.016314639653
2366666666.66667	-2.96700556113955	-105.283746012939
2370000000.00001	-3.0002359901453	-105.363411650023
2373333333.33334	-3.0155093013506	-105.538619750906
2376666666.66667	-3.05324179012344	-105.968787473841
2380000000.00001	-3.13213574949555	-106.407977894532
2383333333.33334	-3.19622933285203	-106.758906532353
2386666666.66667	-3.25550612655988	-107.072052307965
2390000000.00001	-3.27837217976793	-107.68061810967
2393333333.33334	-3.32694901906043	-108.611130010813
2396666666.66667	-3.41444164297656	-109.509519190296
2400000000.00001	-3.49955556962224	-110.210016171899
2403333333.33334	-3.55434791874974	-110.758237615661
2406666666.66667	-3.57515860205383	-111.454940613455
2410000000.00001	-3.61767657994173	-112.136759540481
2413333333.33334	-3.66566674100418	-112.676664130774
2416666666.66667	-3.69470270693131	-112.870122624324
2420000000.00001	-3.70260016380859	-113.112018418852
2423333333.33334	-3.69666863660789	-113.325783807659
2426666666.66668	-3.71146649164823	-113.794676844094
2430000000.00001	-3.78899724064384	-114.015184691404
2433333333.33334	-3.8535092034426	-114.213119294253
2436666666.66668	-3.94991923159889	-114.310240748755
2440000000.00001	-4.0452579990006	-114.347787649088
2443333333.33334	-4.13594040923321	-114.473200316011
2446666666.66668	-4.23632600343684	-114.660948334565
2450000000.00001	-4.3298840668155	-114.871607757012
2453333333.33334	-4.42469237465487	-115.244550700065
2456666666.66668	-4.49732275086978	-115.529610008179
2460000000.00001	-4.54342010323366	-116.080522428366
2463333333.33334	-4.60288346151896	-116.928470730605
2466666666.66668	-4.71723788964172	-117.440447658613
2470000000.00001	-4.76407410842863	-117.500459447417
2473333333.33334	-4.75182474095043	-117.856240829808
2476666666.66668	-4.76305421196071	-118.422684898026
2480000000.00001	-4.83944890567881	-118.814939015212
2483333333.33334	-4.92183890169365	-118.509646780416
2486666666.66668	-4.8869481566931	-118.11360279848
2490000000.00001	-4.87914389914092	-118.383798919323
2493333333.33334	-4.97227072911428	-118.551368956538
2496666666.66668	-5.08809896122751	-118.235579036304
2500000000.00001	-5.16499178545724	-117.780259913139
2503333333.33335	-5.20895279467158	-117.705308933625
2506666666.66668	-5.3096694552243	-117.817562134122
2510000000.00001	-5.43115902660415	-117.855615375374
2513333333.33335	-5.58220584555504	-117.925412405343
2516666666.66668	-5.69426172541077	-117.575486933416
2520000000.00001	-5.71382914058738	-117.621395476743
2523333333.33335	-5.77614187106935	-118.190328311346
2526666666.66668	-5.86949740184921	-118.48136178961
2530000000.00001	-5.90177442337904	-118.603987251845
2533333333.33335	-5.91667060599915	-118.816363049002
2536666666.66668	-5.93167762175609	-118.956080801025
2540000000.00001	-5.93119808090174	-119.192304766859
2543333333.33335	-5.98415548068447	-119.291140735867
2546666666.66668	-6.04829179920277	-118.611953155769
2550000000.00001	-5.98103576152346	-117.864443540364
2553333333.33335	-5.93261728886192	-117.605288294912
2556666666.66668	-5.91644272740254	-117.548876482481
2560000000.00001	-5.97137041902225	-117.465986488662
2563333333.33335	-6.06420175883693	-117.192867285677
2566666666.66668	-6.15179075464857	-116.71205961655
2570000000.00002	-6.24745629647134	-116.256797691883
2573333333.33335	-6.29825355208054	-115.76035544593
2576666666.66668	-6.32978561754504	-115.871672253434
2580000000.00002	-6.47456124154496	-115.981081230692
2583333333.33335	-6.53620352210751	-115.427256391174
2586666666.66668	-6.48206547524195	-115.54567694177
2590000000.00002	-6.52959683326726	-116.518716676457
2593333333.33335	-6.64863312680537	-116.494809420241
2596666666.66668	-6.66106456960079	-116.201786242001
2600000000.00002	-6.63544399060897	-115.949163930345
2603333333.33335	-6.54950640346607	-115.704738372719
2606666666.66668	-6.46104022521127	-115.929294995382
2610000000.00002	-6.47576993612953	-116.032940824137
2613333333.33335	-6.52346403248829	-115.465925335315
2616666666.66668	-6.44756226288838	-114.401993957111
2620000000.00002	-6.35151894295357	-114.13649379141
2623333333.33335	-6.31512426653141	-113.989510461607
2626666666.66668	-6.31278865539589	-113.846553459749
2630000000.00002	-6.3406173671424	-113.839697589466
2633333333.33335	-6.42229848894431	-113.686310438129
2636666666.66669	-6.48351527732484	-113.515353461002
2640000000.00002	-6.56537071325955	-113.492733846134
2643333333.33335	-6.63951883617762	-113.382784739379
2646666666.66669	-6.70599909916916	-113.177139310692
2650000000.00002	-6.71057102896219	-112.969208719852
2653333333.33335	-6.68757881117463	-112.876281893416
2656666666.66669	-6.60175352056845	-112.88443298811
2660000000.00002	-6.51102379676058	-113.614805913128
2663333333.33335	-6.5249353843945	-114.337581138832
2666666666.66669	-6.53985929464252	-114.101031141745
2670000000.00002	-6.47042299377787	-114.032071076628
2673333333.33335	-6.43916411652144	-114.305434599783
2676666666.66669	-6.48190885844673	-113.986970262711
2680000000.00002	-6.45649563208097	-113.326834201695
2683333333.33335	-6.42605137812545	-112.684405959345
2686666666.66669	-6.37188095077801	-112.027102240118
2690000000.00002	-6.30193026587142	-111.782726499408
2693333333.33335	-6.28794248808123	-111.703294902897
2696666666.66669	-6.26699419339886	-111.855515389456
2700000000.00002	-6.32717315613597	-112.242218703133
2703333333.33335	-6.41858971833232	-112.388253239637
2706666666.66669	-6.51038754387143	-112.476284259477
2710000000.00002	-6.5993953496439	-112.315012035932
2713333333.33336	-6.59727315258267	-112.171841431447
2716666666.66669	-6.58937118366761	-112.193459242614
2720000000.00002	-6.54303496266678	-112.219802478021
2723333333.33336	-6.48785529576057	-112.384602149812
2726666666.66669	-6.42135736919398	-112.587561464246
2730000000.00002	-6.35313422881771	-113.076895126959
2733333333.33336	-6.35115370381304	-113.117032076539
2736666666.66669	-6.32284822226602	-112.974937702087
2740000000.00002	-6.31201613825793	-112.571711970874
2743333333.33336	-6.26229554150187	-112.202218093892
2746666666.66669	-6.22693917388891	-111.662130590185
2750000000.00002	-6.1755001771639	-111.187224500423
2753333333.33336	-6.13245080319753	-111.008001898631
2756666666.66669	-6.13911780810624	-110.912386073109
2760000000.00002	-6.15655969551914	-110.747814637623
2763333333.33336	-6.18255148609921	-110.689238303402
2766666666.66669	-6.2053124448304	-110.571654343312
2770000000.00002	-6.2482596462544	-110.40075913302
2773333333.33336	-6.24513754466926	-110.062334636102
2776666666.66669	-6.17935479399908	-109.775350299354
2780000000.00003	-6.06135232798283	-109.662012883518
2783333333.33336	-5.90493645520379	-109.848476960185
2786666666.66669	-5.75861940509221	-110.169519187119
2790000000.00003	-5.57695594038942	-110.166979367723
2793333333.33336	-5.24529016640014	-110.306944995087
2796666666.66669	-4.801400868125	-112.062480380639
2800000000.00003	-4.58943311763145	-116.080520710267
2803333333.33336	-4.87598008839005	-119.63106912055
2806666666.66669	-5.31440815405253	-120.706976749094
2810000000.00003	-5.67731857352125	-120.199872489188
2813333333.33336	-5.88179111013679	-119.215826384886
2816666666.66669	-6.01065011820934	-118.39137636111
2820000000.00003	-6.11931467665184	-117.67575350456
2823333333.33336	-6.20854013664972	-117.179983208999
2826666666.66669	-6.30946122534395	-116.612030732154
2830000000.00003	-6.32824301542233	-116.152584014508
2833333333.33336	-6.39250511908443	-116.335128304652
2836666666.66669	-6.46110993860133	-116.065439468456
2840000000.00003	-6.43456060657679	-115.962407618448
2843333333.33336	-6.42598460173386	-116.245854055156
2846666666.6667	-6.44633670895347	-116.426145534106
2850000000.00003	-6.43625345272176	-116.424819670667
2853333333.33336	-6.41444586109988	-116.414345214917
2856666666.6667	-6.39576526837971	-116.407134376767
2860000000.00003	-6.39537047143728	-115.969249704744
2863333333.33336	-6.32757562398766	-115.411195272863
2866666666.6667	-6.24988118452651	-115.363099149519
2870000000.00003	-6.25304649002191	-115.010263775578
2873333333.33336	-6.20924778530149	-114.658830873087
2876666666.6667	-6.21810912961708	-114.766105783615
2880000000.00003	-6.31803268395648	-114.303478365849
2883333333.33336	-6.35884872004888	-113.681839268905
2886666666.6667	-6.36395512586999	-113.419443771861
2890000000.00003	-6.43073171080475	-113.339852564239
2893333333.33336	-6.47359381180535	-112.862193203326
2896666666.6667	-6.45739709538616	-112.92234070341
2900000000.00003	-6.52005122616437	-113.098267850539
2903333333.33336	-6.53585049181204	-112.891671883269
2906666666.6667	-6.50379518311395	-113.000579538565
2910000000.00003	-6.48626642264564	-112.989031633255
2913333333.33336	-6.44955106247346	-113.020147790421
2916666666.6667	-6.3899978640345	-112.730492168409
2920000000.00003	-6.28421572965695	-112.941869085331
2923333333.33337	-6.29034791348693	-113.035382924061
2926666666.6667	-6.28016599051804	-112.5354398254
2930000000.00003	-6.23739462240093	-112.112144954088
2933333333.33337	-6.23649417351122	-111.421893543235
2936666666.6667	-6.19376553206208	-110.537559276923
2940000000.00003	-6.12703094421209	-110.104816508231
2943333333.33337	-6.12681248123168	-109.634302873944
2946666666.6667	-6.13282847755909	-109.108374454666
2950000000.00003	-6.13173849486022	-108.654126977572
