!Agilent N9923A: A.07.32
!Date: Thursday, 02 June 2016 23:50:24
!Model: N9923A
!Serial: MY52412257
!GPS Latitude: 
!GPS Longitude: 
!GPS TimeStamp: 0001-01-01 00:00:00Z
!GPS Seconds Since Last Read: 0
!CHECKSUM:0527523443
!Correction: S11(ON U)S21(ON U)S12(ON U)S22(ON U)
!S2P File: Measurements:S11,S21,S12,S22:
# Hz S DB R 50
1950000000	-1.48308166654798	28.1021595607798	-41.7286485748945	-14.2330915672471	-41.7444674722175	-13.6602820376773	-1.68450825530022	26.281009030369	
1953333333.33333	-1.49655011183054	24.7492536301281	-40.5498997790658	-22.9492239001258	-40.6075132257166	-21.8527102059038	-1.65113192378825	23.3660220528659	
1956666666.66667	-1.52287660312935	21.5099642854756	-40.7788461640554	-38.4057928966997	-40.772180181823	-37.2356945490092	-1.60612952878396	20.5071549452798	
1960000000	-1.59393472243756	18.2447471723553	-42.0721068588788	-46.9337685613543	-42.1279130742846	-46.532423203252	-1.57257266724022	17.7015029830491	
1963333333.33333	-1.6674095637223	14.9300114168872	-43.764620360985	-49.9071602048761	-43.5986793371821	-48.8347456856793	-1.5528171436616	14.9541579700382	
1966666666.66667	-1.76072829246235	11.5092873012267	-44.1888051402543	-43.6241637992045	-44.1009217065089	-43.4185102663697	-1.54762274891233	12.3458929791752	
1970000000	-1.86280337732805	8.00366047059152	-43.9226697654789	-46.8205849363574	-43.6032653258126	-45.876219814298	-1.5602721071219	9.85506614963294	
1973333333.33333	-1.93239214547237	4.49895233175375	-44.1091201684177	-44.5918134728165	-43.9341660916896	-42.4232200127075	-1.57042027309862	7.45854057039197	
1976666666.66667	-1.99202302090526	0.804545316980251	-43.3162401860319	-43.3568846109449	-43.2609964101103	-43.0923340915171	-1.5892079884819	5.12267296919559	
1980000000	-2.02154978253701	-2.78093986911496	-41.8300247716102	-45.020091703365	-41.9485115001211	-44.7887040736721	-1.60989903054273	2.7738184879806	
1983333333.33333	-2.00902896967069	-6.33882241656727	-40.7612591724441	-59.1330646137478	-40.9169838220976	-58.2228785128756	-1.64654883962657	0.443704087199222	
1986666666.66667	-1.96670644657088	-9.77900974572139	-41.1985206069684	-71.0116722804841	-41.2009959419474	-71.0045392068076	-1.67815685559407	-1.9602409884289	
1990000000	-1.92029441965607	-13.0860831134294	-42.5078989123173	-79.2479957973347	-42.5512627668681	-78.2647938781342	-1.72429281313976	-4.2993179310264	
1993333333.33333	-1.86146503959224	-16.1337675728326	-43.3034963334342	-79.1267929466229	-43.0262730146122	-78.5404879870567	-1.76813060967434	-6.69510200398444	
1996666666.66667	-1.8061136862484	-18.9970604281078	-43.0690689594015	-81.527421517568	-43.1245901735026	-80.3960199510513	-1.81930358037304	-9.11772056665023	
2000000000	-1.76272019083206	-21.6912765902296	-43.0892593857601	-87.4418372105241	-43.0400583220085	-86.5563539263759	-1.86169443450116	-11.4321986197662	
2003333333.33333	-1.73207878067598	-24.1616701885953	-44.1008821727155	-92.8062153254335	-44.1375487403587	-92.4316655760816	-1.87372817344732	-13.7963165774958	
2006666666.66667	-1.71098335146212	-26.5891688657664	-44.8573073852162	-92.873285356	-44.6986593506566	-92.6039439858593	-1.89744505489486	-16.1351839281937	
2010000000	-1.726510704238	-28.9377618134642	-44.738687511459	-90.2342301727007	-44.3828730902177	-90.6414685979643	-1.89653793952645	-18.484105211211	
2013333333.33333	-1.77862571076082	-31.354392748409	-44.1461269570136	-97.7769147307872	-44.0223077766937	-96.9801983155048	-1.89248012423496	-20.7193603472576	
2016666666.66667	-1.85109664222719	-33.7764099798285	-44.9859199681368	-102.131563636105	-45.0817771850297	-101.384318810442	-1.86733491702465	-22.996277151875	
2020000000	-1.93330129606542	-36.2951842964557	-45.1112926202893	-98.1085102918953	-45.2739353360734	-98.2610509361984	-1.84570717901192	-25.1688051345693	
2023333333.33333	-2.04986102015305	-39.021273644216	-44.4723488925056	-101.229406601452	-44.3723135506175	-100.406082482986	-1.83367626333898	-27.201276969574	
2026666666.66666	-2.1318304932605	-41.9114961052806	-43.8643766029275	-108.512902502544	-43.9566038560162	-108.888726477385	-1.81182391082219	-29.0251374345966	
2030000000	-2.23876080193479	-44.8846113520971	-44.4398619249327	-113.951591368378	-44.4026650029955	-112.524004927634	-1.75599472443457	-30.7777926411763	
2033333333.33333	-2.31001531655712	-47.9284571022146	-44.1808072059066	-118.948862983245	-44.3495094948066	-118.676728503468	-1.70317254162864	-32.5565498648041	
2036666666.66666	-2.36106231422014	-50.9468481555877	-44.9350631703022	-127.056465811051	-44.7605370194099	-125.952445100517	-1.66756759888283	-34.2650027793541	
2040000000	-2.40914457817134	-53.9468216742105	-45.6464266737929	-132.244440707837	-45.3631816772192	-131.42279419722	-1.64655036323697	-35.7965050664915	
2043333333.33333	-2.43649065546737	-56.691933261699	-47.0765218057458	-135.458602094415	-46.7833014849102	-135.709426764525	-1.61693591758051	-37.2752570568789	
2046666666.66666	-2.4352486672531	-59.3027875388897	-47.2479157169386	-131.798987027352	-47.4976613052599	-130.629067588245	-1.58477491125243	-38.7289483493054	
2050000000	-2.43134560431414	-61.8488134070164	-47.6895010911332	-127.314173398262	-47.5388980690503	-125.505753761405	-1.57181601720013	-40.1441781985666	
2053333333.33333	-2.45000816232141	-64.4297927112136	-45.7658975490536	-131.758819902333	-46.0215453880143	-129.510166745964	-1.57682051652633	-41.5655448166175	
2056666666.66666	-2.50137190348482	-66.9505442626952	-46.0156402360999	-138.217895043547	-45.9982197067111	-138.996026755433	-1.58626979942971	-42.8822442440527	
2060000000	-2.61975058820434	-69.4719215443972	-46.2927490069041	-151.199747344142	-45.9896595873367	-149.117256365233	-1.60467217992807	-44.1907450566106	
2063333333.33333	-2.78382411670178	-71.9361011682949	-47.2530726230087	-161.420078307728	-47.1132824504578	-158.512497848895	-1.61965206567572	-45.5864239836857	
2066666666.66666	-3.00760299285729	-74.4171765252694	-49.3417140610586	-168.184245589179	-49.5240589398693	-169.679781601942	-1.65770180075855	-47.0485397096533	
2070000000	-3.31667174806806	-77.1847381248843	-51.5532531477758	-161.242510603301	-52.0758294416372	-157.233173356241	-1.72363435412028	-48.5244180846339	
2073333333.33333	-3.73553179286069	-79.9644881098987	-50.8357628174945	-154.994408592978	-50.7805546160427	-155.635494918702	-1.79107432898544	-49.8580267748513	
2076666666.66666	-4.25010464621132	-82.4743202030601	-49.6633824330658	-161.764873409883	-49.3913097618667	-162.460629573492	-1.84113437318991	-51.2338904603663	
2080000000	-4.76592817340026	-85.0231571466357	-49.5925327259005	-177.36497717211	-50.2024951929819	-179.5111278923	-1.88818866068187	-52.7208883957199	
2083333333.33333	-5.31325305088199	-87.5805608162399	-51.9441347223668	170.734689729383	-52.5969590365904	168.871161254924	-1.94294720399915	-54.4442575606308	
2086666666.66666	-5.87238679655909	-90.7588040425076	-52.5066694292022	157.520086012252	-52.6590841351463	156.950268078669	-2.02430515139019	-56.1283069328434	
2090000000	-6.60920659876801	-94.3579709654721	-55.0581327350759	139.024744327173	-55.6539972473115	142.322120109253	-2.08671325535917	-57.6568398488917	
2093333333.33333	-7.56822406736582	-97.1117504055683	-55.9779943445753	121.374014450057	-55.5950805065435	114.269027638551	-2.13349841261819	-59.1966919590098	
2096666666.66666	-8.59118250052342	-98.4058013316004	-51.6276300553753	78.4215512288605	-51.8684639591506	73.3991142532082	-2.15616636346649	-60.8037152981274	
2100000000	-9.80493824559276	-98.4451816098182	-47.7235163906636	12.9776800350145	-47.8663370085392	12.5759837692589	-2.20098475339435	-62.5310398710586	
2103333333.33333	-11.1315330444184	-94.6817151349444	-47.6223204502738	-28.4098746198486	-47.3285477890713	-28.5717714343784	-2.2576960591646	-64.0846614964114	
2106666666.66666	-12.1962993530762	-86.5805026799684	-49.4394501536683	-39.5629848346538	-49.1002292870756	-37.8192151713574	-2.28971825502467	-65.3511501528517	
2110000000	-12.7041970574119	-75.9706570613205	-45.6928020159757	-49.168691078367	-45.5942964906264	-47.7447034756496	-2.27636301544688	-66.742520682344	
2113333333.33333	-12.5945953297689	-64.4062114737619	-45.8062189238486	-74.8104837244292	-45.4137214076516	-73.4980824156086	-2.28418929301083	-68.2827994370233	
2116666666.66666	-11.8934682806742	-53.3803605663365	-49.031708593417	-82.2236462186317	-48.4770569399088	-79.5515012375697	-2.33170633080154	-69.7805059561422	
2120000000	-10.7255320851895	-45.7782768175688	-47.5579683355324	-59.0064393560836	-47.2329844292374	-59.3452122647139	-2.40120166065908	-70.9674554619497	
2123333333.33333	-9.63088766512616	-41.3197606543523	-44.8938788643439	-59.9811189336531	-45.097686612141	-60.4014670335047	-2.46191714721197	-72.0042506509132	
2126666666.66666	-8.59707361737335	-38.4408325553337	-42.3815186154884	-70.4487390485173	-42.2976361061	-70.8415714461588	-2.54157993705704	-72.9347869332378	
2130000000	-7.64658661659039	-37.1282884373232	-42.7157475002802	-84.8194453279878	-42.7625004376398	-82.9179834416914	-2.61863122558587	-73.7384434643581	
2133333333.33333	-6.87408462442266	-37.4985860931975	-41.4756841545074	-74.856733739658	-41.6446077537961	-75.5364020907425	-2.72611379730501	-74.6028323650409	
2136666666.66666	-6.30294815115666	-38.3550317808503	-38.7439621987728	-88.6409708494611	-38.7631526267225	-88.8640401317107	-2.86530943687926	-75.2025031643224	
2140000000	-5.87581352661015	-39.4017708976095	-38.9348629811929	-107.231568331438	-38.9461223570983	-106.72570393178	-3.01274119388199	-75.7162233538874	
2143333333.33333	-5.50499699636577	-40.7665949200484	-39.9908170924023	-113.977922954582	-39.968424042545	-112.2809147272	-3.21095268881534	-76.0822071747396	
2146666666.66666	-5.1483343959075	-42.3187612451886	-39.7713166153684	-109.617608913028	-39.690917620041	-109.891670012982	-3.43403806397658	-76.066093645673	
2150000000	-4.86482346724434	-44.9212084351981	-38.7795133972209	-114.977878097257	-38.5758527267995	-114.454273273935	-3.64754568426943	-75.5704276306232	
2153333333.33333	-4.71257510859622	-47.3582779195106	-37.9341136068605	-117.569881318387	-37.8957297930309	-118.632665655113	-3.83516497795981	-75.0452586189056	
2156666666.66666	-4.4985401120844	-49.4002046364258	-36.663566793467	-125.123246691142	-36.4955914532433	-124.782115108335	-3.98274003256732	-74.1632143548612	
2160000000	-4.25538059716838	-51.7776761432122	-35.7420705572138	-137.864178180294	-35.7659751271898	-137.448942335347	-4.09185873060996	-73.4559805140877	
2163333333.33333	-4.07852279482579	-54.0591123465718	-35.9054813442309	-151.876485256674	-35.9022412290322	-151.007849568126	-4.22959122563464	-72.7060044190666	
2166666666.66666	-3.87721366815929	-55.840709663085	-36.6998860676929	-159.653369889133	-36.6650249813445	-159.210954843737	-4.28818624496093	-71.6417056077966	
2170000000	-3.65171022554624	-57.403046695815	-37.3637910594324	-168.84754908597	-37.2388859691483	-167.295664745948	-4.28029256599064	-70.7988990350536	
2173333333.33333	-3.41263759382248	-58.8809502516542	-39.4959550584376	-168.956984552006	-39.4851645883735	-168.027536419512	-4.21329509143849	-70.3185280250996	
2176666666.66666	-3.22311270374239	-60.2860154346856	-38.8854907972533	-154.801729323196	-39.0295418720588	-154.519663104395	-4.13174146776406	-70.3637214025894	
2180000000	-3.04651957507834	-61.4219462576944	-36.7937196840981	-156.440266549343	-36.7897608475062	-156.209922697569	-4.09020863880568	-70.5568053782173	
2183333333.33333	-2.89002849893136	-62.5446325166602	-35.6152963181574	-166.733771591929	-35.610124744011	-165.949911961334	-3.99518542677773	-70.6720203479719	
2186666666.66666	-2.79951739385866	-63.7276268157656	-35.3835169506132	-179.648246591013	-35.3196348880348	-178.629285462226	-3.87530139427828	-71.0268058981492	
2190000000	-2.74544571690058	-64.576054825334	-35.9350766156406	170.783841081621	-35.8513770439115	171.827233771632	-3.74481636111284	-71.7414546795448	
2193333333.33333	-2.70702143669305	-65.5189572016717	-36.7467301064837	166.602354325678	-36.5115881220701	167.022320798452	-3.6279827599797	-72.5757112139724	
2196666666.66666	-2.71217199781788	-66.2795669250085	-36.9765524876788	162.936754831546	-36.8592267025885	163.613859455252	-3.48851375094767	-73.3952197301543	
2200000000	-2.72553200374595	-67.4257888670203	-37.193565015713	159.501914413542	-37.1570886818127	159.808053748474	-3.37117728929802	-74.4870014925856	
2203333333.33333	-2.77100209912191	-68.5189241134726	-37.775140835582	157.825781483604	-37.7766798746068	157.698057387435	-3.28789775579004	-75.3890561620318	
2206666666.66666	-2.8162108703739	-69.6468798589109	-38.0448246452618	156.224695440662	-37.9937253082599	157.531306015826	-3.17599886579813	-76.0479913182017	
2210000000	-2.83390872490633	-70.8333468446889	-38.3017441767571	159.336141243158	-38.3034728839688	160.077734454149	-3.06235852132833	-76.7260458270256	
2213333333.33333	-2.82302307307659	-72.4436627404762	-37.0269032862146	163.534487373236	-37.08134924537	163.966747144192	-2.93205079990428	-77.3366264843438	
2216666666.66667	-2.83439742180876	-74.1613590959354	-35.966081530137	155.805374486233	-35.9969859999052	156.253171572647	-2.80790089040444	-78.0680850673486	
2220000000	-2.82827334724442	-75.5416820140047	-35.4139783406941	148.819263936457	-35.3058380401912	148.314941763928	-2.70080292657256	-78.7552132705398	
2223333333.33333	-2.78156510814075	-76.9175579543942	-35.3610393484156	140.189518446104	-35.3469151333967	140.411303473455	-2.61731204547605	-79.3784596861074	
2226666666.66667	-2.71955030562644	-78.1175611720529	-35.2481781230273	133.277124786422	-35.2239911383801	133.759401328949	-2.55733099356342	-79.9401511399374	
2230000000	-2.61744683437921	-79.0219408727336	-35.7783478760665	123.371514158441	-35.8031354441984	123.155918242026	-2.49718195998898	-80.3972879578017	
2233333333.33333	-2.50925221138417	-80.0028105368696	-37.0947932023061	121.150075296757	-37.0583949905846	121.927127011809	-2.448653985615	-80.8551807953104	
2236666666.66667	-2.43376728920147	-80.8727514248927	-37.1745187930881	123.480912164114	-37.1909951587258	124.093288466743	-2.41500986887844	-81.2761938476205	
2240000000	-2.39166358663137	-81.3843970504194	-36.8302267794446	120.928638974222	-36.7402483752115	120.973658842451	-2.39860778277234	-81.7751129360034	
2243333333.33333	-2.34665755427129	-81.6626808384457	-37.2096204546257	114.542681948538	-37.161449949464	115.31635699477	-2.38768183362496	-82.1611397241617	
2246666666.66667	-2.28562158376891	-82.0401807590088	-37.7931328624146	118.471429879886	-37.8217534387363	118.356600045379	-2.3770471237393	-82.746321869216	
2250000000	-2.2592248489255	-82.5611044867275	-36.9029675100403	119.407035312543	-36.8798497321519	119.580961764462	-2.4184739313451	-83.3812944098458	
2253333333.33333	-2.2775076074547	-83.2249637134061	-36.1454197848859	112.947725041181	-36.2789629298024	113.433280733718	-2.47040474698694	-83.8746124372011	
2256666666.66667	-2.32992684048246	-83.8791445812595	-36.1475661287348	106.794121029473	-36.1286152493807	107.433377306728	-2.51200640060512	-84.3598256794662	
2260000000	-2.40415316183233	-84.4988939275788	-36.2266895268448	101.241904842379	-36.1096634981263	101.726748265057	-2.54379461312489	-84.9486459004122	
2263333333.33333	-2.4777612988809	-85.3469882940063	-36.7206508814202	95.9503818874322	-36.7837744401077	95.043891159563	-2.58893465908163	-85.7189877739098	
2266666666.66667	-2.56670703580729	-86.3273075884497	-37.5659493381745	94.2551325633817	-37.4847659020268	94.4478964715904	-2.64554617209495	-86.6107854621584	
2270000000	-2.64016246490442	-87.4059320927017	-37.2893367333048	97.4504113789882	-37.2497583432357	97.2744165902254	-2.7145188718012	-87.4293130572255	
2273333333.33333	-2.70978900739852	-88.6834634601733	-36.6482933100209	89.6989069726514	-36.6180824292372	90.0020582828607	-2.76839784563898	-88.2031389885923	
2276666666.66667	-2.777936256642	-89.8225362369767	-37.7169211835215	83.724028332462	-37.8460324263878	83.6084603710529	-2.78823167011944	-89.0616333805887	
2280000000	-2.7775870508262	-90.8337775305259	-38.384400211897	87.5783346431276	-38.608265277194	87.8578439672456	-2.81337063060942	-90.1396866325018	
2283333333.33333	-2.74623163179633	-92.0566150702786	-37.684983508027	91.4821219739367	-37.8186470243453	91.9552660444793	-2.83736665259128	-91.1204949005275	
2286666666.66667	-2.71041741194391	-93.1181757366826	-37.0223327892098	86.8416824071052	-36.8669653332985	88.1447432685294	-2.85578819360068	-92.1763504197963	
2290000000	-2.6730814191823	-93.8772932340748	-36.8107889446729	82.7343535382947	-36.6952117360032	83.5678235444758	-2.88984551283478	-93.1277137003039	
2293333333.33334	-2.57806650535658	-94.4079365484752	-36.6075297254143	79.0446395132086	-36.671455817016	79.3085375639972	-2.89448553236578	-93.8177113381277	
2296666666.66667	-2.49648706373699	-95.0182717499397	-36.8640648759233	73.8851038766509	-36.848384108465	74.6769465532248	-2.8489543900143	-94.5197108213789	
2300000000	-2.44540787833585	-95.4385643711038	-37.5081878254714	74.4402081907814	-37.2794818527821	75.3070371001199	-2.80828492960977	-95.4267689509811	
2303333333.33334	-2.41358616757598	-95.6951395638682	-36.8794127978584	75.0002794459889	-36.9144385482242	74.6242864940219	-2.79704369939747	-96.1621263274545	
2306666666.66667	-2.40645954580775	-95.867270688693	-36.1711477681795	71.4876101743736	-36.1742034590918	72.0750849902992	-2.77406362465718	-96.6282086966758	
2310000000	-2.40675682079625	-96.0610193784359	-36.2281343079372	65.1361046913385	-36.1961521460168	66.0065309756471	-2.71722878864385	-97.0197612959451	
2313333333.33334	-2.4609102866708	-96.4714893677146	-36.4507549609358	63.880500458303	-36.4001955432199	64.4893765210174	-2.66457230600093	-97.5381447025824	
2316666666.66667	-2.54706798226686	-96.7592357412399	-36.2869721908988	61.1089391827958	-36.1763632322339	61.4691810094576	-2.63895359869192	-97.9223311097134	
2320000000	-2.63801881272621	-97.0582412890924	-36.3191777657182	58.8736168744429	-36.290737969956	58.5099860229663	-2.58799001276032	-98.2422028880531	
2323333333.33334	-2.72314206332932	-97.5003769755002	-35.7258134280298	57.7263475316306	-35.6439447900606	57.414506927848	-2.56878361582842	-98.5906586642497	
2326666666.66667	-2.80331837956058	-98.3196171717731	-35.1802067537692	48.348227530433	-35.1774548825306	48.2786664453141	-2.57147962061855	-98.8995287791634	
2330000000	-2.90676607049491	-99.3185767822927	-36.7968334022734	38.9866577161289	-36.7466832120533	38.9411585993704	-2.56590160740761	-99.1751822559715	
2333333333.33334	-2.99678628194651	-100.463425798605	-37.7895638469582	49.1095714426725	-37.7597515782061	49.6232295261705	-2.59186816071582	-99.5961602254701	
2336666666.66667	-3.07936382765525	-101.705719675995	-36.399086572943	52.0439334236677	-36.323708015999	52.8677234164488	-2.66130399175203	-99.8310477579311	
2340000000	-3.16123841473584	-102.851683993076	-35.1359768533742	46.8072018144149	-35.1541834149191	47.4981222556491	-2.72425211181889	-99.8461546847553	
2343333333.33334	-3.19293448469001	-103.79862068115	-35.0420092586402	36.3997967771384	-34.8954117584481	37.0250858575448	-2.76242455755204	-99.8693723071633	
2346666666.66667	-3.18477453395814	-104.615441105831	-35.8680876880889	30.8306139071021	-35.8860249980569	31.8191137061148	-2.79163574948915	-100.190095110682	
2350000000	-3.13977228071509	-105.217206914609	-36.4668019628523	32.3018686720004	-36.3890748789597	33.1737692947638	-2.84121309031792	-100.73674414347	
2353333333.33334	-3.06646646288508	-105.741645521516	-35.889823067047	35.5059497061987	-35.8643131786357	36.0348448845628	-2.93919850846642	-101.398260407431	
2356666666.66667	-2.98096778031299	-106.060183006432	-34.84372841588	31.4678892982038	-34.8634134528463	31.9245937845641	-3.06604155175479	-101.951709881975	
