!Agilent N9923A: A.07.32
!Date: Thursday, 02 June 2016 23:52:49
!Model: N9923A
!Serial: MY52412257
!GPS Latitude: 
!GPS Longitude: 
!GPS TimeStamp: 0001-01-01 00:00:00Z
!GPS Seconds Since Last Read: 0
!CHECKSUM:0742286889
!Correction: S12(ON U)
!S1P File: Measurement: S12:
# Hz S DB R 50
1950000000	-39.6637935986392	142.813628186708
1953333333.33333	-39.3301810189059	140.406007423792
1956666666.66667	-39.4502456585653	132.134196783261
1960000000	-39.7559923126498	129.6848764148
1963333333.33333	-38.9507807325266	125.460639342931
1966666666.66667	-38.5870406538589	116.911431525945
1970000000	-38.9658319204365	109.952305341405
1973333333.33333	-38.6704140773564	105.309981450977
1976666666.66667	-38.6042192410698	99.0936863715253
1980000000	-38.0875856309275	91.521099770808
1983333333.33333	-38.2188246796962	79.3338093343199
1986666666.66667	-39.1917224731689	69.521094865996
1990000000	-40.692161086186	64.5317030233006
1993333333.33333	-41.7355619897824	69.6504406624775
1996666666.66667	-40.970511724803	71.1522391422506
2000000000	-40.5499236057994	64.7654027877305
2003333333.33333	-40.4558052606941	61.047273229152
2006666666.66667	-40.5835744095837	53.3182600137637
2010000000	-41.2477420086665	53.3846594089346
2013333333.33333	-41.0821112752457	53.520901836323
2016666666.66667	-40.5079363884372	47.929269095388
2020000000	-40.4173863863141	42.6052333593964
2023333333.33333	-40.603699602393	33.2823228082535
2026666666.66666	-42.012388841887	30.9376003740294
2030000000	-41.3272972658043	36.2664105172467
2033333333.33333	-40.4972007471106	28.5783504621475
2036666666.66666	-40.5894101529457	20.4397392775118
2040000000	-42.1606691451548	11.5948386732386
2043333333.33333	-43.4283713145411	20.8333910449988
2046666666.66666	-42.0995052471857	25.162894873576
2050000000	-41.5435471385619	21.3632936222068
2053333333.33333	-40.9417437090845	17.8364812959575
2056666666.66666	-40.3894658188901	12.9020494623021
2060000000	-40.041928790911	4.36366226379511
2063333333.33333	-40.6042236492999	1.90687774212125
2066666666.66666	-39.7819946982329	0.512696241257839
2070000000	-39.3509472160463	-12.8644389006605
2073333333.33333	-40.5188808031156	-21.2142313990204
2076666666.66666	-41.9445090854767	-26.5372019418823
2080000000	-43.7583653789795	-16.7817742136616
2083333333.33333	-42.2610385453715	-9.9882701327862
2086666666.66666	-41.2951776295144	-12.8068576889064
2090000000	-40.8290108902203	-14.2199325210641
2093333333.33333	-39.621229551971	-21.4183423731176
2096666666.66666	-40.0469344182712	-28.0329358744581
2100000000	-39.7130370383443	-29.7910410694715
2103333333.33333	-39.2381115808553	-37.8002944186761
2106666666.66666	-40.2128621995395	-42.5491198692815
2110000000	-39.8839654753677	-40.4925932953316
2113333333.33333	-39.5317929882654	-42.0436106243231
2116666666.66666	-38.918543755425	-43.8044273149308
2120000000	-37.5290525836767	-51.4486168565482
2123333333.33333	-37.5712710815973	-64.2385926318997
2126666666.66666	-38.6653630414109	-72.9312070022943
2130000000	-40.2796304280748	-69.2137342554804
2133333333.33333	-38.4953092649083	-60.2042489369649
2136666666.66666	-36.912226763584	-74.218592997488
2140000000	-37.5787627166446	-87.9856273575287
2143333333.33333	-39.4493716201682	-88.6402469748006
2146666666.66666	-39.3107303262603	-83.0481475207391
2150000000	-38.0148516672918	-78.2847904767768
2153333333.33333	-36.2787375023401	-87.0183525001818
2156666666.66666	-35.2963506711958	-99.2979354370379
2160000000	-35.2800275039671	-113.004308960914
2163333333.33333	-36.1880176312035	-127.646278831362
2166666666.66666	-38.047184346425	-133.388399937433
2170000000	-39.2343898662215	-128.853572729597
2173333333.33333	-38.4585085326383	-124.85990004082
2176666666.66666	-37.7837292398112	-131.404612565966
2180000000	-37.7126608257196	-141.256854343935
2183333333.33333	-39.1300691426156	-142.141216892977
2186666666.66666	-37.8237748791084	-139.13262243418
2190000000	-36.8359822432661	-155.216950339574
2193333333.33333	-38.1352692726564	-172.134410381771
2196666666.66666	-41.2389833323591	-172.913730358817
2200000000	-41.4255841809222	-163.997970175333
2203333333.33333	-41.0533953366955	-154.14221780856
2206666666.66666	-39.2482310026266	-157.578308152423
2210000000	-38.6350563595349	-168.623166333334
2213333333.33333	-39.0095328332464	-179.639035019118
2216666666.66667	-40.4405167996951	177.355933932299
2220000000	-40.1064726522028	179.72176417078
2223333333.33333	-39.4957019376477	173.267028350644
2226666666.66667	-39.974022508012	165.889248887965
2230000000	-40.3093500275528	158.949455696664
2233333333.33333	-41.5008827535459	159.455776752505
2236666666.66667	-40.5744144039784	162.29984298503
2240000000	-39.8882294180732	151.651126205729
2243333333.33333	-40.9829580585013	140.67296908109
2246666666.66667	-42.6200664229046	140.459638465758
2250000000	-43.1101907457801	145.656128035156
2253333333.33333	-42.3485849114744	148.969984884122
2256666666.66667	-41.5972438620685	143.264373154948
2260000000	-41.5886190424703	136.444147339949
2263333333.33333	-42.2116211756241	135.127662277136
2266666666.66667	-41.2668522118635	129.480690722648
2270000000	-41.7629401941093	117.287798762064
2273333333.33333	-42.8368540572125	113.685845297036
2276666666.66667	-43.9975018734298	108.888782024368
2280000000	-44.3386874595935	111.101142613182
2283333333.33333	-44.6246028528674	111.525167516737
2286666666.66667	-45.4705385865386	107.51312780746
2290000000	-45.2241588143868	113.121099855609
2293333333.33334	-44.499956686032	105.10602655779
2296666666.66667	-46.1991133097759	100.770819903292
2300000000	-46.5484132146494	110.686158193651
2303333333.33334	-44.4556889806626	113.086473318116
2306666666.66667	-42.9498889028572	100.572833999607
2310000000	-43.9816216949149	83.5003738512101
2313333333.33334	-46.1385414743867	76.763993092461
2316666666.66667	-48.4624408719309	85.2840716652693
2320000000	-47.7786065203138	89.5569158303932
2323333333.33334	-48.3275569902339	94.0536714556137
2326666666.66667	-47.9892018497554	93.3699277478785
2330000000	-46.8120716519833	99.1770596715676
2333333333.33334	-45.619839432521	88.7485246187125
2336666666.66667	-46.0712859519604	77.2498801699
2340000000	-48.8051618552248	72.7209329114459
2343333333.33334	-48.1677167632539	89.2110623630543
2346666666.66667	-47.6633077556795	75.7176975501026
2350000000	-50.0462922079966	76.8619682783026
2353333333.33334	-48.2867530336417	102.176185023958
2356666666.66667	-45.6842388554783	86.6987554959322
2360000000.00001	-46.5386627595798	76.5595850074433
2363333333.33334	-46.4005193813081	70.9042623266497
2366666666.66667	-47.2049118800964	60.8371032070675
2370000000.00001	-49.381930595493	63.531709077744
2373333333.33334	-48.7947552704845	69.7991075683732
2376666666.66667	-49.1120225060948	74.9893378231934
2380000000.00001	-47.7671046834268	76.1243166910972
2383333333.33334	-47.4556329449087	73.3997894416773
2386666666.66667	-47.1956163069907	74.1273757584366
2390000000.00001	-46.0235952692543	76.2633577492784
2393333333.33334	-45.813457599444	62.024717963424
2396666666.66667	-47.2648621814262	64.0916511993061
2400000000.00001	-46.5210766290423	60.4022704314521
2403333333.33334	-47.3191322617137	60.5297111491817
2406666666.66667	-47.1484175225632	62.2191327968381
2410000000.00001	-46.3367889325909	57.5979170113328
2413333333.33334	-47.1599881269305	57.0156688536521
2416666666.66667	-46.8165499296111	67.2682381482503
2420000000.00001	-45.9203941875494	65.539014097499
2423333333.33334	-44.3707448939985	62.4865676254456
2426666666.66668	-43.3466365361739	56.6169535144509
2430000000.00001	-43.0500433717007	47.4741876927148
2433333333.33334	-43.0045278743681	43.3282517404489
2436666666.66668	-41.9541221565282	35.3054672613197
2440000000.00001	-42.7887025053	21.8865602436185
2443333333.33334	-44.7334197382388	17.8120427344235
2446666666.66668	-45.1146997018814	27.8282307869869
2450000000.00001	-44.0494717528645	23.8626742455585
2453333333.33334	-45.1173915776346	17.4985416869043
2456666666.66668	-46.2617204197598	24.3039914465649
2460000000.00001	-44.8868596803529	35.2713760217725
2463333333.33334	-43.0390097028927	28.9778181146951
2466666666.66668	-42.5396270976872	22.7117240207659
2470000000.00001	-42.1264225822651	15.1926202506362
2473333333.33334	-42.7545784306907	10.6250441728629
2476666666.66668	-42.1966573046143	8.6217241179653
2480000000.00001	-42.2620091882707	4.9606816560773
2483333333.33334	-42.4347594054905	3.15534987447093
2486666666.66668	-42.149447969858	-1.12377717571024
2490000000.00001	-41.6510560609331	-4.35732488587209
2493333333.33334	-41.3253297714813	-13.2641260190857
2496666666.66668	-42.4363030825074	-18.3552072723256
2500000000.00001	-41.9663415962154	-15.4670915851066
2503333333.33335	-41.6821544886938	-21.4261842982166
2506666666.66668	-41.6662560057654	-26.9007084283814
2510000000.00001	-42.5861250491947	-30.107567742704
2513333333.33335	-42.6724366368437	-24.6670435911922
2516666666.66668	-41.5288344615647	-28.4236878326649
2520000000.00001	-41.2874694758972	-34.4637175715812
2523333333.33335	-41.2868721290976	-42.047475386399
2526666666.66668	-42.6798750067536	-52.274569770634
2530000000.00001	-44.0076607336049	-41.1244159739985
2533333333.33335	-42.3503837550366	-40.9635478891127
2536666666.66668	-42.9785821661213	-48.8257302856776
2540000000.00001	-43.2201224241728	-45.9679613998427
2543333333.33335	-43.5448826775609	-45.6098569558798
2546666666.66668	-42.7805441098246	-36.8558018222449
2550000000.00001	-41.0025036565603	-38.5708684396536
2553333333.33335	-39.9137414098687	-49.2052251586005
2556666666.66668	-40.2549055734117	-60.476890471258
2560000000.00001	-41.4286896603269	-58.750091889041
2563333333.33335	-39.7521027291534	-57.092391092185
2566666666.66668	-38.9866814741787	-68.3117496747613
2570000000.00002	-39.2229973764247	-79.7557435008399
2573333333.33335	-41.0059233633067	-85.6471409410527
2576666666.66668	-41.8563938562998	-77.7690072644071
2580000000.00002	-40.4392491605832	-73.4019426926535
2583333333.33335	-38.9916104819656	-78.1875413130635
2586666666.66668	-38.8627776583478	-89.4674683296909
2590000000.00002	-39.3698234557542	-94.5973114255503
2593333333.33335	-40.0611638266309	-99.0095450282714
2596666666.66668	-39.7366181905144	-100.022115656707
2600000000.00002	-39.8090739579409	-106.885395483831
2603333333.33335	-40.3289853057317	-108.309783194831
2606666666.66668	-41.0155467280167	-111.243749681745
2610000000.00002	-40.59347913045	-101.780717086823
2613333333.33335	-39.1561045918404	-107.61012302775
2616666666.66668	-38.6405808820143	-117.193497485535
2620000000.00002	-38.9361413198066	-128.061291917583
2623333333.33335	-40.1807554456415	-135.592367703723
2626666666.66668	-41.5125940177849	-131.79377932051
2630000000.00002	-40.9327018452886	-124.612649333647
2633333333.33335	-40.0012614721856	-127.387608099146
2636666666.66669	-39.7775985908126	-134.316273339601
2640000000.00002	-40.2334657241409	-137.522905806158
2643333333.33335	-40.2594784196947	-136.502871280277
2646666666.66669	-39.5742433935985	-136.49149014881
2650000000.00002	-38.8611622166623	-146.777221250026
2653333333.33335	-40.2636697995114	-153.729672420998
2656666666.66669	-40.4902573510484	-149.9959454358
2660000000.00002	-39.9935154452607	-149.981366271195
2663333333.33335	-39.6544257059287	-152.695959160616
2666666666.66669	-39.5553414363328	-155.526515526984
2670000000.00002	-39.2316077440948	-156.061978839895
2673333333.33335	-38.4349787141206	-158.371695784645
2676666666.66669	-37.8545297345622	-169.005656552504
2680000000.00002	-37.8500183157908	-176.036598228221
2683333333.33335	-38.5383883402986	177.632493032932
2686666666.66669	-39.0107615046498	176.261188238775
2690000000.00002	-38.9627953936589	174.314494921702
2693333333.33335	-38.7459416811968	171.455490468378
2696666666.66669	-38.9641891520281	160.78150124719
2700000000.00002	-40.5079063043186	158.876442834092
2703333333.33335	-40.9815958320215	164.497571871844
2706666666.66669	-40.4585358980622	166.943025032186
2710000000.00002	-39.6565564089038	167.203813582103
2713333333.33336	-38.5057177753558	162.784186588445
2716666666.66669	-38.1475638109529	153.837871205932
2720000000.00002	-38.5406376987629	147.891369722649
2723333333.33336	-38.6346202145393	144.038943404032
2726666666.66669	-38.6316876590144	136.381158097484
2730000000.00002	-39.6004447670453	131.130642484008
2733333333.33336	-40.1828637539693	131.52205331169
2736666666.66669	-40.0508091935827	132.651482761546
2740000000.00002	-40.0616180300219	130.4531258581
2743333333.33336	-40.1473052178382	131.604489000466
2746666666.66669	-38.9271803888051	132.165997639574
2750000000.00002	-37.5509027856614	121.843824174203
2753333333.33336	-37.8679299346496	104.797930461613
2756666666.66669	-39.1789275085086	96.472002960769
2760000000.00002	-39.8643459246445	90.8919720057274
2763333333.33336	-41.4160453191401	83.9681023867183
2766666666.66669	-43.4144981202911	83.1140224948909
2770000000.00002	-44.1183114493137	91.6942463895347
2773333333.33336	-44.6998948600626	93.7849938389881
2776666666.66669	-44.2092517868843	102.046417064187
2780000000.00003	-43.1056460867643	98.1596499623557
2783333333.33336	-42.6304435899913	88.837499873818
2786666666.66669	-43.6006249312231	73.2309256020556
2790000000.00003	-47.232275495649	54.1456957720389
2793333333.33336	-61.0866962187098	98.4151907190666
2796666666.66669	-50.0378517571031	162.168487902257
2800000000.00003	-43.4851629129545	167.018788611967
2803333333.33336	-39.1781770434872	144.113526021314
2806666666.66669	-38.341364073403	121.5647523972
2810000000.00003	-39.5168013304748	109.48050190219
2813333333.33336	-38.8674095182189	114.938496694058
2816666666.66669	-36.9844023118081	106.471145468071
2820000000.00003	-36.7400298521851	89.1467326870517
2823333333.33336	-37.5238308584535	82.9547144813464
2826666666.66669	-37.4385369661852	75.2065157284521
2830000000.00003	-38.6548180106473	67.2429854174854
2833333333.33336	-38.746568952251	69.7322950916244
2836666666.66669	-38.7366494159006	65.9058612807631
2840000000.00003	-38.6876629351351	62.9617271914256
2843333333.33336	-39.0838668878741	60.8958515998806
2846666666.6667	-38.462852913859	61.2106744508384
2850000000.00003	-37.6767218688004	53.7710865936372
2853333333.33336	-37.8190312041138	44.8517509190979
2856666666.6667	-38.4420146694919	40.17729066259
2860000000.00003	-39.0895239790624	37.4748340996806
2863333333.33336	-39.2134180023871	36.4907067402718
2866666666.6667	-38.8328353454363	32.7717624999766
2870000000.00003	-39.1564502736962	25.0005498253786
2873333333.33336	-40.6998699578785	23.2729087799843
2876666666.6667	-40.0625649656116	28.2675988199894
2880000000.00003	-40.1810255607132	21.9286563129747
2883333333.33336	-39.8827135820794	25.251327231283
2886666666.6667	-39.2807291620184	17.3781115865495
2890000000.00003	-39.8750485457316	8.25784698498325
2893333333.33336	-41.2833539747481	9.89022390721772
2896666666.6667	-40.4163381733472	14.5130373357809
2900000000.00003	-39.8574606897279	6.95980306409402
2903333333.33336	-40.5720964113937	1.38275967623445
2906666666.6667	-40.2967763778837	1.57610433833307
2910000000.00003	-40.7648187785987	-5.12765703579225
2913333333.33336	-41.9461860378053	0.47616096439703
2916666666.6667	-39.713459309645	2.96384644320886
2920000000.00003	-39.2972640388015	-11.0586484764772
2923333333.33337	-39.9814640388965	-17.9810317874067
2926666666.6667	-41.5738556251397	-22.0505866401421
2930000000.00003	-41.6236833299994	-15.7530776218758
2933333333.33337	-41.1379287541392	-15.1653399018467
2936666666.6667	-39.6728990131412	-25.177426391784
2940000000.00003	-40.8826553729827	-44.641645070715
2943333333.33337	-45.1914900357944	-39.89321289571
2946666666.6667	-44.1863899599641	-17.5381787197414
2950000000.00003	-42.1617221418306	-21.3638194864386
