!Agilent N9923A: A.07.32
!Date: Thursday, 02 June 2016 23:53:43
!Model: N9923A
!Serial: MY52412257
!GPS Latitude: 
!GPS Longitude: 
!GPS TimeStamp: 0001-01-01 00:00:00Z
!GPS Seconds Since Last Read: 0
!CHECKSUM:0897795402
!Correction: S21(ON U)
!S1P File: Measurement: S21:
# Hz S DB R 50
1950000000	-39.7980363699692	143.848220305134
1953333333.33333	-39.3914649644312	139.425967974216
1956666666.66667	-39.5686926320369	132.732320046765
1960000000	-39.610842606126	129.523677233229
1963333333.33333	-39.0066901389768	125.55555559971
1966666666.66667	-38.5571538338644	116.956062916204
1970000000	-39.0105899481792	110.654925355427
1973333333.33333	-38.6303376839121	105.541037086318
1976666666.66667	-38.6492778368426	99.0659698217467
1980000000	-38.014680290487	92.1236877234571
1983333333.33333	-38.1815509928952	79.3084643229108
1986666666.66667	-39.0638058403715	69.5324810427006
1990000000	-40.7087036960296	64.8860388178601
1993333333.33333	-41.5536748300982	69.5832245372031
1996666666.66667	-40.6294156413575	71.2505356691354
2000000000	-40.3840157378919	64.127352805883
2003333333.33333	-40.4217086207117	60.1821541464647
2006666666.66667	-40.5530484301983	53.1590115621551
2010000000	-41.403195822008	52.36411091045
2013333333.33333	-40.7828898206146	52.0883396543746
2016666666.66667	-40.5470334643686	47.7843323859434
2020000000	-40.4122134596765	42.2934819574063
2023333333.33333	-40.4828965474943	33.1011162457571
2026666666.66666	-41.8534323439557	31.1251719507537
2030000000	-41.2098366063013	35.5013980889021
2033333333.33333	-40.5152314258682	26.9859900534053
2036666666.66666	-40.6956263163678	18.4739715289538
2040000000	-42.1471432381135	10.1014189465437
2043333333.33333	-43.4460962355234	19.9187146004399
2046666666.66666	-42.0345315333808	24.4475247788647
2050000000	-41.3915719217934	20.331983559256
2053333333.33333	-40.7949175494375	16.4703053506194
2056666666.66666	-40.4390234047546	11.3769836329698
2060000000	-40.1952936447631	3.55953985786912
2063333333.33333	-40.6730205976464	-0.0830135882933977
2066666666.66666	-39.6880293338345	-1.35404728651105
2070000000	-39.4883121370264	-14.5834448772675
2073333333.33333	-40.8044983266143	-22.755328164968
2076666666.66666	-41.9836527122196	-26.5288965905827
2080000000	-43.8676863636859	-16.4153222235717
2083333333.33333	-42.0765893513932	-9.41228157555565
2086666666.66666	-41.3579167346342	-13.1137150549658
2090000000	-40.8223741648451	-14.6450393680288
2093333333.33333	-39.7947060670889	-22.5263076390773
2096666666.66666	-40.1211887466438	-27.0362241724759
2100000000	-39.8502424852057	-29.5920308217415
2103333333.33333	-39.1937571235151	-37.4842055727213
2106666666.66666	-40.1736606006877	-43.5497662535359
2110000000	-40.2108671351184	-40.5392634017329
2113333333.33333	-39.6514951570731	-41.91762025516
2116666666.66666	-38.9536860714087	-42.2733510779975
2120000000	-37.5763279594911	-50.1772400845999
2123333333.33333	-37.4996734734816	-63.0818807216049
2126666666.66666	-38.6196549223799	-72.04323753369
2130000000	-40.2270831502126	-67.9781953225543
2133333333.33333	-38.3645937852535	-59.2713030760122
2136666666.66666	-36.7787700042476	-73.6382406794519
2140000000	-37.6522521725756	-88.2896989451592
2143333333.33333	-39.3886740351609	-87.4249837484529
2146666666.66666	-39.2142478537699	-81.9166787006469
2150000000	-37.8502295638532	-78.2894960582671
2153333333.33333	-36.1626433899702	-86.6806383084179
2156666666.66666	-35.1862945393222	-98.5587734209527
2160000000	-35.0977849385137	-113.164826268439
2163333333.33333	-36.0860852801547	-127.120741961023
2166666666.66666	-37.6655557244482	-133.501319344382
2170000000	-38.9684047737867	-129.275295646848
2173333333.33333	-38.1480080632294	-125.764978116408
2176666666.66666	-37.5724718912263	-132.549123225559
2180000000	-37.5106967650099	-143.440323502612
2183333333.33333	-39.088578221383	-145.084028964288
2186666666.66666	-37.893982317521	-141.700949412268
2190000000	-36.7981078588947	-156.045783131069
2193333333.33333	-38.1556109379995	-173.808092569847
2196666666.66666	-40.9675423367037	-174.26135609087
2200000000	-41.4602783982547	-165.818776855548
2203333333.33333	-41.3368611625382	-157.00824830061
2206666666.66666	-39.3280313038976	-158.793348748499
2210000000	-38.6801593616704	-169.999025853488
2213333333.33333	-39.1846274467023	179.327284906008
2216666666.66667	-40.4751756083216	176.56637218072
2220000000	-39.9843150786781	177.871131015889
2223333333.33333	-39.4437768271124	171.633965209328
2226666666.66667	-40.0024655677992	164.423841739209
2230000000	-40.4499352667398	158.8276467369
2233333333.33333	-41.6389768173561	158.244040254529
2236666666.66667	-40.7537868663901	161.462204545813
2240000000	-40.0770386715819	150.8269608363
2243333333.33333	-41.116799763229	140.513780184148
2246666666.66667	-42.6394671425477	140.230812022936
2250000000	-43.2045085754112	145.969988028226
2253333333.33333	-42.5109848699926	148.446139696287
2256666666.66667	-41.6426698627636	143.287985932096
2260000000	-41.7744726958806	136.788427922614
2263333333.33333	-41.9112694755584	134.316872835746
2266666666.66667	-41.3629668927102	128.358043009815
2270000000	-42.0311476630342	116.367097841923
2273333333.33333	-42.8525721482931	113.679190921323
2276666666.66667	-43.8443860371546	110.170615939055
2280000000	-44.0795383367881	112.188320747703
2283333333.33333	-44.6204622863789	108.568882276193
2286666666.66667	-45.655505603744	106.803859804809
2290000000	-45.1261103012164	114.652182113571
2293333333.33334	-44.3804599775226	105.876505936626
2296666666.66667	-46.2641006651792	99.865467773882
2300000000	-46.5720839476258	112.93948882979
2303333333.33334	-44.3400671136702	113.87328281575
2306666666.66667	-43.0155204904124	100.356914419485
2310000000	-43.915084363333	82.5855429639237
2313333333.33334	-46.0595340139608	76.2337061290458
2316666666.66667	-48.7273637356294	83.302303077652
2320000000	-47.8768361377564	91.6590729922146
2323333333.33334	-47.7124889460156	91.2245237416022
2326666666.66667	-47.660057252957	92.7837841735919
2330000000	-46.8925982483958	97.6335623969616
2333333333.33334	-45.6301773429884	90.4519600451587
2336666666.66667	-46.0825752596642	77.4341804577234
2340000000	-48.4709379660744	71.8959279126174
2343333333.33334	-48.0282810016362	87.4559628645369
2346666666.66667	-47.0706321159907	78.8087949875224
2350000000	-49.7124099494207	75.1692940876518
2353333333.33334	-48.3406244488221	97.5197186554054
2356666666.66667	-45.7408854580526	84.4274688866149
2360000000.00001	-46.5037532349236	74.6318675962742
2363333333.33334	-46.4447406477765	70.8708385657522
2366666666.66667	-47.5213094878609	61.6120469794916
2370000000.00001	-49.5696488059016	64.7671145346872
2373333333.33334	-48.9998632022432	71.8646940381799
2376666666.66667	-48.7589256556034	76.0108037856661
2380000000.00001	-47.3588482817955	77.2646309564322
2383333333.33334	-47.4795782182886	73.8877935694235
2386666666.66667	-47.3788505228639	73.687616838855
2390000000.00001	-46.079956154148	72.7433856499311
2393333333.33334	-45.909661337719	61.5714685751037
2396666666.66667	-46.9400329527625	63.5638628262712
2400000000.00001	-46.3052452035073	57.2654419020803
2403333333.33334	-47.2756840318417	55.4900325793829
2406666666.66667	-47.2829985243777	60.5707175242344
2410000000.00001	-46.7312674507386	58.499459749311
2413333333.33334	-47.4574701367175	55.2192509237743
2416666666.66667	-47.1288326135515	63.0797231551395
2420000000.00001	-46.0372387231565	67.4514859579148
2423333333.33334	-44.3183167452494	64.0992052217562
2426666666.66668	-43.2997875553947	56.0384438638255
2430000000.00001	-42.905947150263	46.0373746775548
2433333333.33334	-43.140132167361	40.9133418703596
2436666666.66668	-42.2767401946462	33.8683506221417
2440000000.00001	-43.1546732988541	19.9120781197383
2443333333.33334	-45.0334665291305	15.9442076789924
2446666666.66668	-45.5487614407507	26.1448696550777
2450000000.00001	-44.3996653356461	24.6261832236932
2453333333.33334	-45.3873517521147	19.4492163405739
2456666666.66668	-46.630170409757	24.1582533310946
2460000000.00001	-45.2386301261973	36.2405500319646
2463333333.33334	-43.188015304649	29.1058386281426
2466666666.66668	-42.8800269226468	24.150023307728
2470000000.00001	-42.347025656329	15.7223684962697
2473333333.33334	-42.734120991087	11.0747883356256
2476666666.66668	-42.3936365224105	8.17302540719711
2480000000.00001	-42.5508322248903	4.73275639237074
2483333333.33334	-42.606588517497	3.93673094708581
2486666666.66668	-41.9385930547753	0.512662585300221
2490000000.00001	-41.6636132235428	-3.7300905751608
2493333333.33334	-41.4030311945356	-12.238207329641
2496666666.66668	-42.5248969066211	-16.461780336009
2500000000.00001	-42.0650292884756	-12.0203839333567
2503333333.33335	-41.7563289905126	-19.4478129327196
2506666666.66668	-41.5951771173299	-24.3429690955247
2510000000.00001	-42.3990112520762	-29.1518824215873
2513333333.33335	-42.5118206449654	-25.5225558578726
2516666666.66668	-41.6846838405376	-27.4923843608895
2520000000.00001	-41.190525409451	-34.111274197269
2523333333.33335	-41.0955404762575	-42.2433810797216
2526666666.66668	-42.5125316274762	-50.9077170543465
2530000000.00001	-43.9006535427877	-38.9619260753247
2533333333.33335	-41.9699730653228	-40.090364736497
2536666666.66668	-42.5218563570443	-49.1164750628302
2540000000.00001	-43.1815521241972	-47.159334819101
2543333333.33335	-43.5303384408155	-47.2001369256252
2546666666.66668	-42.8482295959067	-37.7525665039204
2550000000.00001	-40.7938255768052	-40.1474850224129
2553333333.33335	-40.0007628205934	-50.3240552060144
2556666666.66668	-40.1948658147378	-61.2704788252587
2560000000.00001	-41.3320996828707	-58.9951206430565
2563333333.33335	-39.6751349844272	-57.1877171894442
2566666666.66668	-38.8882405611473	-69.1000068949041
2570000000.00002	-39.0558006868001	-80.3818156049728
2573333333.33335	-40.8548203985997	-86.1925699296108
2576666666.66668	-41.8208552046127	-78.7332559799518
2580000000.00002	-40.6601406194632	-72.8808944850481
2583333333.33335	-39.0708046140396	-78.1633872434519
2586666666.66668	-38.8747848083107	-89.3152679556799
2590000000.00002	-39.2015865550966	-94.5587997762288
2593333333.33335	-39.7489222315053	-99.6553898829031
2596666666.66668	-39.5012374588484	-101.85236270278
2600000000.00002	-39.8115226926813	-108.245064652906
2603333333.33335	-40.2925043512892	-110.831894099258
2606666666.66668	-41.2840471079689	-112.859876583169
2610000000.00002	-40.8454957048537	-102.032106585037
2613333333.33335	-39.2871578036994	-108.657008434682
2616666666.66668	-38.5536933735379	-117.128818392675
2620000000.00002	-39.0232678660598	-127.99127018692
2623333333.33335	-40.2093376646015	-133.659708837747
2626666666.66668	-41.5212739234931	-132.249288273868
2630000000.00002	-40.7936169048277	-124.988229826111
2633333333.33335	-40.1659896640904	-128.29577328964
2636666666.66669	-39.9116330344459	-133.876437202646
2640000000.00002	-40.3276897364	-137.741449941824
2643333333.33335	-40.1735350594888	-136.273385207424
2646666666.66669	-39.3119676404418	-137.670543278951
2650000000.00002	-38.7823021987771	-147.459103284509
2653333333.33335	-40.1851250728222	-153.089457529393
2656666666.66669	-40.384004579564	-150.517410127486
2660000000.00002	-40.0469569646679	-151.067460564441
2663333333.33335	-39.4475623078542	-153.254142739326
2666666666.66669	-39.6006346607302	-157.626628411866
2670000000.00002	-39.3169658881822	-157.927324907314
2673333333.33335	-38.4985604840876	-159.503319541376
2676666666.66669	-38.0220263002368	-169.818618332935
2680000000.00002	-38.0968832902382	-177.261734170669
2683333333.33335	-38.6798738815044	175.923450759701
2686666666.66669	-39.2176127866386	176.713314361524
2690000000.00002	-39.1289106849137	173.010645915491
2693333333.33335	-38.9093655118543	171.696136392918
2696666666.66669	-39.1044211411753	160.062814067362
2700000000.00002	-40.640581557547	158.478542267915
2703333333.33335	-40.8518274002987	164.84996713327
2706666666.66669	-40.5941767560027	165.331536117112
2710000000.00002	-39.660542045628	166.965733614746
2713333333.33336	-38.7033845970819	163.837217801672
2716666666.66669	-38.3515908496908	153.172319365038
2720000000.00002	-38.6876297980776	146.817261236756
2723333333.33336	-38.7725599565987	143.957143249477
2726666666.66669	-38.8224778117342	137.906464087292
2730000000.00002	-39.8339127696943	130.208811824583
2733333333.33336	-40.4774273146227	132.777505459285
2736666666.66669	-40.0821598382827	133.70073629939
2740000000.00002	-40.1270011022761	129.984467474568
2743333333.33336	-40.0219513804758	132.226920537527
2746666666.66669	-38.9338093701319	130.993157179957
2750000000.00002	-37.4110359952348	121.300300919791
2753333333.33336	-37.6981254106329	104.405874112999
2756666666.66669	-39.1023930394454	95.2910626139303
2760000000.00002	-40.0105744129227	90.4838569347675
2763333333.33336	-41.395452760601	83.9368736581703
2766666666.66669	-43.2312271701831	83.3025776820435
2770000000.00002	-44.4254998395029	91.1169349876905
2773333333.33336	-44.6658478411226	95.6021795462279
2776666666.66669	-43.7811319765818	102.37621138232
2780000000.00003	-42.8614502263531	97.0989564554718
2783333333.33336	-42.3348241109348	88.0253929251251
2786666666.66669	-43.3022072164849	73.040229055217
2790000000.00003	-46.7655801679992	54.4428960709656
2793333333.33336	-64.8482955340968	70.7901788999851
2796666666.66669	-49.8620892468361	165.000554855117
2800000000.00003	-43.3799305930681	164.962749594251
2803333333.33336	-39.2461346729742	142.825752386458
2806666666.66669	-38.3718551629187	120.241205148693
2810000000.00003	-39.6328827946741	108.521534009512
2813333333.33336	-39.0033075820185	114.352327377045
2816666666.66669	-36.8368587553734	105.271990790034
2820000000.00003	-36.6452107429178	87.8917663409609
2823333333.33336	-37.418423244395	80.6496990256447
2826666666.66669	-37.3644861451919	72.7251955040303
2830000000.00003	-38.681550648512	66.775698934929
2833333333.33336	-38.9881395396676	68.5062533720083
2836666666.66669	-38.9175357328014	66.0643508506625
2840000000.00003	-38.8767485564953	62.2500935946993
2843333333.33336	-39.1854943497674	60.2516542263166
2846666666.6667	-38.2968838124182	62.5579655057697
2850000000.00003	-37.6355025612827	53.5835289810491
2853333333.33336	-37.7790293551615	44.8559134455014
2856666666.6667	-38.5279100168602	39.5123648643028
2860000000.00003	-38.9205840197787	35.2421249773753
2863333333.33336	-39.3182910046991	34.7252634995733
2866666666.6667	-39.0831823854073	32.7735753795522
2870000000.00003	-39.255750547361	25.0192510522802
2873333333.33336	-40.7099656760997	22.8519647898876
2876666666.6667	-40.0191669805306	27.8607735216152
2880000000.00003	-40.2096063140821	21.3436457658306
2883333333.33336	-39.8648905861722	23.8523294622153
2886666666.6667	-39.1922358776936	17.2407741788193
2890000000.00003	-39.734884766224	6.92090374360869
2893333333.33336	-41.1983071809056	10.0416252887561
2896666666.6667	-40.3879350258465	11.841679467283
2900000000.00003	-39.8663541499614	5.0636821599122
2903333333.33336	-40.4389365840187	0.785563821626175
2906666666.6667	-40.4872121979538	0.0531911852349672
2910000000.00003	-40.9833107712028	-5.52764371274201
2913333333.33336	-41.9035608951303	1.00268671565268
2916666666.6667	-39.8217105357586	1.44354676597759
2920000000.00003	-39.3455404705655	-10.7741050030977
2923333333.33337	-40.0149438328786	-18.6047991444476
2926666666.6667	-41.5337334567189	-22.5421535428032
2930000000.00003	-41.9017133188706	-16.1090934544786
2933333333.33337	-41.0360525927589	-15.1768500023262
2936666666.6667	-39.7012369455363	-24.7031005508357
2940000000.00003	-40.8152817561176	-43.8810004789409
2943333333.33337	-45.4473442451358	-40.6483536020427
2946666666.6667	-43.9084809271678	-17.3130866572708
2950000000.00003	-41.9899681960229	-21.0751726979351
