!Agilent N9923A: A.07.32
!Date: Thursday, 02 June 2016 22:56:37
!Model: N9923A
!Serial: MY52412257
!GPS Latitude: 
!GPS Longitude: 
!GPS TimeStamp: 0001-01-01 00:00:00Z
!GPS Seconds Since Last Read: 0
!CHECKSUM:2088978332
!Correction: S11(ON U)S21(ON U)S12(ON U)S22(ON U)
!S2P File: Measurements:S11,S21,S12,S22:
# Hz S DB R 50
1950000000	-1.60786658535359	33.2995208977157	-82.0466968311176	-7.59439865801838	-78.5467128001358	-137.125894429371	-0.149937855406422	33.3595081141778	
1953333333.33333	-1.61613252598443	29.6967757579855	-82.2329940960812	139.1925679877	-80.5220073088858	-28.3078228122442	-0.137608069081066	33.4172509549288	
1956666666.66667	-1.64413580908003	26.1341194810004	-85.9923631059417	-60.1577819931012	-75.3273889737534	-80.0388313213723	-0.127829150865157	33.4751730087458	
1960000000	-1.67634628022154	22.6243318390279	-84.7412444550561	-60.791258102146	-78.9764244619983	-45.8509024530488	-0.118652391577364	33.5655720469447	
1963333333.33333	-1.71533543189822	19.0842842042662	-82.539126153466	122.963288189739	-78.7639101904764	9.9783650506818	-0.10725665595658	33.6541182734584	
1966666666.66667	-1.77406749060911	15.6200150867374	-81.020765926759	-18.477663472509	-77.1907617846819	1.84675774246459	-0.0989384842283012	33.7644052439517	
1970000000	-1.81108579978334	12.1811681807459	-99.6411063274819	-137.085918975613	-81.8949513373639	-127.164082477884	-0.0878119362863505	33.8716456229587	
1973333333.33333	-1.83193350918	8.72645966432191	-87.9911203404545	97.4608681873125	-93.6836365424289	-8.46047762366751	-0.0866260720995298	33.9757789748258	
1976666666.66667	-1.85244268732579	5.11651061070563	-85.1031367700665	-15.1685320423298	-85.3843800079942	-47.9751760522145	-0.085782834725334	34.0805494743767	
1980000000	-1.88172249523742	1.65230473276193	-76.6951959776663	-141.90260371826	-79.7540199750817	-138.771786066346	-0.0838979924839449	34.181642181359	
1983333333.33333	-1.88901875770823	-1.68019664867009	-79.1543771581385	-70.3336060223789	-84.7744145664119	-93.188603183843	-0.0826861386812411	34.2627851215043	
1986666666.66667	-1.87532714636355	-4.91348014043298	-83.5415039977545	-64.0214390346289	-74.6492051681255	101.317885575937	-0.0842062399956394	34.3509551152876	
1990000000	-1.86500201941927	-8.18087224098424	-82.7817698106001	120.589173624937	-85.3420442862124	162.177882728127	-0.0895272780492243	34.487665063709	
1993333333.33333	-1.85847832356948	-11.2433914603937	-82.7269511074344	-111.082814674047	-85.2343845232071	135.999117693468	-0.0994991597213941	34.5640271692666	
1996666666.66667	-1.85247563518398	-14.1597406583481	-82.0793219182063	27.7130425354373	-78.8349731793139	75.5973504101676	-0.108213411117146	34.6314134160218	
2000000000	-1.84080619693544	-17.0411071909319	-82.2552429363708	-35.992031770306	-89.9880278605487	-60.9629280495099	-0.122775034005863	34.6746602210396	
2003333333.33333	-1.8395159174542	-19.8454331629206	-76.0762153120858	46.4483946508455	-90.4262494576479	-170.374648756872	-0.128019536555096	34.711616755505	
2006666666.66667	-1.83405982513393	-22.5037507885798	-74.534216071769	123.858313520639	-84.0894220812606	78.2248771328809	-0.144246147990779	34.7389616451358	
2010000000	-1.84155233742474	-25.1322469020155	-89.2144170825073	158.951559941309	-97.4495560716496	115.682697246344	-0.152746692399069	34.7615794510823	
2013333333.33333	-1.86643529456372	-27.8217856719639	-79.154686217821	-3.82148455096805	-87.1138237874492	11.2139221416776	-0.162233459208915	34.750992808024	
2016666666.66667	-1.89867108105348	-30.4378624552215	-77.4581124416279	-57.633643007687	-78.4729044399585	-43.2416809287838	-0.172524784688019	34.7605506062569	
2020000000	-1.93441755147952	-33.1533939547161	-81.9166645594375	104.068673647512	-86.4935246870315	-165.789746868319	-0.176243039221448	34.7603686086114	
2023333333.33333	-2.01204240095355	-35.9230189274239	-87.4874954052198	-134.539691273656	-89.6749809692774	125.755701062716	-0.179985305736641	34.7982006714938	
2026666666.66666	-2.07429096783662	-38.6633722141029	-76.1122168617708	133.826564702496	-76.7293854184203	-150.605263566389	-0.184378969362773	34.834629735474	
2030000000	-2.13027889277621	-41.3491215829309	-81.6964342878835	-146.10681028792	-79.3978699460188	-120.696399209559	-0.176833456668113	34.8566385320929	
2033333333.33333	-2.18940343980185	-44.2178949273038	-85.5002451785693	-76.7649303517228	-80.1728760464249	-23.418850466813	-0.180198798103994	34.8922413882909	
2036666666.66666	-2.23868090965404	-46.9077322278165	-86.9698003860396	-91.5538780669371	-75.8409493931423	-141.982888768849	-0.164913139672833	34.9147211749808	
2040000000	-2.29028516065203	-49.6153061356336	-83.7690268552341	58.3572816363749	-85.2601081409613	28.0228878436144	-0.161647129916683	34.9645966221231	
2043333333.33333	-2.32657398969661	-52.296652673569	-76.5552243450891	-70.3687026135838	-74.0150842283887	25.2919925053888	-0.159203028032752	34.9934209699398	
2046666666.66666	-2.37189242271696	-54.9461182363161	-89.2212598535788	-11.4151339563337	-75.3691575755724	-7.05401325804045	-0.146110699596168	35.0789574452699	
2050000000	-2.43526993535816	-57.5986952006341	-79.1332728533971	-37.3843534565993	-80.5886459678362	16.9767203381861	-0.136159168868302	35.1261272524472	
2053333333.33333	-2.507377115272	-60.2726333811229	-90.76840604012	-130.431969575456	-86.8190833806146	178.138803474203	-0.12741536248766	35.1942487672058	
2056666666.66666	-2.62074640324966	-62.972572941299	-79.7090428445226	-43.0486470228463	-82.1903637480334	-87.372019001834	-0.116277415232587	35.2669138661959	
2060000000	-2.76299325804161	-65.6150671621913	-78.2332603247969	-58.7690207393323	-82.362257521812	-163.307239420532	-0.105258611010122	35.3664637178173	
2063333333.33333	-2.95078432333837	-68.3390856762308	-76.7524816146118	19.8501125390604	-84.3439982361811	-133.474972970267	-0.0919215032315218	35.4387911772198	
2066666666.66666	-3.19258517626808	-70.913468262233	-83.1085117215977	122.356490747306	-78.3737389437082	-51.3832795513356	-0.0844338391824452	35.5293055239268	
2070000000	-3.45951916337647	-73.2331732443885	-88.5360314882461	84.8057152963669	-83.0258433656371	-174.200608154108	-0.0775626589498916	35.6578654972378	
2073333333.33333	-3.72886896743104	-76.032290194444	-77.9818390012994	-57.2295189795022	-80.3906891514795	179.490192607957	-0.0760691371268103	35.7552337266986	
2076666666.66666	-4.12996070048303	-79.1218075505491	-79.242017301856	27.9254607662824	-86.0693637572106	68.3225984519218	-0.0700249160678112	35.8817466058945	
2080000000	-4.60585819284684	-81.9277033736577	-81.2632975950908	11.1373198338886	-82.6070945330227	-105.341919795267	-0.0726293331697866	35.9772321191278	
2083333333.33333	-5.17147331885796	-85.0109047841045	-90.873077269124	-164.820990577237	-80.3891206432341	-25.6341178041702	-0.0705999116909858	36.0465460892349	
2086666666.66666	-5.8903618207725	-87.6604663492774	-82.139517927871	-135.802954544893	-83.6969287800085	-39.4551704009081	-0.0807507575199279	36.1765705206724	
2090000000	-6.72732001815646	-89.6051921330455	-75.2731388567529	-112.725451140882	-78.9033972207955	-71.3574006589934	-0.0871549716062534	36.2388549999775	
2093333333.33333	-7.68337714167687	-90.6377638696043	-85.5617183033664	54.2607555333994	-86.1281806652009	145.021958869327	-0.0947722155819271	36.3002729097382	
2096666666.66666	-8.78483587229187	-89.8373491299985	-80.0390297546845	97.3647239776181	-72.9762118381369	-118.643932486081	-0.106322191686237	36.3739123654411	
2100000000	-9.81781629330398	-86.8824708745476	-85.8805916170454	-80.6400538893595	-83.9179803512061	116.520208685265	-0.123406597568479	36.3851627478354	
2103333333.33333	-10.7729201355732	-81.8879979851468	-81.994887637802	-49.5537418888854	-76.1691545713745	-133.466374110504	-0.13034235371591	36.4008305050085	
2106666666.66666	-11.5881632599139	-74.1858740265315	-83.0790358251219	-113.531685020574	-89.1613335222646	-149.412628844685	-0.143399836247538	36.4288166523535	
2110000000	-11.796538305818	-63.8826737809465	-79.7792283174908	-171.854331015261	-76.3472167352121	-164.633401489571	-0.149872099807748	36.4365853425815	
2113333333.33333	-11.4315666204563	-54.4136769500543	-78.172610794794	-120.225133011224	-80.2273104041892	83.3217847710343	-0.161992297514885	36.438006165549	
2116666666.66666	-10.6726015796795	-46.7301180011661	-75.880851990329	-153.415360079758	-81.914456342237	-6.12256832142071	-0.167545241234218	36.4349739145798	
2120000000	-9.68027994143146	-41.3189689766237	-85.5323645043809	162.640106905975	-74.6070760654304	-172.42437297792	-0.170683064072244	36.4345968427371	
2123333333.33333	-8.66139310955033	-38.7025286284155	-75.0584441375629	-87.2467989283947	-78.2639393646891	-119.313217944879	-0.175660575955295	36.4678918857552	
2126666666.66666	-7.79260525774442	-37.6873969936653	-85.3591877743806	-108.61444292519	-80.1012642859464	-23.4359446944354	-0.173618173105515	36.5052573299617	
2130000000	-7.04253182749306	-37.1904058576449	-78.7182749186534	-59.9157529038776	-79.8334800383198	-162.911449327793	-0.172170002946453	36.5180710240203	
2133333333.33333	-6.32134483441515	-37.6948780596488	-89.6220494199611	132.41980998565	-80.0511176156852	85.4207474211376	-0.168931182401206	36.5425454971759	
2136666666.66666	-5.7419215603612	-39.1921475482616	-83.6978113732974	-109.35364785642	-84.9275990039355	-178.518101105509	-0.158995304897758	36.6035660434603	
2140000000	-5.31622460188266	-40.8190493614218	-93.2253467580034	58.6768939777741	-77.5758874817404	71.572179704407	-0.151523712071622	36.6385345586805	
2143333333.33333	-4.94125645220354	-42.4746346482808	-88.8701984565814	42.3033953125229	-80.7461078723418	49.8825350950008	-0.142609380167117	36.7032879480003	
2146666666.66666	-4.66298692948433	-44.3352530283921	-80.7596318020585	111.005116895023	-77.3279951345651	-21.6892730925251	-0.134441636621501	36.7654673221122	
2150000000	-4.42706551959421	-46.0890438274683	-81.4370397030169	86.4533300688961	-80.2746138251134	46.7962972023462	-0.124949773015305	36.8541721772322	
2153333333.33333	-4.19702994216503	-47.8897019810184	-78.9024894657746	-170.017131767043	-77.6893634343692	60.1959961798335	-0.110895840570032	36.9177024706619	
2156666666.66666	-3.99871864676641	-49.6668695305366	-79.5889202455068	-65.4748384793508	-83.6321504964945	-152.306174338487	-0.100910576184945	37.0175208780066	
2160000000	-3.79162546979832	-51.4321497068635	-80.7662590284332	146.359400360707	-83.6066543911009	-17.1631914636963	-0.089397684237955	37.1301397172288	
2163333333.33333	-3.60336851458675	-53.20096393947	-80.1166590643522	121.113732112616	-87.5021043746687	143.062107694435	-0.0830195876357643	37.2401769761392	
2166666666.66666	-3.41802355520736	-54.9581130807434	-88.884490745098	-128.965903578976	-75.7500113420883	-171.19888196865	-0.0725215298544206	37.3483871527955	
2170000000	-3.25895146644193	-56.7218613341452	-80.9253437787806	136.368780128456	-83.4410623579017	-67.5217971102459	-0.0678878495808092	37.4417349312273	
2173333333.33333	-3.13780839838566	-58.2916908084307	-83.6407355915422	-101.483809707263	-81.9296725593657	-58.3804008737355	-0.0643420949221058	37.5636978417269	
2176666666.66666	-3.03033206355645	-59.7232035420536	-78.2960422683591	144.390267270735	-77.4691810679504	-179.018747833977	-0.0576583423017739	37.6592992253698	
2180000000	-2.94622428628929	-61.0998346305905	-100.787866546345	57.0101704684698	-77.1561402071454	121.715389348533	-0.0604036929595939	37.7868497449275	
2183333333.33333	-2.87982679928903	-62.057513686396	-83.2730893878201	15.9282613506702	-97.923511601051	-67.7355871734878	-0.0567176482015752	37.8943351005748	
2186666666.66666	-2.77097092295504	-63.1897817007502	-81.3515440456231	-120.328716437389	-74.1954508854698	178.408446950529	-0.0696561705912512	38.0211250411233	
2190000000	-2.70313884311822	-64.3772435639814	-91.2085733480046	-28.1302267351669	-82.5231432046954	-131.702043060607	-0.0766953980210366	38.0622648005363	
2193333333.33333	-2.65407787319416	-65.5833766342518	-80.2239552410543	-125.218088007808	-80.3318279418367	175.455069169605	-0.0879578003239854	38.1323140420798	
2196666666.66666	-2.63403014439047	-66.5339911546994	-76.9633444205458	-174.042074505183	-81.9919721328044	-140.7080950822	-0.0984776937600204	38.1384097535772	
2200000000	-2.60479997127423	-67.7039415546756	-85.8227710415842	83.7719977404516	-85.7977487762177	-105.464384766017	-0.118385799708944	38.1896354653818	
2203333333.33333	-2.61059019491667	-68.8146698470175	-76.3384853390476	-162.476235287852	-80.8596561312266	80.5808202190316	-0.127883729745638	38.1928286600425	
2206666666.66666	-2.60767536717115	-69.782574562638	-81.0762850290249	-128.4975969804	-72.331657851689	90.3334248770076	-0.138255130562786	38.1782949169039	
2210000000	-2.59163560852925	-71.0349769790121	-81.5057617778844	33.7583572153288	-81.5818753660738	78.797728575098	-0.152060501641482	38.194095887731	
2213333333.33333	-2.60965100696815	-72.2604628039557	-85.0187269837552	62.129496395273	-87.0045237726884	19.6406181129356	-0.159679012458017	38.1777252666665	
2216666666.66667	-2.59836329966849	-73.3154956288673	-85.4268932925848	9.73864580664481	-77.6344782961129	-62.7818665613716	-0.167569286695297	38.1733730437769	
2220000000	-2.57240710072445	-74.4334390023357	-87.3538380052559	163.977989028998	-77.0686136995965	59.3432634748079	-0.172432291606635	38.1759141548099	
2223333333.33333	-2.55206991992721	-75.5024013694998	-79.0552329560806	-19.1163042476029	-77.8598854723564	31.3237534369593	-0.173040545645558	38.1802970538445	
2226666666.66667	-2.51641076068149	-76.5314502022897	-79.690373965847	29.4755007313631	-86.6723349948732	61.7054753760189	-0.17965409917705	38.1606478988198	
2230000000	-2.48436033826593	-77.4243652176121	-91.7849808783387	73.7702269962486	-85.3619386273905	58.9540378322307	-0.173693968327896	38.1997241109111	
2233333333.33333	-2.43558687636319	-78.1299815048312	-88.7470867853676	86.742054847237	-76.6505069611981	-144.195350114034	-0.163784578318769	38.2071386658922	
2236666666.66667	-2.37187165264122	-78.9131291965929	-78.5723029782039	-121.598881847354	-79.9651753641961	97.5994372525302	-0.161457782128785	38.2434083294505	
2240000000	-2.32117688562581	-79.7656316641043	-79.4984054319179	-144.993702000807	-79.8778093213549	122.144667812408	-0.151199091319255	38.2674454449878	
2243333333.33333	-2.31461766872359	-80.7336887971051	-84.486931933813	93.9743769938078	-80.8911263120833	-76.2007301090859	-0.139711100812819	38.3412204009198	
2246666666.66667	-2.33260818823144	-81.459072130597	-89.126010240413	42.9587135120009	-77.9549666611806	57.4823967547852	-0.123350107207218	38.4127845596724	
2250000000	-2.33423936762364	-82.0429949300267	-87.330150441784	38.0882413041657	-82.6153420028329	-42.959164649002	-0.113071263472287	38.4843842909091	
2253333333.33333	-2.33320379389859	-82.6769511695222	-82.7487364083846	171.279267377893	-82.3986215341619	81.9208633405841	-0.101716751531822	38.6012845580166	
2256666666.66667	-2.32880405840592	-83.4951544855589	-76.672266694117	-112.78447272433	-76.3674047806737	-75.2591189559006	-0.0884759116814316	38.7044566612181	
2260000000	-2.35729357533438	-84.3515790982219	-99.5439511449608	45.7862783895655	-81.9409834190477	-10.1394682206286	-0.0785883982144006	38.8015692001841	
2263333333.33333	-2.41881137842023	-85.1624205923415	-94.8423686896642	100.855372982983	-82.1837191372977	-84.3840298390565	-0.0701506443019738	38.9319512408171	
2266666666.66667	-2.45664835292521	-85.9235210328545	-71.2433043846461	-173.858728419701	-77.7130715369788	-115.183047936988	-0.0640011270487349	39.0462684553421	
2270000000	-2.4928895805347	-86.6703676791412	-89.2122112274396	-138.547978724503	-81.7082191725313	169.584401835974	-0.0546166630751721	39.1757632397152	
2273333333.33333	-2.52108082519765	-87.4705328318962	-83.8335054008012	-164.767617891496	-80.6276508208182	-77.530633638334	-0.049950984394472	39.2748217974298	
2276666666.66667	-2.53730911757635	-88.2970547684871	-81.8370988344642	104.636762575045	-76.241441532379	-171.009785026466	-0.0470031375346791	39.4139343081014	
2280000000	-2.53463586536533	-89.0811492698851	-78.0344775979268	-90.7537198190858	-75.0481146717798	-169.479865085798	-0.043984988668777	39.5053632521941	
2283333333.33333	-2.51326017619607	-89.9336665345512	-87.8350047880643	125.109907395723	-78.7378126565119	-157.791762869273	-0.0529432071539565	39.6347317580102	
2286666666.66667	-2.49238541944703	-90.8488984251109	-90.1617180699627	5.07240853747162	-96.4674483035508	-106.184270435806	-0.0614047326380983	39.7343327174952	
2290000000	-2.48030420893957	-91.6696940917974	-84.9254513567725	-85.3313899126462	-78.9973316656508	49.6837065957035	-0.0731142963939902	39.8394454615729	
2293333333.33334	-2.46015969918048	-92.447612615616	-78.3317825660108	139.649481434516	-75.1736790617147	87.9488592393661	-0.0854453106913304	39.8821890353574	
2296666666.66667	-2.4670031544265	-93.1714461955304	-86.9509674318751	60.5253579678154	-83.1116297240499	-56.5239398813295	-0.0977609984762482	39.9294135614569	
2300000000	-2.48871646795694	-93.5718582213338	-83.0696132791738	5.89913242632981	-77.1110611613846	-102.520586237726	-0.113033662807863	39.9545453839797	
2303333333.33334	-2.47265275789109	-93.884388774421	-84.6224373032107	92.5494367059026	-78.4683003920378	-44.3827828084272	-0.128653924723483	39.986260528449	
2306666666.66667	-2.46169449971197	-94.4067831637316	-77.1817480044668	33.7491594891766	-78.8887051425077	60.2476859539265	-0.141449189872828	39.9791174539099	
2310000000	-2.49130942563195	-95.0143290577946	-81.9383725592923	154.984436312339	-83.2873070632422	-9.70018631146514	-0.150276217553556	39.9762701824276	
2313333333.33334	-2.53637437703744	-95.4119874638686	-80.9835043075236	123.808779279001	-75.100170622028	60.0880375164859	-0.159603652968173	39.9662658567911	
2316666666.66667	-2.55986730975763	-95.6758220609022	-79.7657937499672	138.476010405186	-87.0602554284167	-174.846970440191	-0.16505164989703	39.9457799316426	
2320000000	-2.56159141126293	-96.1840413325779	-77.8885412083973	-50.0633230338464	-82.1663603784363	96.1930213054423	-0.161940990748931	39.9223324625134	
2323333333.33334	-2.58887774729993	-97.0035841578668	-77.3037819824167	40.7727905918862	-83.2310613047614	76.3521540714539	-0.171103940144598	39.935776220221	
2326666666.66667	-2.64037983549898	-97.8575852666893	-80.6883524746008	-103.231738749671	-80.6280983057753	-59.0453506893058	-0.168920674098958	39.9062535441936	
2330000000	-2.73104382155018	-98.7676541626376	-77.1379073053829	-113.010929689783	-74.408281584207	-61.3116632626661	-0.168238167052903	39.9212528921825	
2333333333.33334	-2.80749409463626	-99.3481078713502	-84.2508846310881	-23.7814194321481	-78.3810177313783	137.282433793573	-0.160806103105891	39.9260068564324	
2336666666.66667	-2.85058860887688	-99.8338876389034	-79.4245463691259	-155.134982010507	-77.7814715487266	-146.705013894837	-0.15123435876199	39.9240678180486	
2340000000	-2.85128258243792	-100.513626306888	-86.8047457811227	-7.5475764467571	-88.0532497652713	55.021079571395	-0.137636710164338	39.9485853314521	
2343333333.33334	-2.86118656045662	-101.335529484519	-84.2762319346758	-153.995460807959	-80.4001934292629	-133.369258803382	-0.130110511806995	40.030573372924	
2346666666.66667	-2.87166848832993	-102.100880195024	-71.3625501369784	49.8477728908761	-76.8128446060504	-137.064414773626	-0.116734679035538	40.083716255891	
2350000000	-2.87344946091757	-102.800905106925	-76.6824558394489	60.5066160235855	-89.0568495670232	151.730152910459	-0.10282098099143	40.1698235810209	
2353333333.33334	-2.87391865954091	-103.400771772903	-74.4369446115823	71.888024667745	-81.1295395150285	-47.3210746117928	-0.0889128349912331	40.2676022131075	
2356666666.66667	-2.86138864594075	-103.949894451719	-84.0629630834472	-75.2642515529768	-80.1397220191229	-119.105729263654	-0.0762552926542588	40.3707743030025	
