!Agilent N9923A: A.07.32
!Date: Thursday, 02 June 2016 23:49:44
!Model: N9923A
!Serial: MY52412257
!GPS Latitude: 
!GPS Longitude: 
!GPS TimeStamp: 0001-01-01 00:00:00Z
!GPS Seconds Since Last Read: 0
!CHECKSUM:0678720652
!Correction: S21(ON U)
!S1P File: Measurement: S21:
# Hz S DB R 50
1950000000	-41.7594996685965	-13.8157346124633
1953333333.33333	-40.7106954236523	-21.2960421117067
1956666666.66667	-40.7705052681602	-37.226705630566
1960000000	-42.1145571897971	-46.0062222481121
1963333333.33333	-43.5891943536113	-48.8168481384678
1966666666.66667	-44.0756518508012	-42.603282627029
1970000000	-43.4893135870796	-46.206053992923
1973333333.33333	-43.8176062868609	-44.1359879929006
1976666666.66667	-43.1784002273375	-43.2257463694304
1980000000	-41.837396114219	-45.5864423063554
1983333333.33333	-40.8755543459834	-57.8615293352693
1986666666.66667	-41.3794296297673	-71.7562684913154
1990000000	-42.4914396493689	-78.1394065298997
1993333333.33333	-43.2717420469397	-76.8270515366089
1996666666.66667	-43.09496056181	-79.6076184625697
2000000000	-42.9041756426394	-86.6556676226465
2003333333.33333	-43.5981137444163	-93.4208611944828
2006666666.66667	-44.693772800218	-93.2215415114275
2010000000	-44.325453596231	-90.685848029164
2013333333.33333	-43.9388270891016	-97.6300149660339
2016666666.66667	-44.6352733741844	-104.262333333524
2020000000	-45.3259944814486	-99.1091868960624
2023333333.33333	-44.347675201625	-101.16339621758
2026666666.66666	-43.9734009918425	-108.065543627653
2030000000	-44.0714049244035	-115.000887804317
2033333333.33333	-44.0874874352143	-120.019819026608
2036666666.66666	-44.5171351047209	-127.872328282233
2040000000	-45.4065371190811	-134.488851112963
2043333333.33333	-46.8470013872981	-136.947626227312
2046666666.66666	-47.5684523246597	-135.094225109021
2050000000	-47.5995315057649	-128.332160908423
2053333333.33333	-46.2934148232022	-132.277482238815
2056666666.66666	-46.0521247835357	-140.429797846008
2060000000	-45.8532219215621	-152.646354258256
2063333333.33333	-47.043458399377	-163.387135539396
2066666666.66666	-49.9191588208385	-171.669416168306
2070000000	-51.8757947078426	-162.863625185403
2073333333.33333	-51.2287976372972	-160.219279776116
2076666666.66666	-50.4053123534782	-161.106929780352
2080000000	-51.3838594900712	-178.284123531383
2083333333.33333	-53.4428735728154	174.344172373082
2086666666.66666	-54.1817017786953	163.040313124968
2090000000	-56.5250867317791	141.389172350312
2093333333.33333	-58.4317872998806	131.687234507944
2096666666.66666	-53.161081752624	89.2494257422158
2100000000	-48.2232486516946	19.1118331509284
2103333333.33333	-47.6829523120133	-28.4076492929169
2106666666.66666	-48.7179649689159	-40.2590557102562
2110000000	-45.6005979433402	-51.5040631410727
2113333333.33333	-45.3624675395726	-77.1604779212552
2116666666.66666	-48.3789604665542	-86.373868503794
2120000000	-47.9097044978737	-63.4886046167283
2123333333.33333	-45.175636269156	-64.5028897272305
2126666666.66666	-43.2242504396431	-71.8050755165909
2130000000	-43.3327513456857	-83.6331406220298
2133333333.33333	-42.1064044225987	-75.6379784533333
2136666666.66666	-39.1171841541234	-88.6834515971658
2140000000	-39.2152098180067	-106.7163305513
2143333333.33333	-40.31646801806	-113.442179310808
2146666666.66666	-40.1702089499729	-111.083941547074
2150000000	-39.3789085516162	-113.184918277353
2153333333.33333	-38.3153273213176	-115.518616161859
2156666666.66666	-36.8504537050654	-122.332684441993
2160000000	-35.9154236700657	-135.415476157082
2163333333.33333	-36.0476166599136	-150.376263145097
2166666666.66666	-36.7535740908159	-158.040443722411
2170000000	-37.6549631089846	-166.411522391057
2173333333.33333	-39.6463634519164	-166.138401045363
2176666666.66666	-38.8311689084257	-153.132351315463
2180000000	-36.8942687959101	-155.655522319301
2183333333.33333	-35.7444384312214	-165.340000625052
2186666666.66666	-35.488450200198	-177.322608447003
2190000000	-35.9663804723095	173.292979406544
2193333333.33333	-36.5750034646939	169.355935039076
2196666666.66666	-36.8117034017536	164.864245570517
2200000000	-37.0310072521514	160.374837262477
2203333333.33333	-37.8274115859383	158.271782176119
2206666666.66666	-37.9737822097839	158.353163050214
2210000000	-38.2056397415723	161.104819935965
2213333333.33333	-36.8612479527822	164.731266623084
2216666666.66667	-35.822256483578	157.277053458445
2220000000	-35.2836343426036	149.121010494941
2223333333.33333	-35.207068476139	141.872833109568
2226666666.66667	-35.1163171223625	134.585370867853
2230000000	-35.7163110201798	124.611431706984
2233333333.33333	-36.8976148888483	121.805284362187
2236666666.66667	-36.9496686526526	125.56376768211
2240000000	-36.4386691318549	122.136554194252
2243333333.33333	-36.7659427888798	114.904024628208
2246666666.66667	-37.4019032274409	117.117976596771
2250000000	-36.6355088940461	117.823359654998
2253333333.33333	-36.0800683517539	112.452295755315
2256666666.66667	-36.0800768271315	106.697858870879
2260000000	-36.0827966083588	101.517611530138
2263333333.33333	-36.5666785141504	95.1735099247142
2266666666.66667	-37.3878977985185	94.1680298654666
2270000000	-37.1070158322283	96.9402198974932
2273333333.33333	-36.2585793531039	89.668008720834
2276666666.66667	-37.23893063094	82.811599048036
2280000000	-37.9892083757313	85.0506631369524
2283333333.33333	-37.5096623609976	88.9847176144297
2286666666.66667	-36.89452919513	85.5434935427317
2290000000	-36.6877153443216	80.9580545568704
2293333333.33334	-36.5547720732492	76.905501484862
2296666666.66667	-36.8130706233977	72.8142149725546
2300000000	-37.3306245913343	72.8490470992201
2303333333.33334	-36.8035242476387	74.0183211016576
2306666666.66667	-36.0253043681398	70.2917398601937
2310000000	-36.2139711508053	63.0940952348425
2313333333.33334	-36.4090670156833	61.165519441798
2316666666.66667	-36.2643268158857	58.790162440685
2320000000	-36.406532862164	56.5730883472288
2323333333.33334	-35.8046515996128	56.3901564653437
2326666666.66667	-35.168403532134	46.9831437037801
2330000000	-36.6936226627449	36.1475557882731
2333333333.33334	-38.0280699120103	47.5576863114285
2336666666.66667	-36.6934445079509	50.9574232761738
2340000000	-35.3689716460477	46.0921580958397
2343333333.33334	-35.049699374105	35.6905748220035
2346666666.66667	-36.0605481789905	29.0510533959121
2350000000	-36.5731205118441	31.5378753648152
2353333333.33334	-36.039600165943	34.8812752730272
2356666666.66667	-35.0055189129848	30.6463566009652
2360000000.00001	-34.7849168193844	22.2331270971659
2363333333.33334	-35.2613959826162	16.2423660378521
2366666666.66667	-35.6550464249742	12.6630387882015
2370000000.00001	-36.0271961571553	13.5993830114635
2373333333.33334	-35.457523913812	11.6182550448144
2376666666.66667	-35.5421371136873	4.10672426840742
2380000000.00001	-36.6545994668036	2.30404590937515
2383333333.33334	-37.0909541567751	7.5203175377801
2386666666.66667	-36.5531740516586	10.3501491883922
2390000000.00001	-35.6554815213918	9.14341937290255
2393333333.33334	-35.1457430650675	7.50981848256287
2396666666.66667	-34.4369021849556	2.43734639098484
2400000000.00001	-34.0121524363786	-2.95914346489827
2403333333.33334	-33.7546901335952	-8.56175579211047
2406666666.66667	-33.8546689292221	-15.3242977864077
2410000000.00001	-34.042651564151	-18.7933243691048
2413333333.33334	-34.1266518486053	-25.1434077149646
2416666666.66667	-35.3678066793852	-28.829831713359
2420000000.00001	-35.7875297539527	-21.9257297545047
2423333333.33334	-34.5750110592828	-18.0341900913987
2426666666.66668	-33.4226515094845	-23.4439370499881
2430000000.00001	-32.8988668823288	-31.0949229260529
2433333333.33334	-32.9074520483468	-38.369763052702
2436666666.66668	-33.3215760997351	-43.9207845043875
2440000000.00001	-33.3897421608324	-45.9437157879049
2443333333.33334	-33.1595386913671	-50.7948829085687
2446666666.66668	-33.2522106025433	-56.6740423706782
2450000000.00001	-33.9886367288633	-62.4976223975024
2453333333.33334	-34.8326812835213	-63.7956087924699
2456666666.66668	-35.0749000529325	-63.4253128574605
2460000000.00001	-35.4432287415927	-63.2469479030594
2463333333.33334	-35.4530758658787	-61.2989326313502
2466666666.66668	-35.1676242873443	-57.0497147658897
2470000000.00001	-33.8559927406193	-55.0029750714052
2473333333.33334	-32.4936033485668	-63.3927110331335
2476666666.66668	-32.0229079715883	-71.6886027083454
2480000000.00001	-31.8233099326476	-82.5672039679155
2483333333.33334	-32.9741190655819	-91.4517829727808
2486666666.66668	-34.0189090883237	-90.6502793223898
2490000000.00001	-33.836394369703	-87.9593143376274
2493333333.33334	-33.2188809934742	-92.9029629822581
2496666666.66668	-33.9860173698438	-97.4779422387976
2500000000.00001	-33.987724720777	-92.7832197387749
2503333333.33335	-32.6842292957479	-95.2021560838598
2506666666.66668	-32.5399172319646	-104.645539988862
2510000000.00001	-32.8803386280258	-108.699100173468
2513333333.33335	-33.1420015967256	-112.263780932188
2516666666.66668	-33.3564145143532	-112.119287211222
2520000000.00001	-32.5964473865653	-114.434064189997
2523333333.33335	-32.3336683406882	-121.197117204196
2526666666.66668	-32.3556760708412	-127.949274752582
2530000000.00001	-32.7497750954424	-132.964518956071
2533333333.33335	-32.9894096040621	-136.619156603352
2536666666.66668	-33.1576616159119	-141.271558954006
2540000000.00001	-33.7589636968979	-145.145586396194
2543333333.33335	-34.0390757538322	-147.548129967137
2546666666.66668	-34.5510088353744	-149.222885090449
2550000000.00001	-34.9612092004883	-149.629784415338
2553333333.33335	-35.3524718576192	-146.423934895241
2556666666.66668	-34.3132764809969	-142.090504945043
2560000000.00001	-33.0237875112682	-148.70356144191
2563333333.33335	-32.9957981885794	-157.965552198429
2566666666.66668	-33.0243513286903	-164.257698734542
2570000000.00002	-33.5515043438056	-173.923980027481
2573333333.33335	-35.0908572021564	-176.027584300793
2576666666.66668	-35.7888226087762	-167.740417202972
2580000000.00002	-34.4461438369156	-166.347088052731
2583333333.33335	-33.9732421195697	-173.840328178512
2586666666.66668	-34.5237301051501	-178.565038904195
2590000000.00002	-34.0952463065913	-176.890835642131
2593333333.33335	-33.7015621593997	177.03915047992
2596666666.66668	-33.5342123497465	172.742746046945
2600000000.00002	-33.1640739142784	166.761357822973
2603333333.33335	-32.7974923966154	157.176738960709
2606666666.66668	-33.738969290061	144.331646822526
2610000000.00002	-35.6826980785272	140.507145754453
2613333333.33335	-36.8067274359059	143.896267977508
2616666666.66668	-36.8226087283461	148.41892861666
2620000000.00002	-37.1511014302531	144.395614619856
2623333333.33335	-37.6700452237105	149.964409224045
2626666666.66668	-37.0167119558368	150.511543625059
2630000000.00002	-36.6867627494532	151.322150500022
2633333333.33335	-35.6946852576394	146.165896562567
2636666666.66669	-35.9739558856463	135.886633824946
2640000000.00002	-37.3217064282971	134.76368433893
2643333333.33335	-37.214611608851	138.458801851077
2646666666.66669	-36.4711611397172	136.744257878782
2650000000.00002	-36.1576660022351	130.958641590661
2653333333.33335	-36.655625608424	124.057061983101
2656666666.66669	-37.5460161771396	119.624771791273
2660000000.00002	-38.602054857194	122.857979205418
2663333333.33335	-38.0785531913736	130.414039922321
2666666666.66669	-36.8670666058711	128.3052218761
2670000000.00002	-36.5270770289696	120.991856241082
2673333333.33335	-36.8183577576958	114.726891030666
2676666666.66669	-38.0466611487653	111.696310367269
2680000000.00002	-37.5789491147013	123.711865885045
2683333333.33335	-34.9464063469324	117.228387538489
2686666666.66669	-34.7253864905564	97.2832817813917
2690000000.00002	-36.7421950996641	86.3573914971537
2693333333.33335	-38.4951701821584	91.3042598591017
2696666666.66669	-38.1147939899229	94.8822145061588
2700000000.00002	-38.4570234491791	91.1552310858107
2703333333.33335	-39.2769885430844	96.9523979062038
2706666666.66669	-37.9688091259086	95.5553208123877
2710000000.00002	-38.7162613061596	89.0738239331005
2713333333.33336	-38.5846157594739	98.1825308422659
2716666666.66669	-37.0989599286044	95.1265625339438
2720000000.00002	-36.3747862127669	87.2486515362965
2723333333.33336	-36.4158240269406	77.1695060298958
2726666666.66669	-37.3629498262604	72.3295060533172
2730000000.00002	-37.6655355718559	70.8507709393685
2733333333.33336	-37.7953276207843	69.1626260980316
2736666666.66669	-38.008084426218	65.8747688382509
2740000000.00002	-38.6066607488396	60.3099052221328
2743333333.33336	-40.5080879820833	61.7474077408926
2746666666.66669	-39.9661350876256	81.9721928985953
2750000000.00002	-36.7007107419809	81.1469039090908
2753333333.33336	-35.2748968881852	66.0904529905466
2756666666.66669	-35.379793313158	55.1052778248489
2760000000.00002	-35.1510963272996	49.0966165884857
2763333333.33336	-35.1158644378652	36.4798143244509
2766666666.66669	-35.8152261973776	26.0060517211409
2770000000.00002	-36.2147142246953	20.3670071126209
2773333333.33336	-36.5336786581366	4.42574312055924
2776666666.66669	-38.9847786664435	-10.1356368461851
2780000000.00003	-42.7172477288533	-10.5653371472061
2783333333.33336	-43.1654707414846	9.48235885579549
2786666666.66669	-42.2372981607217	-0.198171512258939
2790000000.00003	-45.194940402397	-20.2562855675893
2793333333.33336	-52.5282066756323	0.131536241171821
2796666666.66669	-50.7330756566491	42.1999599813418
2800000000.00003	-49.3284151796931	62.0596158445169
2803333333.33336	-44.9513521051952	68.7606239584146
2806666666.66669	-42.6148547359711	55.5530023425572
2810000000.00003	-42.3711130319461	49.1002229338003
2813333333.33336	-41.5696649230451	51.799823440023
2816666666.66669	-40.1802464062304	43.4389843131738
2820000000.00003	-40.1722168652982	31.0922298946867
2823333333.33336	-41.8402759644141	28.661406450895
2826666666.66669	-41.6750116773775	35.6481321650666
2830000000.00003	-40.4882452536522	39.3482542320904
2833333333.33336	-39.0414051722831	32.6513354256174
2836666666.66669	-38.8435442052959	27.8417013353907
2840000000.00003	-37.4313953675815	23.4982894093475
2843333333.33336	-36.8242496283482	6.55786094658662
2846666666.6667	-38.3328929004491	-4.36298850883539
2850000000.00003	-39.0218435978297	-9.67956137182275
2853333333.33336	-40.5565604848719	-15.0195661394127
2856666666.6667	-41.5133954731882	-13.4007656228552
2860000000.00003	-42.7959959499311	-11.679800069346
2863333333.33336	-43.1412849651961	-4.53263896289576
2866666666.6667	-42.3804056744569	-0.067505210689951
2870000000.00003	-42.4194977962007	7.3419076143813
2873333333.33336	-39.7093465268504	8.31660556907997
2876666666.6667	-37.9021191715555	-6.11121868385292
2880000000.00003	-38.7926313742874	-18.9144244156538
2883333333.33336	-38.9878387389923	-21.0594267989853
2886666666.6667	-38.6879309176108	-28.8452052388121
2890000000.00003	-39.076451806536	-39.841606849802
2893333333.33336	-40.3526222275624	-49.0219481135263
2896666666.6667	-42.8035618850267	-60.3178350065427
2900000000.00003	-49.3638636193861	-44.5235749511161
2903333333.33336	-43.5554242930873	-0.228165596165988
2906666666.6667	-41.1127686308316	-16.1769558071373
2910000000.00003	-41.3899004287217	-26.0313850545413
2913333333.33336	-41.7742145845282	-24.3685408564361
2916666666.6667	-40.7837122279006	-22.3505385318447
2920000000.00003	-38.8570186075344	-25.7178802353055
2923333333.33337	-37.7643857702954	-39.7144645764099
2926666666.6667	-37.6508965410935	-54.2435704076717
2930000000.00003	-38.7739951162171	-70.8228130203183
2933333333.33337	-41.2345073977125	-77.675842916279
2936666666.6667	-42.897434230274	-70.5458596991228
2940000000.00003	-43.9144974404062	-71.9713732906014
2943333333.33337	-44.569575736252	-58.9866332896342
2946666666.6667	-43.582276362207	-53.3442875669707
2950000000.00003	-43.5122122986164	-50.6026808637694
