!Agilent N9923A: A.07.32
!Date: Thursday, 02 June 2016 22:55:19
!Model: N9923A
!Serial: MY52412257
!GPS Latitude: 
!GPS Longitude: 
!GPS TimeStamp: 0001-01-01 00:00:00Z
!GPS Seconds Since Last Read: 0
!CHECKSUM:1409287264
!Correction: S11(ON U)S21(ON U)S12(ON U)S22(ON U)
!S2P File: Measurements:S11,S21,S12,S22:
# Hz S DB R 50
1950000000	-4.842519508744	20.7106558324036	-115.45923487483	-31.3662583838108	-87.6528003709735	41.1011074892888	-0.148024752020434	33.4110560911169	
1953333333.33333	-4.91539062705943	9.58828971136699	-87.5196280228195	-117.047216087648	-86.8074706161912	43.7718046399797	-0.137032846865561	33.4721650146443	
1956666666.66667	-4.98017452550943	-1.47067656371761	-78.7528390396229	-5.35073775270178	-96.1510658641234	83.4165942889318	-0.127865859104492	33.5405183845583	
1960000000	-4.99005493636835	-12.3274314374187	-83.7317638762185	-129.759725490507	-85.0005062183827	161.848733912597	-0.12113831861008	33.6260434531703	
1963333333.33333	-4.94765115588361	-22.9957858684279	-80.8394159610034	122.616276737257	-88.1017501277531	140.987474853368	-0.110605807547793	33.6990804418267	
1966666666.66667	-4.86609201503969	-33.1868452429462	-85.7496977999077	66.3533632977711	-78.9863770343526	-56.5360341293346	-0.103414311337789	33.8086491966144	
1970000000	-4.71708701582761	-42.9002837049115	-78.1874569562002	-144.29408420578	-83.3730591331469	-122.05401285346	-0.0981550048542075	33.9251121002003	
1973333333.33333	-4.52044799443863	-51.989549648381	-76.3164907698665	-43.5706088972497	-81.1964363402199	-5.09590051425705	-0.0949292255425505	34.0192812994361	
1976666666.66667	-4.30640502379195	-60.6978578522624	-80.8775985147927	173.578000735602	-87.015461933463	-29.4640029662173	-0.091806549704156	34.1135313576185	
1980000000	-4.13533344886531	-68.6554393140598	-78.7917715708233	-71.2037709913811	-79.8714565463042	-159.277181130142	-0.0826706965937917	34.2045791567973	
1983333333.33333	-3.92023700575231	-75.6890317087921	-82.0909037813311	-107.189503295406	-76.8147287676086	-23.5099022464043	-0.0832233010849249	34.2769473041011	
1986666666.66667	-3.69045678218655	-82.4982330261636	-86.288661738098	-114.932709095748	-79.2782540576118	122.877833462514	-0.0904742448511726	34.3412620570162	
1990000000	-3.51295743545176	-88.9563862869646	-77.4082798936748	-60.0598867257886	-94.4417272169389	-155.572174767138	-0.0935796833132825	34.5090297297733	
1993333333.33333	-3.36520541449344	-95.1179821664326	-99.1893113830589	-170.907041775411	-84.2921972764268	-130.04777792688	-0.101822887258006	34.5775510941587	
1996666666.66667	-3.2799582684305	-100.857332922753	-106.219911976949	-7.98639766601941	-83.5974097732861	43.431683413849	-0.108583789377353	34.6370311305224	
2000000000	-3.20180776315778	-106.353877821702	-74.7535907680648	107.002305254959	-85.1361447364256	169.604274630427	-0.122760227319036	34.6844144493804	
2003333333.33333	-3.17340863047214	-111.52448747641	-87.3219002730661	-10.0730321775082	-77.9453750346939	-20.1549209568372	-0.125716271047854	34.7277890939034	
2006666666.66667	-3.1064057332745	-116.62089346595	-75.2019448970736	10.7316644794128	-76.5763614726021	165.272562307146	-0.140604520753259	34.7559350238216	
2010000000	-3.08876453052572	-122.042833597133	-77.7939761467946	0.162887728202143	-79.7337511874951	74.1516879487423	-0.148748012252478	34.7679135389483	
2013333333.33333	-3.12777678681421	-126.941699047279	-76.7882551057759	-64.7799892657946	-75.5392109802204	-133.832280649734	-0.159063040703863	34.7665365818677	
2016666666.66667	-3.10040266752999	-131.747457537458	-75.3817680003888	149.184718807185	-75.8969863180513	-94.1527536633962	-0.163118048754753	34.7763074649332	
2020000000	-3.07516201908284	-136.849714118521	-88.2140866064349	60.4498730903512	-81.3207839279425	85.2720118786513	-0.168714892818017	34.8015395902982	
2023333333.33333	-3.09480574440063	-141.860250844013	-79.7379266784048	-171.181295918872	-79.1825769675637	-52.986425147237	-0.171734916275424	34.8422052651948	
2026666666.66666	-3.12108569765759	-146.639048587753	-79.9595316263967	-143.792348952271	-76.4232973471659	138.379476490567	-0.17903817451473	34.8572041112183	
2030000000	-3.15049057689993	-151.389330486253	-83.9170896518405	171.76488626425	-81.6162206496276	-74.286628615465	-0.172591196726173	34.882530158651	
2033333333.33333	-3.19616909021286	-156.05933488752	-85.1702744223391	159.081193342747	-76.0591308526658	-174.358818952871	-0.172880994689961	34.9416219213787	
2036666666.66666	-3.24917946726216	-160.528198684517	-90.673859512184	-38.7315172473591	-83.2759205307809	34.8284474852342	-0.16247392219292	34.9538057345369	
2040000000	-3.28235410170695	-165.134780347599	-82.5666405082026	-95.6310594568639	-84.2244841066007	119.916012626519	-0.156777181993849	35.0240734150625	
2043333333.33333	-3.36899615086169	-169.992203404154	-82.7844732962187	-73.2247151889807	-78.7462661498782	108.25881361851	-0.151508146937848	35.0449628205083	
2046666666.66666	-3.47762039179519	-174.843592017874	-76.2729491955498	-99.2024379904482	-78.4693185626138	0.982115386445785	-0.144300871388204	35.1449088837159	
2050000000	-3.63784686604027	179.943060929912	-82.2945344306387	-104.039256205398	-82.0478242861801	-76.0033477868319	-0.133761664723979	35.1771606545183	
2053333333.33333	-3.85281533219899	174.772721203206	-77.4429506497799	-38.092058336704	-76.9053977010614	-115.235196802271	-0.126541740940763	35.2425985981374	
2056666666.66666	-4.11382590120269	169.483447258845	-79.837020516908	-44.7252267232289	-82.4412769281618	-25.1427722276005	-0.115114277479076	35.330787520055	
2060000000	-4.38938941227996	164.133755545786	-82.5986066582743	26.4726279556505	-73.8844553109584	-53.4577435777013	-0.104731241158455	35.4052034408709	
2063333333.33333	-4.63178416380244	158.639634430504	-81.7427888984617	-113.468394425783	-79.4581844308173	-4.80225509414333	-0.097929247724893	35.4953533003791	
2066666666.66666	-4.92341858719631	152.722239302669	-77.8088400623145	-0.0133754853166929	-87.9692711123762	-170.987891906487	-0.0880869120225585	35.5968625388771	
2070000000	-5.16184909247569	147.093173969063	-80.5511494399833	-30.5338344584468	-96.8692982878636	51.7819645195635	-0.0800272674756623	35.6995318153156	
2073333333.33333	-5.31104665599194	140.970803019193	-81.3229189176032	123.761447162892	-83.5152448511232	-76.6903601304269	-0.0761400256070719	35.7809326924217	
2076666666.66666	-5.51046834189547	134.064805885514	-92.5048107273856	-2.0087035080866	-76.0413943906685	5.91798586128279	-0.0713093395291393	35.8972905688315	
2080000000	-5.79076435931549	127.422680439852	-84.73435425573	-108.175499687286	-91.4565562367387	-46.2185940009573	-0.072744037961626	36.0228660085954	
2083333333.33333	-5.98746126693131	120.952661363723	-98.4459872217491	93.3051236439263	-98.401409489331	167.204005882634	-0.0797427480470974	36.0729519488997	
2086666666.66666	-6.19332236516154	113.845004950878	-83.9730067947716	172.368304843056	-86.1494224251002	-119.643513069441	-0.0856605395409541	36.1803594015323	
2090000000	-6.44309257159717	106.728793454753	-92.9423600459402	145.82602148933	-78.094334340353	1.19712722336306	-0.0858906213193941	36.2574805694865	
2093333333.33333	-6.70381914801378	99.6350643286603	-78.7642773074517	-39.0096374619332	-84.0993461016669	-46.2943914424764	-0.0963856717862101	36.3045571971593	
2096666666.66666	-7.00262847519191	92.1788266308339	-76.2586213370727	-141.789965924755	-78.4255155702102	110.208332345213	-0.105640092174986	36.4023523418821	
2100000000	-7.29354476603194	85.1796905328496	-76.4602774610356	-125.694546142983	-86.8132060791531	-52.3732782371959	-0.121695724209039	36.406708027479	
2103333333.33333	-7.54454904780246	78.292888448456	-95.4406962490332	-176.662356804955	-79.8919578081579	-75.2188566247239	-0.127944724986607	36.4148925186618	
2106666666.66666	-7.64303305729148	70.7081574992392	-88.4893033181761	26.1718520164406	-74.2510115515202	-103.974434630921	-0.140575587465592	36.4434879090399	
2110000000	-7.80116007790193	62.8694684334546	-86.4166124048282	165.940438703881	-77.1559495421335	-86.132992636187	-0.144958858496945	36.4681996258655	
2113333333.33333	-7.88912411693034	55.4269590379215	-80.0347461596325	173.799861696423	-79.2569836677254	72.7015935732546	-0.155581568921712	36.4611498311489	
2116666666.66666	-7.8411647533638	48.3487925739013	-82.2384177469652	-133.771157474013	-83.4689649818824	-112.004692990305	-0.161093838809515	36.4668389547019	
2120000000	-7.7059729692682	40.6884891734885	-76.1761705602098	-179.543391066425	-81.7772543778792	-33.4226078083598	-0.164874769558791	36.4632567014759	
2123333333.33333	-7.66212454113862	33.4391443296168	-75.8435383195536	-128.360744026059	-79.4941848239843	-23.1426029973078	-0.167867204152605	36.502870900084	
2126666666.66666	-7.54729799581995	27.3965361227776	-80.0126984593959	134.644252282162	-80.2424010265297	-159.6333971257	-0.167755737280205	36.5225066439718	
2130000000	-7.29240137339012	21.3244352575242	-87.1555261212831	-157.611809718334	-81.3349558273157	58.6026239256368	-0.1660839725686	36.5895256384637	
2133333333.33333	-7.12366214501879	15.0081376914361	-85.6783977977907	151.414686540379	-74.8926126033094	142.06647913841	-0.164108318563018	36.6022780410185	
2136666666.66666	-7.0150140084626	9.4231861153081	-86.6087736688852	-0.381073040078027	-87.6221388104197	-24.5268278855117	-0.155242961138304	36.665505331849	
2140000000	-6.93551752310683	4.50481292026696	-77.525818033394	-178.805912688098	-77.2363554301409	-12.6240869757258	-0.147503057757687	36.6934731897209	
2143333333.33333	-6.84275968692619	0.0475133725779288	-85.4445899237072	128.347577346633	-76.7763036900293	-9.45875719271997	-0.135630422489135	36.7574782527152	
2146666666.66666	-6.75281320741574	-3.76543855796521	-81.8886436667896	-102.720934873432	-83.8880858267797	178.604134848907	-0.131770797434784	36.8156664099993	
2150000000	-6.54448461220554	-7.67529517952244	-78.4949625558838	87.8746836097272	-77.1805097855695	179.791035923884	-0.123270581952419	36.90305992506	
2153333333.33333	-6.35493006468831	-12.0999030200385	-87.0234101572287	161.908820544451	-83.602924484849	-50.1331991001643	-0.10940224265174	36.9614101352878	
2156666666.66666	-6.22027817225446	-16.3072306791146	-75.6455486605594	-177.285063749546	-83.4554455477276	113.712935148997	-0.0998621898101162	37.0694551129994	
2160000000	-6.05450569862425	-20.3582842631314	-81.4904196179092	49.8322529497849	-83.0867197611594	84.3264709176804	-0.0920109024306671	37.1753884027871	
2163333333.33333	-5.91242638643971	-24.5543778284985	-87.3046104975331	88.1576151225707	-75.337340499053	134.78331903393	-0.0856598843971418	37.2934441935271	
2166666666.66666	-5.80571953079632	-28.1797028030187	-81.4442844456143	-32.8313175718936	-79.3652740311302	-4.99149669438562	-0.0751323021749095	37.3723123742968	
2170000000	-5.65304106441913	-31.4790883798104	-77.2564648812825	-28.6752736943543	-72.76410595992	64.7445030546949	-0.0719906062048847	37.4793786183443	
2173333333.33333	-5.48858756100869	-34.8275885094526	-76.7073243840597	146.079743356837	-91.8054045738512	159.456878214195	-0.0653222843785357	37.6087423990666	
2176666666.66666	-5.40274380077023	-37.807532744942	-81.7736021777209	72.5777133199272	-78.6081615959675	-68.6302544554381	-0.0619425327471875	37.6879623920634	
2180000000	-5.28195367811385	-40.1112856129187	-82.671712267488	102.726109716325	-84.4579360729534	21.2347492236338	-0.064337350250208	37.7980553690085	
2183333333.33333	-5.1052492489135	-42.3498435511205	-94.9651851147073	69.3329781949845	-82.9590784461877	-174.21872812727	-0.0651469690989818	37.8904064281683	
2186666666.66666	-4.95156916994209	-44.8739382028015	-82.2533153507361	155.411732801087	-75.4694858475792	155.59947533327	-0.0703455831818906	38.0430253485099	
2190000000	-4.8243649518464	-47.2552248177581	-108.340659503782	-134.002983820178	-82.4612913027784	80.5136300885425	-0.0774046481709299	38.0796527287956	
2193333333.33333	-4.75879828942976	-49.7609897496188	-76.5745022346722	-161.984994413504	-90.008879875076	112.103484063058	-0.0893358807432328	38.1395659571791	
2196666666.66666	-4.71692081972618	-51.5434086608411	-76.2231180472519	-112.227703194054	-91.8148849393873	-65.7642497386554	-0.0990668520990949	38.1439366287505	
2200000000	-4.64244638706699	-53.5174422298306	-72.7548273090806	-21.9249026756304	-78.5963898431588	-57.5876775283305	-0.11680341299437	38.2040987472738	
2203333333.33333	-4.60333882615318	-55.5389763009465	-73.3717164911636	3.43558498275864	-77.5710679521068	-145.033485413676	-0.126033846534604	38.2057239002656	
2206666666.66666	-4.57470611475964	-57.3234263601267	-74.8093765664007	-46.1009408165231	-88.1464962882041	-172.370060103189	-0.135268871110593	38.2005904544782	
2210000000	-4.536074683262	-59.3763464867846	-85.1339329104387	145.036078418083	-87.6621656550862	48.4238123348637	-0.147146908176175	38.2132980638339	
2213333333.33333	-4.51630712957925	-61.1745689492578	-80.5789908964189	-139.396692626133	-76.3248445346967	-44.1291201625677	-0.152691877309958	38.2151249938334	
2216666666.66667	-4.43800272740799	-63.0304860332322	-78.7850649824481	-18.0122000294207	-79.4715175447851	-43.2089780672433	-0.163510577155087	38.1969175051585	
2220000000	-4.36296606665373	-65.0615954725262	-81.5897381372252	-2.0841347854667	-81.1271444517829	-78.0442793046811	-0.163025526150327	38.2230734934701	
2223333333.33333	-4.33704013858685	-67.0419178580004	-82.8001588182833	-104.293236886866	-76.4668553862929	3.08438577578111	-0.163027666943593	38.2313070774295	
2226666666.66667	-4.27575692660949	-68.4967128542681	-91.892100131368	117.39282766115	-79.7558088495906	-91.0954209388502	-0.171772621931014	38.2202553754296	
2230000000	-4.16745329875089	-70.146403446424	-72.3756872359204	-12.4704218849617	-72.7367767227709	125.78134246019	-0.165376317952652	38.255244024849	
2233333333.33333	-4.09360191495357	-71.8394211975836	-83.2930998957966	59.1098661143773	-86.227068366723	65.1060809206624	-0.152181008825796	38.267823291144	
2236666666.66667	-4.05330806264206	-73.275460492493	-79.4044190827099	-10.1345028678864	-77.8593060958097	73.6154081542551	-0.154333384264745	38.3153962444254	
2240000000	-4.00030143807351	-74.4344270822894	-77.3821720528988	126.312398977984	-75.1147631574685	103.467709649365	-0.141371454783508	38.3434185951077	
2243333333.33333	-3.97196492478805	-75.7176421787909	-80.3685317895935	28.4521132479354	-78.4129694486226	-7.20680301879512	-0.134085216133871	38.4141417931705	
2246666666.66667	-3.95145258802813	-76.7022644915311	-73.9963259727057	68.7947813995582	-78.1095180669996	111.375885086724	-0.120182048752495	38.4824656917348	
2250000000	-3.89426099725352	-77.5804533015241	-75.4683864270777	-118.854619505411	-76.6923701716077	80.0932830471394	-0.112476157120264	38.557430724303	
2253333333.33333	-3.84316777443768	-78.840887419979	-82.3215998472635	90.7975090155306	-77.6617247092519	36.083753986214	-0.0997518294722578	38.6629878283943	
2256666666.66667	-3.84038834421609	-79.9015787312583	-76.0056498195971	-172.211072313077	-83.2974956498658	-112.347778918264	-0.090602440325654	38.7685264939487	
2260000000	-3.81213755148356	-80.979726723818	-74.7870224213194	-156.122062541329	-87.4507630802095	-114.95343854686	-0.0794426363901949	38.8521725095192	
2263333333.33333	-3.78219204913136	-82.2724780032385	-77.1955681708025	-107.311677406731	-79.5420937085975	157.729704304878	-0.0733571144949719	38.9788303295924	
2266666666.66667	-3.80456580436839	-83.7801907168733	-79.085228435937	-3.45192038811396	-80.017006436077	137.713733155152	-0.067159934097925	39.0842484229663	
2270000000	-3.82631895719131	-84.9727712718633	-89.5555991359413	-107.085568153984	-84.0489141734579	-1.71249127452762	-0.059603327082235	39.2125058107979	
2273333333.33333	-3.80793536511976	-86.2842223349243	-92.9897273138212	91.1958428048004	-78.8151276774356	67.6349521747569	-0.0533362536695892	39.3227511582485	
2276666666.66667	-3.83644111636644	-87.8846315768869	-84.3783917246685	-139.210223811011	-76.2590823068278	-12.2969250578206	-0.0516774968117103	39.4552889223774	
2280000000	-3.89372708193786	-88.9645266985951	-77.0824351844248	-63.9603998449659	-88.6233531111999	150.550109486916	-0.0468256901479588	39.5236541234088	
2283333333.33333	-3.86618445104776	-89.850490675956	-75.9893498718949	64.0134662232517	-83.5452405025511	-63.4483617412932	-0.0554737360573345	39.6331222995375	
2286666666.66667	-3.81448747758405	-90.8797567739036	-70.7082062151364	-23.9268804076527	-77.7969895389913	79.7304278944091	-0.0627095755945472	39.7412863477401	
2290000000	-3.77588183704543	-91.9277784799886	-83.3905134597965	-35.8779057945386	-75.8927337718109	25.786360388536	-0.0730583709893065	39.8528638389346	
2293333333.33334	-3.72244957609615	-92.9043497895106	-75.9961705984469	-105.061260182701	-77.3162759506213	70.1357118034931	-0.0870502690743556	39.8852861185138	
2296666666.66667	-3.67654598369285	-93.9125683724974	-78.6293917604417	63.5908914183347	-76.582320376545	103.770197182297	-0.0970519220274055	39.9297656845333	
2300000000	-3.67405985712896	-94.7197814952076	-79.9820737862167	-77.8890155226622	-77.6580299277181	50.1486531665493	-0.110019834305176	39.9657495224601	
2303333333.33334	-3.65035472013743	-95.3724769331043	-82.0876662059406	-70.0198238773074	-84.9612569246865	32.4115885773378	-0.123492427779568	39.9972997191095	
2306666666.66667	-3.61181123002099	-96.2038389651724	-75.9108273865016	132.048499990134	-82.487178186328	38.3838023807299	-0.135132502145742	39.9867721863688	
2310000000	-3.65255234901012	-97.2831562494143	-77.3130011405653	12.6134601246431	-82.8734797897793	-133.543713572295	-0.143677716065166	39.9989670977742	
2313333333.33334	-3.72221135462672	-97.7980548157211	-80.425492970737	132.662441582675	-84.0637255119761	134.176321841709	-0.149346893880779	39.9930070250186	
2316666666.66667	-3.73373765691786	-98.2705142106971	-77.6387523609659	61.4200140642087	-78.8529556088869	132.314103997113	-0.157837426418519	39.9858865705041	
2320000000	-3.76321702596292	-98.8311718371612	-85.6715717752084	-58.1409269223635	-74.0200702873215	-17.5594339234626	-0.157477317900946	39.985503071499	
2323333333.33334	-3.76401139513346	-99.5570255673464	-77.3515228714281	-98.0465765655914	-73.3076763971736	27.6456274861768	-0.162926199699162	39.9846574744028	
2326666666.66667	-3.7643362398473	-100.482719869095	-85.3655939105524	120.747798980192	-80.7918247027337	15.4983808596839	-0.160864800640999	39.9535111439157	
2330000000	-3.79024568192932	-101.592839756787	-91.3317884666613	-79.369664295974	-75.9638703988414	64.887042089058	-0.159792556673341	39.9931021852807	
2333333333.33334	-3.84144512772667	-102.560729819299	-78.2902963262367	89.0956566380972	-76.7798134717313	158.744587846229	-0.152241412548211	39.9910756808857	
2336666666.66667	-3.85807165599968	-103.4002688771	-77.0722122025149	-124.2670624089	-94.6299738170765	-18.0832174787269	-0.143584969023333	40.0037638721371	
2340000000	-3.85766292286519	-104.3926775728	-74.8234933257443	28.7839347633412	-73.9267337755219	-65.5350804435696	-0.131300628641203	40.0185916477831	
2343333333.33334	-3.86416404963133	-105.345358433293	-78.9219758940567	-100.539482726697	-80.0361786604989	63.4256988735974	-0.125238737410775	40.1064310864909	
2346666666.66667	-3.84348811065175	-106.289465189452	-73.9765787574477	8.85677566601225	-81.6412664294065	-53.5120751673549	-0.11241912511498	40.1464315113404	
2350000000	-3.83515945124508	-107.307210979965	-82.3934415963686	-118.603483491737	-78.2016098819208	-153.757401201021	-0.102241463849043	40.2276481289544	
2353333333.33334	-3.85387696714649	-108.030753591231	-81.5844207774217	-104.544018539709	-86.6570340971805	117.415881057612	-0.0898058211311752	40.3340256383589	
2356666666.66667	-3.83641248784665	-108.669387068568	-81.137950792822	-122.929111977958	-96.2453228256711	79.5704076898951	-0.0781186123996029	40.4320134880698	
