!Agilent N9923A: A.07.32
!Date: Thursday, 02 June 2016 23:38:09
!Model: N9923A
!Serial: MY52412257
!GPS Latitude: 
!GPS Longitude: 
!GPS TimeStamp: 0001-01-01 00:00:00Z
!GPS Seconds Since Last Read: 0
!CHECKSUM:0402962611
!Correction: S12(ON U)
!S1P File: Measurement: S12:
# Hz S DB R 50
1950000000	-37.3166037265438	139.336490245794
1953333333.33333	-37.5831647180565	128.915079376213
1956666666.66667	-38.2843848397255	116.242811882197
1960000000	-40.2106130700868	106.300205148001
1963333333.33333	-41.683562921164	107.221487280851
1966666666.66667	-41.6929155084378	109.715159384536
1970000000	-41.8568157196146	105.035004478052
1973333333.33333	-41.9695533495473	102.602303085215
1976666666.66667	-42.0227543554643	99.0568442092663
1980000000	-41.3894492706821	94.3870835948958
1983333333.33333	-41.4135928851168	82.8205991913503
1986666666.66667	-42.7515809134408	74.372710783587
1990000000	-43.7945532465423	72.6472016147128
1993333333.33333	-44.2470403587208	69.7924741507587
1996666666.66667	-44.7986495399844	67.629558970418
2000000000	-45.7327688952526	65.5331592248085
2003333333.33333	-45.5466277618361	66.99914715862
2006666666.66667	-46.1586016202827	64.4417341517656
2010000000	-46.8482813021236	71.3825127938951
2013333333.33333	-45.2525195613668	63.3783968720425
2016666666.66667	-46.8476277839295	57.5161136243436
2020000000	-47.3194919969476	59.3726194554152
2023333333.33333	-47.8042412679376	63.8580060974368
2026666666.66666	-47.2871826836114	64.9733689267627
2030000000	-47.011705558039	66.0154367257345
2033333333.33333	-46.1541496351678	59.8613683176442
2036666666.66666	-46.6151422723247	52.698998061014
2040000000	-47.4340364932974	55.0107353471632
2043333333.33333	-46.5614503443342	60.0212289672457
2046666666.66666	-47.534297340039	54.8536587673112
2050000000	-47.2902416034908	64.3293381607457
2053333333.33333	-45.8297219896211	65.5427998671124
2056666666.66666	-45.4718616786673	59.7358208431791
2060000000	-44.9601420170264	68.2347357768917
2063333333.33333	-42.9588166285202	62.5708825699353
2066666666.66666	-42.4091944185704	56.406213966652
2070000000	-41.5931544533224	51.6034053975347
2073333333.33333	-41.4573089530232	43.3495149978491
2076666666.66666	-41.4663985664694	40.525867335602
2080000000	-40.9691829655677	37.8338230995659
2083333333.33333	-41.1177274752274	30.3531967014177
2086666666.66666	-41.5782804343526	35.3253790022193
2090000000	-40.0516184870516	39.5567615585047
2093333333.33333	-38.6686919845112	36.1998149337269
2096666666.66666	-37.2756575211107	31.8182880700374
2100000000	-35.5239551173246	21.3619742327136
2103333333.33333	-35.0020923283114	5.48879221241138
2106666666.66666	-34.9876467953818	0.0354716087643038
2110000000	-34.2133052905545	-12.7141450738673
2113333333.33333	-34.5936364574637	-27.0101539067434
2116666666.66666	-36.056975320409	-32.9596462633721
2120000000	-36.0909158010652	-35.8637743860759
2123333333.33333	-36.0466777427154	-40.1126559330916
2126666666.66666	-37.1320432393734	-41.9021801534461
2130000000	-35.6274111574718	-38.4479757625474
2133333333.33333	-34.2592158172511	-47.5990160976471
2136666666.66666	-33.6251674916827	-64.8186465135834
2140000000	-35.0093690862281	-79.1258963472623
2143333333.33333	-36.2643798745337	-77.4361124122172
2146666666.66666	-35.7730603603405	-79.0959212969898
2150000000	-35.1747774656736	-84.7928531015143
2153333333.33333	-34.5731726635166	-95.046713345286
2156666666.66666	-34.6062015271906	-110.155173825009
2160000000	-35.7744075183236	-124.822728704561
2163333333.33333	-37.9316840475856	-133.268342623218
2166666666.66666	-40.0363993102731	-133.664496906649
2170000000	-41.5526121411243	-128.721795082031
2173333333.33333	-41.9434282188726	-111.770998005569
2176666666.66666	-39.3172225310087	-105.822082197346
2180000000	-37.4463473822862	-116.555784990904
2183333333.33333	-36.9629796155087	-130.409442343033
2186666666.66666	-36.9780635950156	-143.027704653675
2190000000	-37.6592981123589	-156.33339922545
2193333333.33333	-38.7794078641558	-168.377255262121
2196666666.66666	-40.7681682185407	179.431787970461
2200000000	-44.2111667552282	176.18904629129
2203333333.33333	-48.2634349694519	-157.421865671676
2206666666.66666	-44.1909913926495	-131.790248116191
2210000000	-41.403776538742	-143.861339162912
2213333333.33333	-41.0507265644676	-154.416959832825
2216666666.66667	-41.2127644296414	-160.39233576728
2220000000	-40.3855459549596	-165.260884984324
2223333333.33333	-39.9896623935316	-179.219120542856
2226666666.66667	-41.578812510132	167.829277309572
2230000000	-43.9200203195111	169.612981268684
2233333333.33333	-43.6524181409587	176.938435679525
2236666666.66667	-42.4856367532983	170.193132711515
2240000000	-42.9716087591675	163.02218660507
2243333333.33333	-43.1434485236562	154.565270054968
2246666666.66667	-45.3480571556101	146.045669308535
2250000000	-46.9172386662478	159.819528372648
2253333333.33333	-45.6372062570932	166.907560725302
2256666666.66667	-44.7602217718879	161.499557364319
2260000000	-44.9342543237989	152.569689264278
2263333333.33333	-46.4128748695319	154.180960740938
2266666666.66667	-45.6442598640588	157.885030671396
2270000000	-44.6228275098737	148.413560407107
2273333333.33333	-45.6005830071117	139.631638161444
2276666666.66667	-46.0063001681314	145.841885478384
2280000000	-45.1695503655494	138.13699466864
2283333333.33333	-45.6038992851472	133.9675617765
2286666666.66667	-47.199562264602	127.234387234902
2290000000	-47.9353462750858	134.171638344354
2293333333.33334	-47.0555053245486	135.271126648826
2296666666.66667	-46.7889077837696	136.152556283652
2300000000	-46.0974373409684	134.098012343238
2303333333.33334	-44.7959765523324	120.604348200232
2306666666.66667	-46.4664776020973	108.220676064104
2310000000	-48.2858821258999	111.859793855703
2313333333.33334	-48.4009023486402	116.107973910588
2316666666.66667	-47.2316026413191	120.503799601547
2320000000	-46.7873230678602	107.433615754895
2323333333.33334	-47.8589671473001	100.511694852632
2326666666.66667	-49.619568817008	103.092360882679
2330000000	-49.2980191176466	109.522498542917
2333333333.33334	-48.0940908101341	105.253012966511
2336666666.66667	-48.1226469098429	100.309619043206
2340000000	-47.9815979970644	85.6377079349518
2343333333.33334	-50.4026018031461	81.4958274284221
2346666666.66667	-52.6263112438133	83.2408409353501
2350000000	-51.5889537285531	97.5622206706628
2353333333.33334	-51.4048743594117	94.9654912433223
2356666666.66667	-51.6006402032731	90.585561383853
2360000000.00001	-53.7727642195072	88.6537570710319
2363333333.33334	-54.1420161751172	99.984351450637
2366666666.66667	-53.9101869871752	102.063594286925
2370000000.00001	-55.0790363737211	103.218229028928
2373333333.33334	-52.6882996928229	116.567946231466
2376666666.66667	-52.8078393200121	106.659074672938
2380000000.00001	-52.2377416407153	125.000414827721
2383333333.33334	-49.5940011389444	127.150838243844
2386666666.66667	-48.6003496438077	116.264091739785
2390000000.00001	-48.8622681750601	110.079018059875
2393333333.33334	-49.3044266089315	113.579061136407
2396666666.66667	-47.5509657972959	121.024815980207
2400000000.00001	-45.7973728394702	112.146342573722
2403333333.33334	-44.6578233456624	100.61710126681
2406666666.66667	-45.4932619613088	86.9994790332673
2410000000.00001	-46.9245675825785	92.7203938342121
2413333333.33334	-44.5719419740657	96.5141271229073
2416666666.66667	-44.4322625093788	80.6469692265237
2420000000.00001	-46.6502399127587	77.4822362106161
2423333333.33334	-46.627542485126	83.0909846110845
2426666666.66668	-46.3438190305341	86.0293107800062
2430000000.00001	-44.51223566483	85.410421571354
2433333333.33334	-44.1941701202817	73.6292878862969
2436666666.66668	-45.3013800793994	68.2689959250857
2440000000.00001	-45.3328302279686	73.3908432640895
2443333333.33334	-44.1442044359195	77.5483802700011
2446666666.66668	-42.4717602399407	67.6688008777226
2450000000.00001	-42.0165121199284	57.632707606465
2453333333.33334	-42.2280169513455	45.2305224940219
2456666666.66668	-43.7080555408624	41.8639940010899
2460000000.00001	-43.7129345556237	45.2824126345827
2463333333.33334	-44.3371593875396	42.0164830747368
2466666666.66668	-44.9077131272619	50.8214850049083
2470000000.00001	-42.561647160306	53.9166952776832
2473333333.33334	-41.2807842066911	44.9674257910002
2476666666.66668	-41.2159005743397	37.7363647979446
2480000000.00001	-40.2142233844131	32.0970841017551
2483333333.33334	-40.0618973227648	16.6460079459518
2486666666.66668	-42.0160319385737	6.62746129833944
2490000000.00001	-42.7520632513173	14.4101241033763
2493333333.33334	-41.8810202213646	13.433982792301
2496666666.66668	-41.8525966934436	8.2908298237157
2500000000.00001	-41.9169838272959	5.64661884826626
2503333333.33335	-42.2644803055853	8.2620110510266
2506666666.66668	-40.8639492260372	6.67795247193489
2510000000.00001	-40.4773599318988	-2.84596941025915
2513333333.33335	-40.3671458856426	-5.98333779474214
2516666666.66668	-40.2864854422594	-12.2965663055829
2520000000.00001	-40.5601791571652	-16.2068588881877
2523333333.33335	-39.8876994634372	-20.6432718712872
2526666666.66668	-39.9827808688965	-30.4381400894418
2530000000.00001	-41.3920642025259	-37.4720713908973
2533333333.33335	-42.0922003370742	-34.4891251633789
2536666666.66668	-41.9957675126009	-34.556566915225
2540000000.00001	-41.7738479512379	-35.3745707477298
2543333333.33335	-42.2428207742239	-36.9017249705646
2546666666.66668	-41.5463005840628	-32.3337467669192
2550000000.00001	-40.9485247117356	-37.9062415386976
2553333333.33335	-40.4282218685748	-36.9622133544952
2556666666.66668	-38.9146985473797	-43.6117598885722
2560000000.00001	-38.4258537549965	-61.1656884359237
2563333333.33335	-39.9074905246353	-75.3256449889078
2566666666.66668	-41.5366966999456	-78.7292303210407
2570000000.00002	-42.9920005488189	-74.0660941063678
2573333333.33335	-43.2656739945612	-71.4608098548776
2576666666.66668	-43.0085382368857	-65.6652337253243
2580000000.00002	-42.1674717056122	-62.1879292594503
2583333333.33335	-40.7614277689619	-66.3544564340242
2586666666.66668	-40.396659647556	-78.9827665210544
2590000000.00002	-42.3828435884923	-82.4554074246412
2593333333.33335	-41.7019086667095	-75.627920165819
2596666666.66668	-40.8387051705127	-75.3049384771941
2600000000.00002	-39.4807507389985	-82.7329736167975
2603333333.33335	-39.6589758105324	-92.8745831793146
2606666666.66668	-39.467289180046	-101.063632136712
2610000000.00002	-40.9139369558544	-108.73780311321
2613333333.33335	-41.1306320940657	-105.950361254635
2616666666.66668	-41.1024636989081	-111.394164481541
2620000000.00002	-42.8446011170055	-114.897545348314
2623333333.33335	-43.1152835380145	-103.276630061008
2626666666.66668	-41.4594550321456	-102.941374064659
2630000000.00002	-40.6990268897019	-106.485781193965
2633333333.33335	-39.8215414220835	-113.873466173132
2636666666.66669	-39.7791199875633	-124.714902542523
2640000000.00002	-41.4275516676458	-132.240065981743
2643333333.33335	-41.9752802473296	-121.090281085894
2646666666.66669	-40.7030279692055	-119.60625928889
2650000000.00002	-39.3003841526232	-125.343027842548
2653333333.33335	-38.6315126598206	-138.965058224497
2656666666.66669	-40.2738538826397	-152.94460150715
2660000000.00002	-42.4804245227289	-147.386244746157
2663333333.33335	-41.8538824733952	-135.377226177885
2666666666.66669	-40.6099360121919	-133.771748999112
2670000000.00002	-38.8361171122321	-140.482922581063
2673333333.33335	-38.4689055489791	-152.863547659395
2676666666.66669	-39.3652263163285	-164.33980279908
2680000000.00002	-40.0181643544288	-162.472413689254
2683333333.33335	-39.2582058502664	-167.396522706887
2686666666.66669	-40.1086330548656	-176.438847301629
2690000000.00002	-41.6349248717545	-173.966229648511
2693333333.33335	-40.9093351726322	-165.654167525965
2696666666.66669	-39.3044606240311	-171.138768949357
2700000000.00002	-38.7335011613047	179.601424847196
2703333333.33335	-38.8171633573216	173.223841099114
2706666666.66669	-38.5946338427159	159.597198974575
2710000000.00002	-40.2594616550949	144.623088840089
2713333333.33336	-42.9643954966148	147.337257413901
2716666666.66669	-43.9499135757309	162.26718090876
2720000000.00002	-42.3327926679746	168.020987622948
2723333333.33336	-41.4693555448089	165.250135679682
2726666666.66669	-41.2773118887274	158.221458643989
2730000000.00002	-41.1076079506219	153.250619190932
2733333333.33336	-41.4787245699339	152.117204203667
2736666666.66669	-40.7870075746547	153.279046441225
2740000000.00002	-40.7169915624184	141.498336409518
2743333333.33336	-41.5221649657077	135.889399626773
2746666666.66669	-41.9211123546722	136.24589004015
2750000000.00002	-41.9964623495914	133.802430486202
2753333333.33336	-42.5565580383021	134.101721587936
2756666666.66669	-42.0712333270084	139.402457739058
2760000000.00002	-40.0484842648173	125.492365432989
2763333333.33336	-41.6392537120134	110.809346635293
2766666666.66669	-43.205363969068	117.571993790908
2770000000.00002	-42.0845124457065	113.399839089678
2773333333.33336	-42.3437316593051	103.734188475683
2776666666.66669	-43.3215321739773	94.6792273013311
2780000000.00003	-45.8346384431926	84.9358390906488
2783333333.33336	-48.7181033381378	87.9871421912224
2786666666.66669	-51.0421826546212	94.2419860254723
2790000000.00003	-56.1309351887559	167.004479958929
2793333333.33336	-46.2101907172321	169.152980111814
2796666666.66669	-44.4878441152606	147.477826120764
2800000000.00003	-45.2834097403504	165.925011919123
2803333333.33336	-39.9693902921411	166.513584719663
2806666666.66669	-37.8131888727953	146.004562522679
2810000000.00003	-37.4511817764274	129.913914965158
2813333333.33336	-37.207904619301	118.764417374188
2816666666.66669	-37.7324831251847	109.68189989969
2820000000.00003	-37.7264054253983	105.188777308608
2823333333.33336	-37.748512958235	98.621019663657
2826666666.66669	-37.7489671631209	93.7261045509284
2830000000.00003	-37.76207838421	86.6213634508688
2833333333.33336	-38.1374355395367	79.4540964161423
2836666666.66669	-38.7768780562582	77.4700199824705
2840000000.00003	-39.1993925947479	75.121724078678
2843333333.33336	-39.1132276059733	78.6624994531918
2846666666.6667	-38.2208457125028	77.6036189065498
2850000000.00003	-36.9061275248632	71.3813151701125
2853333333.33336	-36.933087318195	58.8688455814872
2856666666.6667	-37.1976039430163	49.4500105956866
2860000000.00003	-38.71367543534	42.5986455895648
2863333333.33336	-38.7218019189437	43.576673715883
2866666666.6667	-38.9732371688143	32.9869767994067
2870000000.00003	-40.8013293959148	30.0687595423244
2873333333.33336	-41.7642199514649	40.1442897053015
2876666666.6667	-40.1739580669846	41.7264484416877
2880000000.00003	-39.7155136665287	36.2155577284435
2883333333.33336	-39.7316796761551	32.526264630045
2886666666.6667	-39.6600502906681	27.7854121555439
2890000000.00003	-38.6684044023904	21.147126588202
2893333333.33336	-39.5300728483005	6.37961853731945
2896666666.6667	-41.6096992072467	1.92717517717703
2900000000.00003	-43.0853297341934	3.6179325187878
2903333333.33336	-44.5086325685795	11.2998620250048
2906666666.6667	-43.1609028048087	22.5690011548676
2910000000.00003	-43.8366157175877	16.6637628160624
2913333333.33336	-43.1625216055154	34.0440853168093
2916666666.6667	-40.4478519836005	30.4474883760623
2920000000.00003	-39.0921718011778	18.3022210044895
2923333333.33337	-39.0844687752556	3.37280301156152
2926666666.6667	-40.3829733150492	-3.69799769172378
2930000000.00003	-40.7022141374699	-0.718128381161837
2933333333.33337	-39.9149518642463	-7.37587558236741
2936666666.6667	-40.7283615529793	-17.7841738710021
2940000000.00003	-42.9217361885198	-27.7220777645933
2943333333.33337	-45.56494258726	-12.788847742396
2946666666.6667	-43.7554029885537	3.99019965758054
2950000000.00003	-42.1138982470015	4.61758993764333
