!Agilent N9923A: A.07.32
!Date: Thursday, 02 June 2016 23:14:21
!Model: N9923A
!Serial: MY52412257
!GPS Latitude: 
!GPS Longitude: 
!GPS TimeStamp: 0001-01-01 00:00:00Z
!GPS Seconds Since Last Read: 0
!CHECKSUM:0163720011
!Correction: S11(ON U)S21(ON U)S12(ON U)S22(ON U)
!S2P File: Measurements:S11,S21,S12,S22:
# Hz S DB R 50
1950000000	-1.62317415346637	27.6982794753433	-37.0938047934513	141.775742246492	-37.2813014784897	142.298491612551	-7.0460429935753	-59.0026454526313	
1953333333.33333	-1.63968948706661	24.1680030121645	-37.0979235931785	130.96577144194	-37.0895668611875	131.413663785108	-5.83747619855223	-69.6029345096909	
1956666666.66667	-1.67632706031122	20.7917886663088	-38.1859584045667	116.159666525587	-38.1665699214909	116.002700506843	-4.86710995074669	-78.3137166290744	
1960000000	-1.73285612015983	17.4343817215372	-39.9308784588781	109.48407336732	-40.2390589556772	109.089329570614	-4.15204670253533	-85.9609175022033	
1963333333.33333	-1.79434398948007	14.0618267551183	-41.5093087417954	107.708336753934	-41.8539073703345	108.907211957999	-3.6409486926932	-92.5192876836015	
1966666666.66667	-1.8727863716218	10.6032344454691	-41.8180787929896	113.369408553118	-41.8497787546466	114.326971494028	-3.28165626423698	-98.2054296343171	
1970000000	-1.94668761178806	7.12508906082171	-41.4964704726695	110.393040829213	-41.4791114782832	111.493580652302	-3.00071200197628	-102.969021520941	
1973333333.33333	-1.99906665875655	3.68652146816749	-41.3463655494323	107.167510602688	-41.1105018584282	107.356989826638	-2.75303439535851	-107.299910083896	
1976666666.66667	-2.03658718079089	0.106172864298919	-40.9187178899245	102.91247872598	-41.0003338709183	103.947294976818	-2.55101905464537	-111.317904739754	
1980000000	-2.05485305657097	-3.34846565881404	-40.0170639658502	97.0639510631986	-40.1465709161327	96.6195501066595	-2.38856607121667	-114.981158891285	
1983333333.33333	-2.04545570093472	-6.79539721412778	-40.0841244162415	82.9587969315384	-40.1449378831287	81.2052809739936	-2.24422381206324	-118.265520792184	
1986666666.66667	-2.02164565893148	-10.1471888252575	-41.1462890782299	71.1912309566459	-41.3973095801293	71.1476639716465	-2.11417188042766	-121.356698228655	
1990000000	-1.99581290454652	-13.371450318921	-42.5193018795866	65.5990200333513	-42.8687591056245	65.4377096350399	-1.99542115367302	-124.186684945528	
1993333333.33333	-1.95975828341253	-16.3372581834273	-44.0980733508799	62.8447324853794	-44.585798958067	64.9119845487308	-1.88465733169695	-126.969687101228	
1996666666.66667	-1.92004401184358	-19.1898518740064	-45.4842806342041	69.0722331031576	-45.296742361023	70.989271181755	-1.80566708606192	-129.570989007744	
2000000000	-1.88697960318288	-21.9933173618917	-44.5374514397138	66.8288247750736	-44.7398814634013	69.8302864367995	-1.73083211827504	-131.853828874275	
2003333333.33333	-1.87365836528855	-24.6290567434673	-44.8567780863293	65.936339910949	-44.5378620370026	67.4963702992675	-1.64899742239021	-134.031805115805	
2006666666.66667	-1.86946530661562	-27.1590313927824	-45.3087154982825	59.8452857707239	-45.0904717547342	60.533317626944	-1.57809444588568	-136.110743909091	
2010000000	-1.88977328286623	-29.6040787128953	-45.90866242377	65.1004654724295	-45.901257427915	66.4390172039769	-1.51518519553767	-138.254266683414	
2013333333.33333	-1.93201740652134	-32.1204166714129	-44.8864871443557	59.5083390755011	-44.9413989500332	60.1575388500302	-1.47696813097985	-140.228961604944	
2016666666.66667	-1.98334469342509	-34.5719876972164	-45.3657055751475	54.5907989818852	-45.5696579248633	55.1997790000652	-1.4552616210691	-142.111897911157	
2020000000	-2.04935752368973	-37.2269043190094	-46.1544937883162	48.0533199787241	-46.4460855843476	49.9349573543737	-1.43731531339526	-143.915782859827	
2023333333.33333	-2.1408888464645	-39.9102438571057	-47.5099358458132	49.2835456687822	-47.4455665787951	52.5424210264124	-1.43130943595418	-145.735340223427	
2026666666.66666	-2.20916454163092	-42.7192131592892	-47.8176587414389	53.7373469036616	-47.9063832919624	58.8616023645842	-1.43445349859646	-147.533333182157	
2030000000	-2.28788435254695	-45.581134566897	-47.1300714896359	57.8479541631704	-46.9747792777535	62.1720498756946	-1.4566239187331	-149.318345469683	
2033333333.33333	-2.34775900926649	-48.5403023271989	-46.6404072917962	50.9165884317302	-46.2987555237553	54.173035240024	-1.48954194885763	-151.146493003532	
2036666666.66666	-2.39805966380361	-51.4399252795075	-48.0803321059806	46.7040584760728	-47.5344941231948	50.0628481857266	-1.5271484129918	-152.966965308144	
2040000000	-2.45634908784427	-54.3041495504819	-48.7863021923214	54.755439385788	-48.1419151143184	57.5753754822239	-1.58592684050245	-154.800369609081	
2043333333.33333	-2.49290833012356	-56.9393246651525	-47.0171476238748	63.1041979991485	-46.2975489002892	61.5639480703129	-1.64525757995858	-156.785241580032	
2046666666.66666	-2.51506953437715	-59.5137215762091	-46.3779371552023	52.9436983074096	-46.3164807142446	53.8907864875674	-1.72465318078744	-158.81065561256	
2050000000	-2.52757583686679	-62.0688852614394	-47.1908055140578	53.2950664995218	-47.0534796670947	52.0389406766265	-1.80431061094219	-160.925396119392	
2053333333.33333	-2.57113226037986	-64.7440420533265	-46.984138145042	55.5780900868346	-46.3756223401259	55.178646597327	-1.89544546580237	-163.146936633277	
2056666666.66666	-2.6485054593235	-67.2801969929684	-47.4913420363213	53.9220722174643	-46.9313251970165	47.8770388896308	-1.99073334046836	-165.387733143575	
2060000000	-2.76133417100412	-69.9389557776474	-47.0145169911816	71.496862794994	-47.2500928248784	69.0604383234191	-2.09009436091349	-167.627818502441	
2063333333.33333	-2.94648041157052	-72.5852206625546	-43.9366210137357	68.1126670428475	-44.2416473099777	67.4047091210598	-2.17141386519728	-169.979039133238	
2066666666.66666	-3.17254925799695	-75.1607052928198	-43.1643043198908	62.8061118901938	-43.1159983149634	63.0994482995608	-2.26819534692908	-172.522865654693	
2070000000	-3.453986824526	-77.9874999921464	-42.1055550424141	54.5096430217461	-41.9287199988928	53.1318623782409	-2.38136482533435	-174.95495600507	
2073333333.33333	-3.84688020475644	-80.8855028514673	-42.045284496455	48.3217388130877	-42.1305175659884	45.6847646114275	-2.47044492404094	-177.315971356824	
2076666666.66666	-4.32279137324889	-83.5921490425344	-41.7149330613288	48.7768735461432	-41.8398055771001	47.1101155500806	-2.53757791486628	-179.860535282199	
2080000000	-4.83003079880751	-86.2750806900813	-40.5926562022723	46.1040904562522	-40.6012616514002	45.2372831696461	-2.62981839378793	177.337747658698	
2083333333.33333	-5.38912926642353	-88.7683626653083	-40.1270803313815	35.6259556283682	-40.1521632599979	33.3387781456502	-2.7465588959969	174.488158802236	
2086666666.66666	-5.95106238694476	-91.579472014442	-40.4024403303631	35.0291466077949	-40.6268143985813	32.607708788908	-2.91553804652622	171.72943049024	
2090000000	-6.65786947109284	-94.6817261639629	-39.4611409965346	34.2775174908723	-40.0341894191752	34.818462433359	-3.06185216689768	169.105246329775	
2093333333.33333	-7.57613161521139	-97.4263268477339	-38.533709810435	31.8282994500984	-39.0746780259464	31.1647833410134	-3.22624543941476	166.437750122984	
2096666666.66666	-8.64244076427087	-98.4644776771009	-37.2253093035295	28.5613973412274	-37.5784769826538	30.0098522348279	-3.37340036839509	163.595895945138	
2100000000	-9.85480392380959	-97.9798577817435	-36.1936074459611	17.1781281967805	-36.355344112163	18.3236216587692	-3.58120803691886	160.441049463721	
2103333333.33333	-11.1568506963947	-94.1626815938155	-35.7221467327677	6.86299587197256	-35.9900098703106	9.356710606515	-3.84848247146628	157.517329377187	
2106666666.66666	-12.290233369898	-86.5581543238719	-35.392462855342	5.88292733166803	-35.3972019724869	7.70409875730133	-4.09203050038872	154.608993269111	
2110000000	-12.9267835836248	-75.6319942493745	-33.3729438225632	-7.63741372100743	-33.4383703897187	-6.45560373375419	-4.36790257147	151.254649138736	
2113333333.33333	-12.8486256664547	-63.4152858207165	-33.5375152795621	-28.24443199607	-33.5687457434808	-26.5271361827422	-4.71415407796386	147.655531235542	
2116666666.66666	-12.123115536383	-52.1303495979817	-35.2813731785551	-38.6349678941697	-35.3012716271502	-37.5777459778634	-5.13189901694209	144.046488348512	
2120000000	-10.8562901009617	-44.5891359040872	-35.8066933473512	-41.2573364233892	-35.7787897023814	-41.9176517882468	-5.58341287816732	140.496340779592	
2123333333.33333	-9.73172329044056	-40.8954257453297	-35.9418391311094	-45.2911073492621	-36.2467401173822	-44.6061771879494	-6.02897997075931	136.87529952801	
2126666666.66666	-8.70002018998277	-38.5493896822697	-36.970992412794	-51.0929486741852	-36.9450660428585	-49.2145883587683	-6.4628974952589	132.537610006664	
2130000000	-7.76621394209713	-37.6151194536255	-36.8024803426385	-46.7702021605754	-36.8977386989482	-46.0265703177283	-6.94343911756742	127.155426479386	
2133333333.33333	-6.97939195413651	-38.3140048790894	-35.456979931282	-48.0363529972315	-35.6014365397146	-47.3988920764428	-7.65544361761648	121.522940722809	
2136666666.66666	-6.41800409091323	-39.6256366979902	-34.1562054415542	-61.4402185418497	-34.2442619729626	-59.8107014819969	-8.31479169775833	116.75929955983	
2140000000	-5.99618768744171	-40.705993748541	-34.7296201546286	-78.7775103438512	-34.7922040146934	-76.1144467246704	-8.86486289102497	110.988767275278	
2143333333.33333	-5.60538084019304	-42.1217875452137	-36.3939363886607	-82.7416290059792	-36.3075853516418	-79.4937848697364	-9.47133620824425	104.681477795944	
2146666666.66666	-5.2528772061743	-43.6016099829002	-36.4274190315137	-82.2993954420089	-36.2420072570334	-80.8715018134351	-9.93718795932113	97.5359532192507	
2150000000	-4.92649009875538	-45.9503853220707	-35.939129533172	-84.8961308153047	-35.7190531696814	-84.2566618541169	-10.5100091378046	88.7327215466801	
2153333333.33333	-4.73495257999138	-48.3574200914095	-35.0131955390998	-94.2596963868352	-35.0149303960161	-93.2990932022213	-11.1861272095818	80.0311630323737	
2156666666.66666	-4.52425176712812	-50.1683750906414	-34.9716164966675	-109.665499150731	-35.0278783381305	-109.160809274419	-11.7925067432149	72.3702081631192	
2160000000	-4.27590698477453	-52.2655212558805	-36.4056661197204	-124.388386599139	-36.3919907320744	-123.587274904066	-12.1282733120293	64.561054038406	
2163333333.33333	-4.07457187541413	-54.3342910146441	-38.1250048753435	-133.022997888159	-38.2939771254203	-132.084056674884	-12.2388555234824	55.6343896076621	
2166666666.66666	-3.86379325062819	-56.2508338327664	-40.7955361498204	-137.0889228256	-40.7332857016663	-133.920663522257	-12.3877250803295	45.6464570905839	
2170000000	-3.68225816932762	-58.026392130599	-43.3906845052775	-123.513419957714	-43.3979993399904	-121.63209305745	-12.5322842133798	36.1596855090351	
2173333333.33333	-3.51985501133471	-59.4586995422666	-41.8487601413778	-98.7134084449642	-41.5609333628545	-95.0819324107061	-12.6284810033388	26.7748763366357	
2176666666.66666	-3.36187396485401	-60.7495167248701	-38.421028960267	-103.405479540068	-38.1173928830108	-103.013427225221	-12.6955919935379	18.3625000402875	
2180000000	-3.21021336453949	-61.8465448820124	-37.1435974472761	-119.698033977146	-37.0440032584335	-118.519693899899	-12.4662011925731	11.1413469273269	
2183333333.33333	-3.06151712175029	-62.9466710566231	-36.9512223221912	-131.416098280804	-36.8339665327489	-130.993843921243	-12.038527171769	2.36045389147177	
2186666666.66666	-2.96277021893189	-64.2842998626482	-37.1680108142491	-146.40530340652	-36.9185531297996	-144.748969250255	-11.7879488556085	-7.37794608529043	
2190000000	-2.9175920426094	-65.3249254122019	-38.2525967130577	-160.381614758619	-37.9696367306968	-160.32304158593	-11.733169220829	-15.6037077185155	
2193333333.33333	-2.87819958227902	-66.3257493643236	-40.3863327803237	-169.410134732144	-40.2820991972752	-168.881857755466	-11.6155078744181	-21.3487476234424	
2196666666.66666	-2.86555899140585	-67.1469504794241	-42.4870332961691	-172.592765763445	-42.2442571145594	-172.073471550444	-11.0591449722405	-26.5047649431828	
2200000000	-2.86061242542399	-68.2971206830086	-45.5917114392902	-169.296390248181	-45.5883338116518	-172.345426738029	-10.5272961201424	-33.1647296111886	
2203333333.33333	-2.87138337413859	-69.3330668482511	-46.8642556997548	-134.404514961206	-47.3082846536215	-134.756872073581	-10.1920961676191	-39.3032823487951	
2206666666.66666	-2.86775733298385	-70.4582179337334	-41.7982399870757	-125.919459133583	-41.9495439260269	-123.967041049773	-9.80738329652065	-43.8628200302102	
2210000000	-2.87302394564774	-71.8128733958015	-39.6847626500124	-140.807064852002	-39.6771389481663	-139.059470065651	-9.39039169149826	-48.1575077761052	
2213333333.33333	-2.86633058870878	-73.1787278904894	-39.2173300541806	-157.610253648642	-39.1108178590507	-156.620922332545	-9.01078770754134	-51.9178472831669	
2216666666.66667	-2.84661677584321	-74.7271008259745	-40.5436925559375	-167.547480562146	-40.1430515891199	-166.91009306994	-8.5502095521283	-55.2693510894673	
2220000000	-2.84131495759171	-76.1126301390082	-40.2366573141579	-169.030374887752	-39.9968998988874	-171.288465494295	-8.19651749380218	-58.9384035677228	
2223333333.33333	-2.81852293010764	-77.3295513094212	-40.0411781732217	178.85920466223	-39.961747850392	177.462055705501	-7.94673863199106	-61.6447530970216	
2226666666.66667	-2.77576072562793	-78.3764445589152	-41.6294966831527	167.464235958097	-41.6640851607058	164.727076855878	-7.64452882095414	-63.6299898383138	
2230000000	-2.69734769076334	-79.2046979564686	-43.4993626964766	169.858984316827	-43.8541470186321	167.292103298519	-7.33054471862066	-66.0209450503035	
2233333333.33333	-2.60705683110527	-80.1166156350278	-43.7514989716521	177.368818705238	-43.9996146318271	177.645868242717	-7.1346282431624	-67.9054253977058	
2236666666.66667	-2.53458188140843	-81.0359574450423	-42.3850818909102	176.319282362894	-42.6815746566842	179.232972773647	-6.86797026218717	-69.1973397407918	
2240000000	-2.51714395992173	-81.7658656858742	-41.2546707348419	168.840113309073	-41.3683314649741	170.498383244497	-6.565442357367	-71.1399920294213	
2243333333.33333	-2.50033230041034	-82.1347036668667	-41.6093215266895	149.969104047407	-41.5534267198229	152.271702086738	-6.37075034833447	-73.3649246200491	
2246666666.66667	-2.443407079857	-82.5975159910273	-44.9598892582644	141.313896561284	-44.8846632965557	141.718957021194	-6.24536833985128	-75.2538543036667	
2250000000	-2.41358761131615	-83.2096306397414	-46.4756157735617	155.934585523737	-46.08139191567	157.69488267837	-6.15217690876971	-77.09626767821	
2253333333.33333	-2.4160930469974	-84.0713901867479	-45.4432417913462	163.322824076471	-45.042413915329	163.484928282316	-6.08446256001926	-78.5045582382165	
2256666666.66667	-2.46865008042321	-84.915050828134	-44.1393224459161	156.265879884618	-43.9796449164747	155.81499268509	-5.96975257049584	-80.0869415308886	
2260000000	-2.52603588478257	-85.5561856414927	-44.891623253502	149.223398403761	-44.9360928562737	148.342786267732	-5.93623874097459	-81.8809940417877	
2263333333.33333	-2.60025415766408	-86.3806664895008	-45.7547283897989	149.224950132375	-45.8603977294065	149.613788317038	-5.90866476814287	-82.9716514084888	
2266666666.66667	-2.66559013609243	-87.1962705963683	-45.2145571891382	153.018120432389	-44.9375253750104	148.877697692297	-5.76344312284077	-84.2032286161949	
2270000000	-2.71305646630274	-88.0248972255497	-45.0256839703077	143.783463757544	-45.126136013044	140.418620937699	-5.64538770450467	-86.0714846414475	
2273333333.33333	-2.74066795811333	-89.0924518090668	-46.6111790474119	141.729127188415	-46.5889143604265	137.373416252805	-5.53052157140478	-88.1303665766729	
2276666666.66667	-2.76739853693604	-90.199451650027	-45.4094195261883	149.346579296409	-45.9247511988116	149.528594816329	-5.48601429246953	-90.2856181172713	
2280000000	-2.75937945933186	-91.2474846199006	-44.1184497168832	137.539796177661	-44.3321513636298	142.15377209012	-5.45719099111757	-92.3040912808202	
2283333333.33333	-2.74854224078852	-92.4244850548283	-45.0038361365274	125.452862983965	-45.1685382705521	127.307523830765	-5.45911562307439	-93.7994130656729	
2286666666.66667	-2.73305988870212	-93.4421790046349	-46.6853262020376	119.36840534588	-46.7621080600065	123.786032102402	-5.36281945566697	-95.2843461900951	
2290000000	-2.72450112565415	-94.2188165797819	-47.4430908155384	121.210359781615	-47.2301391381234	123.092650083296	-5.31328176830858	-96.9032621505443	
2293333333.33334	-2.68196446490944	-94.724324049084	-48.2000060717387	126.696871104938	-47.6493761746958	123.959692323871	-5.26497517343037	-98.2991377834207	
2296666666.66667	-2.63687527416049	-95.2540151298397	-47.5987013019308	123.158948692107	-47.9064517201192	119.482067797719	-5.17700069871986	-99.1192316529729	
2300000000	-2.59895452239496	-95.5711111094234	-48.1016372432719	123.362291638041	-48.603589519294	124.196045465154	-5.00189016617312	-100.416100354205	
2303333333.33334	-2.56402135918607	-96.01046383351	-47.1360932907025	118.815309461557	-47.5748944358271	121.91720748632	-4.90254659900564	-101.724459671509	
2306666666.66667	-2.57750952818071	-96.3643722289789	-48.6051643168459	110.491306902472	-48.7018140783306	112.819350833186	-4.80612672939843	-103.095556570813	
2310000000	-2.58503939688888	-96.60883861397	-49.2138251600245	127.443599523085	-50.1674705489954	129.131274952276	-4.77587751491947	-104.050619385382	
2313333333.33334	-2.6144299374858	-97.0404063676681	-47.3890185246609	126.96566719057	-47.901270614644	128.51532038803	-4.68416292395137	-104.664198574551	
2316666666.66667	-2.65822283240442	-97.4118446372788	-46.5656714725376	122.95022660252	-46.5477587462178	123.72245965784	-4.58471490076413	-105.458995874025	
2320000000	-2.72470201507197	-97.9629296898563	-46.1013794164518	104.690317262198	-46.0989209079971	105.257203587619	-4.50970842342865	-106.280499960211	
2323333333.33334	-2.79487089479804	-98.6623336756228	-47.441192578875	92.2295394877988	-48.03254854203	91.9423292371263	-4.47023094263561	-107.085385278983	
2326666666.66667	-2.87979246372939	-99.4688942923033	-50.7261854818162	86.0050034150108	-50.9840629004386	93.4996227204052	-4.48782736639377	-107.65199976623	
2330000000	-2.97917021966371	-100.310566022818	-51.9763622481469	113.582576304299	-51.5639644175072	123.207054314519	-4.45139290982607	-107.728941505896	
2333333333.33334	-3.05523406415232	-101.196360597696	-48.3880630185581	113.958554260248	-47.7782747086111	115.056256105353	-4.34969763371121	-108.060197113693	
2336666666.66667	-3.10792740650449	-102.125343608925	-48.7787228857334	102.544849308044	-47.5712833287349	104.650026514706	-4.26815543584521	-109.026159988851	
2340000000	-3.15880226245404	-103.086003277918	-48.5255074847758	90.3206494404346	-48.6070446424279	86.2377817739689	-4.26384475179962	-110.173099709001	
2343333333.33334	-3.17982420926807	-103.89044788602	-51.1375372145894	88.8118788056151	-51.1709773014071	84.7721985903476	-4.32763308239927	-111.061170911683	
2346666666.66667	-3.17501413985534	-104.703650167909	-51.5486921649679	94.9701015288706	-52.9817527908538	90.3460129107524	-4.38693047339944	-111.536112205796	
2350000000	-3.15004619741891	-105.361988683078	-51.7166618408547	96.5189820194086	-52.699645871764	97.919288629061	-4.39441288594378	-112.19004081483	
2353333333.33334	-3.10961636866535	-105.874206156017	-53.1735079931368	101.965150491672	-53.2526539267537	108.343292098189	-4.42837535146924	-113.160702839308	
2356666666.66667	-3.0641613289156	-106.349993450941	-52.232407828211	110.375687238089	-51.020055361031	114.642702570923	-4.49768987086978	-114.13151733623	
2360000000.00001	-3.02496513260594	-106.759853290421	-51.9242742034863	98.8059642003959	-50.8429336081414	100.288729161359	-4.57435196568906	-114.830848531163	
