!Agilent N9923A: A.07.32
!Date: Thursday, 02 June 2016 22:58:24
!Model: N9923A
!Serial: MY52412257
!GPS Latitude: 
!GPS Longitude: 
!GPS TimeStamp: 0001-01-01 00:00:00Z
!GPS Seconds Since Last Read: 0
!CHECKSUM:1857238487
!Correction: S11(ON U)
!S1P File: Measurement: S11:
# Hz S DB R 50
1950000000	-7.13891841012184	-54.764726022009
1953333333.33333	-5.88621794114499	-66.3088201982864
1956666666.66667	-4.89245618249437	-75.6090935274002
1960000000	-4.11895608916789	-83.5787285856565
1963333333.33333	-3.5244813232565	-90.5538380066742
1966666666.66667	-3.0959575784499	-96.5125674660616
1970000000	-2.74255956192663	-101.390521582775
1973333333.33333	-2.43701173647366	-105.707292437365
1976666666.66667	-2.17729297967798	-109.517842445282
1980000000	-1.97350033064051	-112.889673514747
1983333333.33333	-1.802616794868	-115.86340123045
1986666666.66667	-1.64992134474833	-118.56486897005
1990000000	-1.52415853170909	-121.093330940545
1993333333.33333	-1.4263518854944	-123.592773466621
1996666666.66667	-1.38861069160266	-126.011572904015
2000000000	-1.36941817600081	-128.272361166606
2003333333.33333	-1.35033670360166	-130.396738477836
2006666666.66667	-1.34333229546958	-132.61043874187
2010000000	-1.33468209777295	-134.907214870646
2013333333.33333	-1.35711968654749	-137.044373673406
2016666666.66667	-1.36643703561407	-139.114235002163
2020000000	-1.35556218723986	-141.154502369522
2023333333.33333	-1.34119225204294	-143.179706811996
2026666666.66666	-1.32796046366556	-145.229823883284
2030000000	-1.3174707758237	-147.231984400735
2033333333.33333	-1.31884119445552	-149.141315671702
2036666666.66666	-1.29862371255422	-151.047565523788
2040000000	-1.30505628367621	-152.994514460239
2043333333.33333	-1.3351464426237	-154.878430360791
2046666666.66666	-1.37638265992275	-156.766464095334
2050000000	-1.43161303383296	-158.644886757156
2053333333.33333	-1.49908561353387	-160.538543303482
2056666666.66666	-1.59387824091267	-162.459585205208
2060000000	-1.68211495641129	-164.592020583185
2063333333.33333	-1.78744287039666	-166.985891104764
2066666666.66666	-1.93672404231412	-169.397663052484
2070000000	-2.07985374060109	-171.794153633394
2073333333.33333	-2.19051376643215	-174.124265437569
2076666666.66666	-2.2872345997369	-176.681345659669
2080000000	-2.40153567667883	-179.446218130813
2083333333.33333	-2.53087444816922	177.744864385454
2086666666.66666	-2.67613448655924	175.083849135949
2090000000	-2.79326884585203	172.173416023219
2093333333.33333	-2.96030138163578	169.228872359279
2096666666.66666	-3.16270234221353	166.180764771638
2100000000	-3.42705270415876	163.174095562924
2103333333.33333	-3.69040582187027	160.498520685954
2106666666.66666	-3.92855579052458	157.506664212967
2110000000	-4.22649700514059	153.9638307898
2113333333.33333	-4.60143058216546	150.240652278389
2116666666.66666	-5.04253868407647	146.456985073387
2120000000	-5.46752506586201	142.502981212552
2123333333.33333	-5.90525908493906	138.321947823776
2126666666.66666	-6.29045333068803	133.346486098631
2130000000	-6.75811588358697	127.536717741247
2133333333.33333	-7.37227991864686	121.759491240977
2136666666.66666	-7.96247308218507	116.414390097058
2140000000	-8.52412214137516	111.068228137506
2143333333.33333	-9.01250166471283	105.641311365503
2146666666.66666	-9.44701073661954	99.3253516898828
2150000000	-9.90568062144235	92.1498145151785
2153333333.33333	-10.5158997137378	83.836314832592
2156666666.66666	-11.1550361655431	76.4487001808934
2160000000	-11.6005400319803	67.898930662892
2163333333.33333	-12.041657134775	57.7207309207125
2166666666.66666	-12.3974137655297	46.5287140091458
2170000000	-12.7603634294134	34.9710598031169
2173333333.33333	-12.9054246749015	24.696388445039
2176666666.66666	-12.7311103141468	14.9374864482035
2180000000	-12.4045995066492	6.37122637611417
2183333333.33333	-11.8642660433934	-1.45862675549886
2186666666.66666	-11.3710062964882	-9.1516857480019
2190000000	-10.9316352992997	-15.5669334534745
2193333333.33333	-10.5432873460873	-20.5078644250649
2196666666.66666	-9.95838499506693	-24.8797741213825
2200000000	-9.46276544929746	-30.1639089767759
2203333333.33333	-9.14629014837916	-35.2520947849974
2206666666.66666	-8.89543905926212	-39.3614523887913
2210000000	-8.65548826758429	-43.5922388171053
2213333333.33333	-8.44977567667645	-47.1386365078557
2216666666.66667	-8.11111672685687	-50.7321160669151
2220000000	-7.8843024078483	-54.8169446192054
2223333333.33333	-7.73100510806525	-57.8044220385142
2226666666.66667	-7.46398404416647	-60.2426084863498
2230000000	-7.17980961319462	-62.7412786119429
2233333333.33333	-6.91216203668833	-64.7520133688631
2236666666.66667	-6.56721191211042	-66.6675896796755
2240000000	-6.27164441605601	-68.9218613597726
2243333333.33333	-6.05806678614312	-71.2095260275569
2246666666.66667	-5.89532092657601	-73.1233480895252
2250000000	-5.75100693898566	-74.899173751186
2253333333.33333	-5.65293067439931	-76.7145470010153
2256666666.66667	-5.58272992588908	-78.3025467028731
2260000000	-5.56158325631	-79.7345159963391
2263333333.33333	-5.47632576454918	-80.6472990679054
2266666666.66667	-5.3494376301244	-82.2233029090511
2270000000	-5.25690869406959	-83.9307017267041
2273333333.33333	-5.16579941874789	-85.8309646475832
2276666666.66667	-5.12627791834106	-87.5207509824854
2280000000	-5.02863727970002	-89.1249738618543
2283333333.33333	-4.95629217330102	-90.7516339018157
2286666666.66667	-4.83204649812991	-92.1311978113481
2290000000	-4.75478385775868	-93.7576591801186
2293333333.33334	-4.71628063058871	-94.8804965037392
2296666666.66667	-4.63098310081677	-95.4541753978567
2300000000	-4.50006444879761	-96.3225166607523
2303333333.33334	-4.40806485347343	-97.169620763613
2306666666.66667	-4.34645088081184	-98.1023425541028
2310000000	-4.31274287426157	-98.8770994835169
2313333333.33334	-4.27134550570963	-99.7564024697727
2316666666.66667	-4.2510000879119	-100.696040121961
2320000000	-4.28232665599448	-101.711089845277
2323333333.33334	-4.31205579629015	-102.618992023364
2326666666.66667	-4.3377183921859	-103.35401283366
2330000000	-4.3145427891842	-104.19531547153
2333333333.33334	-4.28419483014862	-105.41367018602
2336666666.66667	-4.27374768828734	-106.598835445047
2340000000	-4.26216982272099	-107.723538993274
2343333333.33334	-4.23372487884942	-108.673172859989
2346666666.66667	-4.17655682683441	-109.643993199477
2350000000	-4.10122447469737	-110.545328058735
2353333333.33334	-4.03793267247246	-111.475978488883
2356666666.66667	-3.98316118034566	-112.482487401767
2360000000.00001	-3.99379221265403	-113.329848242828
2363333333.33334	-4.01520366139124	-113.708859085638
2366666666.66667	-4.01463810687779	-114.012862059734
2370000000.00001	-4.01512024875531	-114.361208529175
2373333333.33334	-4.02277057190731	-114.57031611865
2376666666.66667	-4.01666720372079	-115.073778979169
2380000000.00001	-4.039940057566	-115.671460933085
2383333333.33334	-4.05941146162067	-116.201021318341
2386666666.66667	-4.0529215113391	-117.21967561644
2390000000.00001	-4.12102747805369	-118.353927811031
2393333333.33334	-4.18939315266277	-119.041974912473
2396666666.66667	-4.18317516823068	-119.88087933684
2400000000.00001	-4.19657474872812	-120.996605146044
2403333333.33334	-4.21490245457352	-121.91866665059
2406666666.66667	-4.20408009925137	-122.701391226661
2410000000.00001	-4.19621486043024	-123.533103033815
2413333333.33334	-4.2080796021884	-124.140879645619
2416666666.66667	-4.18425374994357	-124.420040749556
2420000000.00001	-4.13895419671958	-124.916774213684
2423333333.33334	-4.13728465293552	-125.301641057281
2426666666.66668	-4.14375024138491	-125.589503054988
2430000000.00001	-4.16123534483104	-125.710037953379
2433333333.33334	-4.1441714334866	-125.966094422542
2436666666.66668	-4.18655318593165	-126.465590524391
2440000000.00001	-4.23216183484176	-126.968460142903
2443333333.33334	-4.30343320638928	-127.639702638662
2446666666.66668	-4.40790700149116	-128.106169769618
2450000000.00001	-4.45426916437819	-128.681930692506
2453333333.33334	-4.52068834317482	-129.527804640733
2456666666.66668	-4.57966496626827	-130.285385303536
2460000000.00001	-4.61427828012575	-131.014315532968
2463333333.33334	-4.62150558900808	-131.960232967483
2466666666.66668	-4.65196478903491	-132.890180741747
2470000000.00001	-4.70265037790644	-133.315763094192
2473333333.33334	-4.66553880520573	-133.616860516771
2476666666.66668	-4.60094865110035	-134.284560107049
2480000000.00001	-4.61451538392211	-134.954193610466
2483333333.33334	-4.63703036611038	-135.143933637969
2486666666.66668	-4.62759061193953	-135.321176736127
2490000000.00001	-4.65849297251619	-135.680236435242
2493333333.33334	-4.72640415778253	-135.811912437993
2496666666.66668	-4.78494240836177	-135.89873986483
2500000000.00001	-4.87276702512724	-135.989770358085
2503333333.33335	-4.94104245473078	-135.935948637662
2506666666.66668	-4.9533881269591	-136.403718502168
2510000000.00001	-5.05120343717582	-137.28634699453
2513333333.33335	-5.17655407506447	-137.9572542905
2516666666.66668	-5.30372992084918	-138.354841847532
2520000000.00001	-5.32149716127917	-138.707868010372
2523333333.33335	-5.32864440332133	-139.676604537511
2526666666.66668	-5.35752336541124	-140.692827614078
2530000000.00001	-5.41704545627429	-141.628498976771
2533333333.33335	-5.49763820654524	-142.084081092268
2536666666.66668	-5.50898998674568	-142.23464649987
2540000000.00001	-5.48016913636273	-142.494750385036
2543333333.33335	-5.4801802856921	-142.878054171568
2546666666.66668	-5.53865556615914	-143.181495244287
2550000000.00001	-5.60416120880343	-142.704800422882
2553333333.33335	-5.60383150972714	-142.457530757772
2556666666.66668	-5.61361246126508	-142.432580055017
2560000000.00001	-5.62703597623595	-142.634463815107
2563333333.33335	-5.73994966261366	-143.202143171721
2566666666.66668	-5.90745478634565	-143.321838750206
2570000000.00002	-6.02469288380257	-143.085069743807
2573333333.33335	-6.07178251453645	-143.270067864567
2576666666.66668	-6.11150334736152	-143.989032119259
2580000000.00002	-6.24347948598123	-145.126197619297
2583333333.33335	-6.40348469211637	-145.65790879752
2586666666.66668	-6.50855180933779	-145.836469766494
2590000000.00002	-6.50065983754352	-146.069669597928
2593333333.33335	-6.5109307909893	-146.695145164918
2596666666.66668	-6.54261984854582	-147.211258667916
2600000000.00002	-6.58792952231725	-147.427268296393
2603333333.33335	-6.6168531394745	-147.3371106558
2606666666.66668	-6.56397191712682	-146.920368499892
2610000000.00002	-6.50375615580126	-147.28612198928
2613333333.33335	-6.57665994295671	-147.705966512722
2616666666.66668	-6.70080347304375	-147.454982036019
2620000000.00002	-6.7692931530195	-146.723385799764
2623333333.33335	-6.760653552739	-146.551652633473
2626666666.66668	-6.86498664273484	-147.100413013033
2630000000.00002	-7.04258338415574	-146.905430298444
2633333333.33335	-7.14700190180215	-146.700312121377
2636666666.66669	-7.24756507615292	-146.649654349788
2640000000.00002	-7.25867126758001	-146.919789719079
2643333333.33335	-7.31389442359372	-147.90944995786
2646666666.66669	-7.44582283091135	-148.743378681811
2650000000.00002	-7.58838176767982	-149.044597093446
2653333333.33335	-7.5872726205937	-149.019417232322
2656666666.66669	-7.55242111940517	-149.731980201426
2660000000.00002	-7.63226060973709	-150.176452292254
2663333333.33335	-7.66499245793865	-150.142847748279
2666666666.66669	-7.69081273072862	-149.968513877646
2670000000.00002	-7.68424409025563	-149.412483325721
2673333333.33335	-7.61856075303113	-149.106098748444
2676666666.66669	-7.60037934465111	-149.358095243192
2680000000.00002	-7.72835923000303	-149.515546000688
2683333333.33335	-7.82624988173536	-148.709096119541
2686666666.66669	-7.84866378213342	-148.51942596615
2690000000.00002	-7.9782535463935	-148.740446133137
2693333333.33335	-8.15691562158611	-148.536662480309
2696666666.66669	-8.26839920521246	-148.163395656154
2700000000.00002	-8.36780627866449	-148.27890824556
2703333333.33335	-8.47744979577204	-148.440184053422
2706666666.66669	-8.53988625947507	-148.426751791087
2710000000.00002	-8.53000682672913	-149.024944935826
2713333333.33336	-8.6280413950165	-149.956484072758
2716666666.66669	-8.68753663866888	-150.123355997836
2720000000.00002	-8.68713411701788	-150.239553312164
2723333333.33336	-8.69960980717381	-150.802205584959
2726666666.66669	-8.77419420543163	-150.778386845266
2730000000.00002	-8.80153839134354	-150.355655649381
2733333333.33336	-8.81082882399889	-149.704459752449
2736666666.66669	-8.74882507320241	-148.980094850143
2740000000.00002	-8.68962894519352	-149.1864688211
2743333333.33336	-8.78809166610091	-149.319976438964
2746666666.66669	-8.94009437805448	-148.89929138663
2750000000.00002	-9.06522921782447	-148.170653389898
2753333333.33336	-9.18613581095357	-147.785610340204
2756666666.66669	-9.36892975088391	-147.160222757181
2760000000.00002	-9.44779606251073	-146.319116282642
2763333333.33336	-9.50440863462168	-146.037855351222
2766666666.66669	-9.4778494970939	-146.10060497782
2770000000.00002	-9.51695615634054	-147.287311677866
2773333333.33336	-9.71758105730918	-148.194311862731
2776666666.66669	-9.95636082607077	-148.607653464831
2780000000.00003	-10.2649953391441	-147.491981144321
2783333333.33336	-10.3349998248822	-145.110879911275
2786666666.66669	-10.2690472191064	-142.935675901679
2790000000.00003	-10.1245858973806	-139.355055771596
2793333333.33336	-9.48593273753052	-135.334646787954
2796666666.66669	-8.26756739272962	-134.648100820291
2800000000.00003	-7.41119217962326	-140.831719825653
2803333333.33336	-7.52567365353167	-146.87968670155
2806666666.66669	-7.93470683526672	-149.854796404231
2810000000.00003	-8.38842737694785	-151.166451601023
2813333333.33336	-8.75871050148444	-151.111783593059
2816666666.66669	-9.01499853850507	-151.300496506644
2820000000.00003	-9.30736611901505	-151.375223734425
2823333333.33336	-9.57816286967848	-151.235625342589
2826666666.66669	-9.812797932913	-151.114883860098
2830000000.00003	-9.95425159050629	-150.636008771689
2833333333.33336	-9.98274856936169	-151.093752792295
2836666666.66669	-10.0816782934134	-151.95974738019
2840000000.00003	-10.2432113118661	-152.892558932944
2843333333.33336	-10.4226658474596	-152.82733365929
2846666666.6667	-10.4554098673268	-152.693169701301
2850000000.00003	-10.524806027205	-152.64508962974
2853333333.33336	-10.6074992108948	-152.026488444868
2856666666.6667	-10.5674589069721	-151.03244911712
2860000000.00003	-10.4729019978323	-150.725260229519
2863333333.33336	-10.5391244006287	-151.188189464186
2866666666.6667	-10.6967845718342	-150.727256094247
2870000000.00003	-10.8547446718311	-149.97887796079
2873333333.33336	-10.9793202680143	-149.132149170754
2876666666.6667	-11.1778627199282	-148.937661886575
2880000000.00003	-11.4389820966593	-148.188061981342
2883333333.33336	-11.6749953003147	-147.467231586385
2886666666.6667	-11.8576344980151	-146.281273696679
2890000000.00003	-11.9465284853414	-146.268056418864
2893333333.33336	-12.1089693861989	-146.460737874822
2896666666.6667	-12.2484803329284	-147.039186881002
2900000000.00003	-12.5467071248767	-147.48398923799
2903333333.33336	-12.7045987454576	-146.251773616779
2906666666.6667	-12.6178848471627	-146.642387681165
2910000000.00003	-12.8386132286895	-147.378812669308
2913333333.33336	-13.0139076155119	-146.055358015387
2916666666.6667	-13.0647833869867	-144.93151025056
2920000000.00003	-13.1292362710886	-143.814492609803
2923333333.33337	-13.2957370461009	-142.211188835219
2926666666.6667	-13.314895882878	-139.246165314282
2930000000.00003	-13.2240106393419	-137.798413830961
2933333333.33337	-13.3993084887066	-136.652451486599
2936666666.6667	-13.7024828036149	-134.358274957726
2940000000.00003	-13.8376289287538	-130.89494125101
2943333333.33337	-13.844261709079	-127.923297635344
2946666666.6667	-13.8361190696213	-127.466494359472
2950000000.00003	-14.2947318069552	-126.053505851764
