!Agilent N9923A: A.07.32
!Date: Thursday, 03 December 2015 01:49:40
!Model: N9923A
!Serial: MY52412257
!GPS Latitude: 
!GPS Longitude: 
!GPS TimeStamp: 0001-01-01 00:00:00Z
!GPS Seconds Since Last Read: 0
!CHECKSUM:0546805580
!Correction: S11(ON U)S21(ON U)S12(ON U)S22(ON U)
!S2P File: Measurements:S11,S21,S12,S22:
# Hz S DB R 50
1235000000	-30.1989853807513	-169.973193411644	-2.40962681615014	75.4241893559257	-2.40906511444974	75.437701997268	-29.72259036156	-160.829060555314	
1235100000	-30.1847179856274	-170.333796529429	-2.40838042641631	74.2057922099493	-2.41047267188938	74.2351909258432	-29.7595094924625	-161.492964532442	
1235200000	-30.129906811809	-170.172842030406	-2.40752372289745	72.9979896021564	-2.41021133092868	73.0192980827796	-29.8530747940046	-162.393956303525	
1235300000	-30.1468092651444	-170.548548504235	-2.40932529966485	71.7722501606246	-2.41046310976416	71.7918391563711	-29.8714884791491	-162.65219459965	
1235400000	-30.227966692005	-171.176011492221	-2.40941552232165	70.5353003447088	-2.41242931592884	70.5716369329098	-29.8525748649679	-162.723685839499	
1235500000	-30.1488034342067	-171.102581739769	-2.4080669440816	69.3383026057947	-2.41023551927622	69.3481741235414	-29.9268061906646	-162.429137896463	
1235600000	-30.1270427364779	-171.637168250463	-2.4073173289634	68.1189049986679	-2.41131546052468	68.1290959525326	-29.9617155381227	-163.231544828985	
1235700000	-30.0907853529725	-171.712774547529	-2.41084080368777	66.8853409134993	-2.41177948619695	66.9106359514583	-29.9948372217977	-163.771280357101	
1235800000	-30.2013972124061	-172.069025584656	-2.40981124650824	65.6789428809314	-2.41088642139418	65.7194058873102	-30.0317951907178	-163.815953431543	
1235900000	-30.1840740119103	-171.999937842205	-2.4098947484264	64.4633916240627	-2.41017240050882	64.4777923135328	-30.0775125928608	-164.117715633242	
1236000000	-30.2008386404249	-172.547118200627	-2.40854504218914	63.250261180894	-2.4141262867558	63.2575755315674	-30.1496094575299	-165.032769746043	
1236100000	-30.2549069054811	-172.580139110101	-2.40949021280794	62.0219809487529	-2.40920266452336	62.0608825445693	-30.2383903357566	-165.100007644053	
1236200000	-30.2098975155241	-172.697020104231	-2.40669430580023	60.8075282956171	-2.41256496675012	60.8337627870667	-30.248525998319	-165.370720006475	
1236300000	-30.1724693527366	-173.202700259318	-2.41037488885318	59.6010881846678	-2.41232655957407	59.6199520821449	-30.3005279973134	-165.603978903979	
1236400000	-30.162944006256	-173.627376867243	-2.40915180744871	58.3660798104049	-2.41182544008281	58.37724694609	-30.3362209372565	-166.29187386036	
1236500000	-30.2274950135115	-173.882153270857	-2.41031887826168	57.1489838411861	-2.40992794331716	57.1716657321846	-30.352832257041	-166.636023287697	
1236600000	-30.1662392810092	-173.87356287052	-2.41218925438251	55.9262287807413	-2.41038546945856	55.9644011807549	-30.4833542651501	-166.882931221505	
1236700000	-30.1520149430454	-174.174093418473	-2.40965534121853	54.6978715909183	-2.41111375918649	54.7285801849699	-30.498746319587	-166.722264929338	
1236800000	-30.221768828627	-174.387301640379	-2.41117353547426	53.4862925426257	-2.41100710940612	53.5242843054977	-30.4941139707935	-167.093654329147	
1236900000	-30.2390188562184	-174.414224948808	-2.40892251754903	52.3026282563156	-2.41218022071544	52.3236421622914	-30.6106727486348	-167.380793978213	
1237000000	-30.2013271402122	-174.921737561376	-2.41133601152466	51.0723391040532	-2.41429208695509	51.0902750439105	-30.7030800824908	-167.668301643832	
1237100000	-30.2307737075332	-175.192228682774	-2.41103831197728	49.8409644754525	-2.41373512342661	49.8824449998518	-30.7214357284531	-168.214969820962	
1237200000	-30.1825667156265	-175.708050323246	-2.413347760923	48.6379437972881	-2.41064096761892	48.6524408564304	-30.8385462513775	-168.388015565555	
1237300000	-30.1707121493567	-175.072495245394	-2.411683628307	47.4170374803761	-2.41365171669465	47.4459231393193	-30.9122024814975	-168.584801306345	
1237400000	-30.2782613142747	-175.710154210533	-2.41181802050533	46.2078438390453	-2.41326427049251	46.2357899600527	-30.9912346190871	-168.672606498693	
1237500000	-30.227786178466	-175.851275699043	-2.41190116020137	44.9742627630958	-2.41237708303308	44.991529127969	-31.0573738643097	-168.586961404981	
1237600000	-30.2282992441079	-176.996715815085	-2.40978132592778	43.7656968029086	-2.41286394000451	43.7811014903509	-31.0934501194063	-169.583897958779	
1237700000	-30.2099926537518	-177.127412023781	-2.41195503219549	42.5237671690267	-2.41394381521375	42.5762488374394	-31.1556725059173	-169.268302221313	
1237800000	-30.3207613893725	-176.387448304492	-2.41283797679027	41.3356729467857	-2.41302359000111	41.3446924857963	-31.2672368254879	-169.341451876737	
1237900000	-30.3925868765761	-177.258374224059	-2.41384951839417	40.1232810830151	-2.41393074773194	40.1368823358929	-31.4043503617581	-169.945529881042	
1238000000	-30.333828020646	-177.423156826591	-2.41018601662154	38.8845843965084	-2.41248037334399	38.906416799328	-31.4476972213794	-170.402134963102	
1238100000	-30.2267479170539	-177.269073957903	-2.41276502241789	37.6778224504757	-2.41570186997661	37.7018830309171	-31.6247219789003	-170.404125173875	
1238200000	-30.2877874262113	-177.759394176249	-2.41243330391167	36.4619609418573	-2.41538792925336	36.4886185446052	-31.5929621664304	-170.272586558906	
1238300000	-30.2586569992436	-178.346251159987	-2.41202907563777	35.2363357665465	-2.41119561037416	35.2455451294296	-31.7007854260517	-171.46722792779	
1238400000	-30.345184508574	-178.271804632446	-2.41076613166601	34.04826470972	-2.41262044540672	34.0485941000996	-31.7944699400176	-170.928090458701	
1238500000	-30.3320966551086	-178.611698389024	-2.41319592616576	32.7764799863534	-2.41196054778678	32.8281446412043	-31.8646327838924	-170.428129303307	
1238600000	-30.2873784452856	-179.281799790233	-2.41156372978135	31.576311413143	-2.41481583722066	31.6039124259417	-31.9332114915089	-171.340329363574	
1238700000	-30.333726507113	-179.525268581929	-2.40822411788726	30.349812471591	-2.4141635570113	30.4079967003323	-32.1033175608614	-170.901210727614	
1238800000	-30.3216877038112	-179.360115756091	-2.41102439983314	29.1475935498647	-2.41498702878825	29.1978560212102	-32.1796611113056	-171.600047751373	
1238900000	-30.3373048061535	-179.819274495641	-2.41101006197131	27.9455596653385	-2.41434025886508	27.9426455489667	-32.2445165000665	-170.900089398033	
1239000000	-30.4234002872063	179.83090732288	-2.41357052935392	26.713138689518	-2.41631402544663	26.7549747410032	-32.4360291973376	-171.135179553182	
1239100000	-30.4203352981149	179.697677158666	-2.41567789087805	25.486374347693	-2.41483613454104	25.5324287812246	-32.5698392922084	-170.915244075789	
1239200000	-30.4569523216353	179.398187274713	-2.40735000369731	24.2666276585704	-2.41310767869576	24.3097772400883	-32.6117355258763	-171.035403336998	
1239300000	-30.4043209604198	179.038251410561	-2.41328360441146	23.0521376904081	-2.41146500570574	23.0750478797902	-32.6878512607806	-171.805651739897	
1239400000	-30.4070532319529	179.086382836409	-2.41179090868841	21.8394275675977	-2.41552704897692	21.8733074201763	-32.9047709561251	-170.975680104026	
1239500000	-30.4902982351911	178.402672584043	-2.41341410782809	20.6130618686754	-2.41522836680826	20.6435915986359	-33.0126579891317	-171.483816112992	
1239600000	-30.4198121315601	178.398451444314	-2.41199251411503	19.3994302804365	-2.41234595374141	19.4531071021274	-32.999908549394	-170.926300131404	
1239700000	-30.413420249162	178.336351808903	-2.41590231029525	18.1909757204994	-2.41356981620234	18.2342143411307	-33.0639335871393	-170.49681897493	
1239800000	-30.4890538239676	177.585219923562	-2.41820544499632	16.9738201732365	-2.41400634907724	17.0053144023189	-33.3307370621192	-170.294652005621	
1239900000	-30.4363512848221	177.282063936411	-2.41071630830442	15.7277594819008	-2.41290210795378	15.7911539555464	-33.3219462658809	-170.518733268163	
1240000000	-30.4029080663848	177.411613674973	-2.41458415507779	14.5304272057267	-2.4087982806387	14.5684791123929	-33.4002772213743	-170.063851976126	
1240100000	-30.5003104698887	177.223588926166	-2.41354332324377	13.3079092574718	-2.41432793627438	13.3380561427202	-33.6780723955123	-169.428265579028	
1240200000	-30.5248440870669	176.653936312005	-2.41372533770181	12.1046947019702	-2.41752913346474	12.1415699345686	-33.8179279563022	-169.321140265654	
1240300000	-30.5252714431404	176.176976759156	-2.41493812508157	10.8725955562166	-2.41073019412204	10.9171175752782	-33.9291602865672	-168.941301746787	
1240400000	-30.5788466195017	176.251821337583	-2.41094349227271	9.6616605806997	-2.41300210306117	9.69259100064745	-33.9780015777263	-168.646197966966	
1240500000	-30.5158876472263	175.824811260218	-2.41506913713788	8.44441652875506	-2.41606420914393	8.48528159348205	-33.9945166516319	-167.811338204677	
1240600000	-30.6223157606397	174.843692148405	-2.4143523319214	7.2422759350521	-2.41693894803017	7.26060435447154	-34.2634348003001	-168.65128139816	
1240700000	-30.6024209791801	174.993494258505	-2.41180227208449	6.01633413710729	-2.42037767119712	6.05153535737273	-34.2844126815807	-167.32641901987	
1240800000	-30.5746628136925	174.678123604862	-2.41190583015361	4.80765145446397	-2.4183060226006	4.83734112947361	-34.3322830749486	-167.052448356023	
1240900000	-30.7194537625572	174.758334334712	-2.41559903345475	3.57655603610254	-2.41687259383696	3.61306829385003	-34.6227268741328	-166.137718214652	
1241000000	-30.678489362858	174.636498385278	-2.4134595389877	2.36548032250513	-2.41723434066369	2.3726538869818	-34.6834204154591	-165.763968300599	
1241100000	-30.7109909581254	174.223311819265	-2.41382617585245	1.1239239271115	-2.41520202660212	1.17986497712744	-34.7619396344714	-165.164986605974	
1241200000	-30.7344497740181	174.006453498985	-2.41429703330609	-0.0818593495613376	-2.41699256378423	-0.0259070379458982	-34.9545882084455	-163.757365064211	
1241300000	-30.7724240962015	173.847046977377	-2.41143704409846	-1.30613527349138	-2.41680798735665	-1.25110933378426	-34.9070290505771	-163.604366495048	
1241400000	-30.8122026136169	173.587699184349	-2.41393260667967	-2.51887397212669	-2.41601329822226	-2.48661993429215	-35.0565748160843	-162.649758452983	
1241500000	-30.8030500616885	172.973470861868	-2.41504325386722	-3.72516223015736	-2.4178470559398	-3.68553068269898	-35.0764532608177	-161.932084537788	
1241600000	-30.7893129262713	172.807143411091	-2.41352426915778	-4.95307355660218	-2.41925281936739	-4.91389527358749	-35.2787317256492	-161.386329817377	
1241700000	-30.8224366036264	172.701612320243	-2.41339516025955	-6.14388334117668	-2.41760297767597	-6.09519899651713	-35.3699624932057	-160.671839224604	
1241800000	-30.8550883838869	172.76170406574	-2.41453445840743	-7.37956600720145	-2.41896491599598	-7.36003756516297	-35.2752027035129	-159.207691425892	
1241900000	-30.9056348876072	171.770539747899	-2.41406923800876	-8.60020541775622	-2.41776744315911	-8.57441915017901	-35.4103177010408	-158.489159488254	
1242000000	-30.9782542420223	171.49527127513	-2.41267755096816	-9.80025858268188	-2.41772545795158	-9.78311519991667	-35.4409223923914	-157.205404609653	
1242100000	-30.9407592491686	171.276212833192	-2.41447743216964	-11.044099207689	-2.41918643256489	-11.0071883119266	-35.4983599373612	-156.509941952577	
1242200000	-31.0285650253114	170.61702801546	-2.41762948671078	-12.250442245716	-2.41166768244543	-12.2039862867736	-35.7331095930701	-155.375974685136	
1242300000	-31.049936099756	171.455039396327	-2.41296945093956	-13.4487106347211	-2.41874775619011	-13.4310022759845	-35.7281223500381	-153.846116488408	
1242400000	-31.0344432073425	169.798424236498	-2.41607599972621	-14.6953789472994	-2.41725910897517	-14.6572821343209	-35.5564177909733	-152.866240917668	
1242500000	-31.0427609233355	170.503214102397	-2.41582302404361	-15.8809193905388	-2.41963494049989	-15.8689572454948	-35.6722312863308	-152.507081143583	
1242600000	-31.1783299654917	169.759001441604	-2.41637788680161	-17.0916209493206	-2.42038290843453	-17.0971973132721	-35.5285025043229	-151.358472597743	
1242700000	-31.130771427075	169.311296211108	-2.41577724580702	-18.3482990577653	-2.41615184007218	-18.2973565229771	-35.80416733951	-150.234763424757	
1242800000	-31.1594503234513	169.527770030913	-2.41878655364526	-19.5535022354531	-2.41585861990219	-19.5079968334382	-35.6664356012085	-149.183565634795	
1242900000	-31.2017248985756	168.994371609614	-2.41768833065989	-20.7603547080765	-2.41539541606005	-20.7349615051615	-35.612804384288	-147.626039242224	
1243000000	-31.1534510128867	168.330009710599	-2.41799682064654	-21.9847115635436	-2.41812070434837	-21.9584076479738	-35.7461329857856	-146.815934584017	
1243100000	-31.2379861145082	168.226390711672	-2.4153468835779	-23.1914570495674	-2.41752895455385	-23.195296594578	-35.702811155292	-144.998663236002	
1243200000	-31.2928947783847	168.188795973852	-2.42034833981761	-24.4107805685302	-2.41485694912981	-24.398448906448	-35.537440423795	-144.701905355717	
1243300000	-31.2502307328187	168.175086027084	-2.41715046251979	-25.6473675906094	-2.41788294919744	-25.6119587293903	-35.5032219002712	-143.243085875194	
1243400000	-31.3213108682354	167.82086940372	-2.41682519720022	-26.8507724898308	-2.4189489571626	-26.8219409368823	-35.5045850170456	-143.032577124894	
1243500000	-31.3648710226004	167.342641773427	-2.41792091472883	-28.0813726617132	-2.41790378485323	-28.0439152647008	-35.498363205834	-141.678090809741	
1243600000	-31.4342865052991	166.644418581556	-2.4169628668633	-29.2944884695832	-2.4195251249168	-29.2601255215407	-35.4240528972837	-141.161598203645	
1243700000	-31.423665221801	166.909048487055	-2.41653437196918	-30.4982113336964	-2.41915512853409	-30.4864986421759	-35.2761180495971	-140.146631552795	
1243800000	-31.4659607852493	166.770150406403	-2.41911521089418	-31.7300935549828	-2.41827004317562	-31.6801222041096	-35.2822358405865	-138.711869127589	
1243900000	-31.6209578956221	166.442254450146	-2.41771747130346	-32.9404000571732	-2.41855303004951	-32.9115877742716	-34.9804575134645	-137.87633118255	
1244000000	-31.6015525187539	165.563568196903	-2.41620780422025	-34.1510077820025	-2.41955754624732	-34.1444446661429	-34.8973225702973	-137.204203596853	
1244100000	-31.5949814795398	166.092325134944	-2.41815225264099	-35.3729184008334	-2.42007508429888	-35.344500184323	-34.8722170908134	-136.784637921647	
1244200000	-31.7250779863099	165.114167570782	-2.41596176946729	-36.5844624941614	-2.41749121654168	-36.5621364215994	-34.8433721117362	-135.233815111037	
1244300000	-31.7436952477345	165.135296501998	-2.41842331729863	-37.8209517911609	-2.41837092371841	-37.7862364396592	-34.6901525742505	-134.531239736587	
1244400000	-31.734277336863	164.761953317561	-2.41718454374123	-39.0277909943095	-2.41944240770902	-39.004312635539	-34.5071595430458	-134.017044151251	
1244500000	-31.7544552434297	164.235441757373	-2.4200557988154	-40.2447423679716	-2.41920394577875	-40.218952755452	-34.3436387047919	-133.001927598294	
1244600000	-31.8113077451568	164.431883268624	-2.41702164572	-41.462493971849	-2.4202276909287	-41.4416912443281	-34.3761614186579	-132.777201358384	
1244700000	-31.8959924983164	164.179746563116	-2.41365134681851	-42.668024290163	-2.41755839741153	-42.6560541388759	-34.3122364293672	-132.396502312367	
1244800000	-31.8609917725262	164.007707723919	-2.42119981114819	-43.8941931151141	-2.418549613766	-43.867293132951	-34.1794399928301	-132.105382039505	
1244900000	-31.8803197154141	163.785480022084	-2.41922471416791	-45.138661312557	-2.42019866307753	-45.0650918994619	-33.9089297678062	-130.647782282986	
1245000000	-31.9981109577561	163.57852784173	-2.41913902232676	-46.3335931833609	-2.42011960068138	-46.3167076225181	-33.8674987413338	-130.565192741498	
1245100000	-32.0222950819895	163.439881142215	-2.41832616840069	-47.5642072546845	-2.42199209746958	-47.512113491524	-33.7980457984648	-130.955447935542	
1245200000	-32.0949601380426	163.531412628351	-2.41838316282985	-48.7623880806118	-2.41909355747164	-48.7418382398585	-33.5545437779956	-130.375276994696	
1245300000	-32.2024961692651	162.957215189412	-2.41790051883739	-49.9738247981575	-2.42070125961234	-49.9588112916656	-33.4488172061673	-129.392877856281	
1245400000	-32.1848191243181	162.631022749098	-2.41568643526784	-51.2096352817223	-2.41993452918454	-51.1895019009664	-33.3748222938583	-129.546180793611	
1245500000	-32.137181947438	162.968707930226	-2.4189088905112	-52.4196520505089	-2.42037297679493	-52.38506174046	-33.3270962770976	-128.974985370158	
1245600000	-32.23701488923	162.110315724835	-2.41832800282373	-53.6308166322179	-2.41840435538583	-53.6004279885493	-33.0540370771902	-128.93048098616	
1245700000	-32.34271852552	162.102649750834	-2.41983611381096	-54.8540378230978	-2.42182113403256	-54.8261679002816	-32.9287539993868	-129.234657565709	
1245800000	-32.4368902536014	162.339262435553	-2.4194043513429	-56.056135907587	-2.41860245182473	-56.0628736049899	-32.9025221097886	-129.105000513997	
1245900000	-32.4207704207743	161.748598385433	-2.41981730748157	-57.2989966154054	-2.42042709074223	-57.2629963666253	-32.7085101376765	-128.754766049167	
1246000000	-32.497707819667	161.568637490084	-2.4192153949768	-58.5060565137848	-2.42266913114685	-58.4830192891542	-32.6451736940013	-129.310370295892	
1246100000	-32.4825638833316	161.478698883665	-2.4202387364647	-59.7349229930974	-2.41931172745809	-59.6943550309787	-32.5291396693298	-128.952778618248	
1246200000	-32.610944633738	160.686197285727	-2.41713982613618	-60.9463678478515	-2.42210096531702	-60.9179823138139	-32.3196183110344	-128.397401395525	
1246300000	-32.6524235290126	161.11432699605	-2.41844611580812	-62.1723462173157	-2.41908727927902	-62.1224011755955	-32.2814958475398	-128.411272996975	
1246400000	-32.6986065826576	160.953028884079	-2.41921170731869	-63.3751687408137	-2.4197168504163	-63.3470712394458	-32.1248645804897	-128.810960431422	
1246500000	-32.6743477188055	160.720227667564	-2.41786455634531	-64.5860410436879	-2.42200324733469	-64.5536485281395	-32.0210936803571	-128.334396658075	
1246600000	-32.791213000493	160.943230041004	-2.41997726870355	-65.8071865827041	-2.42066922496082	-65.7860737862368	-31.8882357460491	-128.871487776351	
1246700000	-32.8407068220685	160.799802496386	-2.42208733190669	-67.0247089080846	-2.42073900686951	-67.0079714261908	-31.7491979894687	-129.224343325321	
1246800000	-32.9317052924299	160.59857930176	-2.42018631973626	-68.2306715927497	-2.42189334271169	-68.2312076217333	-31.6044412347933	-129.1995215257	
1246900000	-32.9336941138298	160.565625192216	-2.41932087498485	-69.4709577984228	-2.42193749588288	-69.4425516353175	-31.4581955063099	-129.645272287888	
1247000000	-32.9776269217171	159.14435159378	-2.41803505571367	-70.6902549914774	-2.42090129158858	-70.6512956700541	-31.3236937655627	-129.266240232706	
1247100000	-33.1263536677366	159.88410500756	-2.4196062849109	-71.8891353605227	-2.42274898497402	-71.860105280547	-31.3573094416256	-129.673491216689	
1247200000	-33.0296471244589	159.598492802732	-2.41976842591488	-73.1348780781939	-2.42133353147517	-73.0770249659525	-31.1622944460201	-129.486565317861	
1247300000	-33.2126648485999	160.365571959507	-2.42262586680709	-74.3334503404406	-2.41934493335136	-74.3151704439775	-31.0763643798594	-130.531029707482	
1247400000	-33.2671083703982	159.67009630662	-2.41902679790101	-75.5531184521372	-2.42265228800926	-75.5283193100649	-30.9711318315066	-130.689583785228	
1247500000	-33.1304376236063	160.453961938158	-2.42167833877322	-76.7714794423293	-2.42145571349159	-76.7377398745425	-30.9854406933014	-130.888500831073	
1247600000	-33.3872637531768	159.347006910534	-2.42396384943327	-77.9905772482222	-2.42292811783172	-77.9484513095089	-30.8028087431492	-131.302599746868	
