!Agilent N9923A: A.07.32
!Date: Thursday, 02 June 2016 23:09:01
!Model: N9923A
!Serial: MY52412257
!GPS Latitude: 
!GPS Longitude: 
!GPS TimeStamp: 0001-01-01 00:00:00Z
!GPS Seconds Since Last Read: 0
!CHECKSUM:2089643374
!Correction: S11(ON U)S21(ON U)S12(ON U)S22(ON U)
!S2P File: Measurements:S11,S21,S12,S22:
# Hz S DB R 50
1950000000	-4.5160246635258	14.7674975014668	-33.5110264815324	-55.7079866653904	-33.5003118879326	-55.0415256610071	-6.96242482267503	-58.4518763939822	
1953333333.33333	-4.59871397148399	4.16782513700573	-33.7487744235694	-69.2084505189687	-33.6231582192986	-69.1808940689074	-5.77753284650444	-68.8923323362156	
1956666666.66667	-4.66973308838441	-6.06535217828918	-34.8499476379368	-83.5833140582569	-34.7533433426749	-84.7526472917806	-4.82689567934419	-77.5086590411308	
1960000000	-4.72254747792914	-15.9936081749969	-36.1477168619652	-90.5282032823444	-36.3061918045302	-92.1436704460438	-4.1300790508519	-85.0225617621336	
1963333333.33333	-4.68962821251265	-25.7292182902653	-36.7425270965118	-96.597811698579	-36.959429327132	-97.1833699111001	-3.62196744382444	-91.4770617319318	
1966666666.66667	-4.62477640343354	-35.3425275358913	-37.1934134657587	-101.502310154527	-37.3664246442496	-101.179262197436	-3.26021243884444	-97.0566412711103	
1970000000	-4.50761057327539	-44.5143752149946	-37.4366501608549	-107.581388259149	-37.6276939764464	-107.01871592309	-2.97430046569025	-101.757712225222	
1973333333.33333	-4.32165124153839	-53.250713193429	-37.3730282636403	-112.029633834605	-37.6030815408795	-110.691292437183	-2.72147566095351	-106.056441848488	
1976666666.66667	-4.12878186470209	-61.5905045675963	-37.1706867283903	-118.147890160609	-37.3994212195396	-117.528057552041	-2.52424369033379	-110.047301466695	
1980000000	-3.9523287063841	-69.0744140766778	-36.4400547596029	-127.600525049132	-36.5377398721397	-126.591345523258	-2.36230583253748	-113.64762833102	
1983333333.33333	-3.7313940994407	-75.8558636977332	-36.4624627752083	-144.163650960634	-36.5744488399246	-143.891636128821	-2.22088132983262	-116.918291289328	
1986666666.66667	-3.52529254175063	-82.1907690578558	-37.6028287059014	-157.928004303449	-37.8005131443089	-157.203148463771	-2.09120178203134	-119.975399105365	
1990000000	-3.3458348587472	-88.1400883796244	-39.1199649896832	-164.905766750979	-39.2403092565247	-164.938883469496	-1.9784936400434	-122.78719732342	
1993333333.33333	-3.21397316752696	-93.7700867049563	-40.2645721246239	-169.555435971956	-40.4366316761026	-169.446276370559	-1.87656187091886	-125.515181459821	
1996666666.66667	-3.12926244576649	-99.0170059004411	-41.2270762500549	-168.575314029396	-41.3515961044168	-169.043183889529	-1.79344282613619	-128.120755889773	
2000000000	-3.08109210123005	-104.068921435509	-41.0232049915969	-168.701578477461	-41.3584730150438	-168.76465036257	-1.72545968626631	-130.407538221314	
2003333333.33333	-3.0459952122176	-108.925156114301	-40.2490679989509	-171.837953552776	-40.4735737441544	-170.959437340693	-1.6478203410632	-132.606332901588	
2006666666.66667	-3.0149580327363	-113.892075448481	-40.0223223834145	174.520205121381	-40.0016833431309	176.002881032603	-1.58227047401688	-134.714986777429	
2010000000	-3.05190886468856	-119.040356588036	-41.0369755067738	168.859255510346	-41.1551709889299	169.655563109364	-1.52779810238781	-136.868260474935	
2013333333.33333	-3.09202773647573	-123.737696033531	-41.1459394768954	168.526651180294	-41.3293682732363	167.774598268465	-1.49876637725653	-138.835893739817	
2016666666.66667	-3.07056741134435	-128.597526702163	-40.9395028096976	164.134409055956	-41.1648047863209	163.888136687508	-1.47216151769327	-140.74596234361	
2020000000	-3.0554116789677	-133.736305746382	-40.7888657868287	160.899959248381	-40.8686287193023	161.22354637299	-1.45490042935751	-142.573703478618	
2023333333.33333	-3.06527273754929	-138.841883881778	-39.8144814868497	153.336857166085	-40.1667956243282	153.758361641817	-1.4481976963681	-144.413185077363	
2026666666.66666	-3.09730379190697	-143.797451960835	-39.5504122329976	143.801745341762	-39.9484980337602	145.55883751581	-1.45610337574321	-146.227980298043	
2030000000	-3.13882640851565	-148.423518464098	-39.3987414515111	135.856833022172	-39.5554929178832	137.371770598876	-1.47740576341066	-148.050892663921	
2033333333.33333	-3.15551017357337	-152.761558684534	-39.3703909961048	122.727792662232	-39.3074035199404	124.445407548082	-1.51181792154727	-149.858440701093	
2036666666.66666	-3.15704806517379	-157.184606017543	-40.0989447306172	112.911288871892	-40.1313917918103	113.709850867997	-1.54253094307753	-151.719992059471	
2040000000	-3.19606853606218	-161.719561587524	-41.2560914537786	103.772101196753	-41.2760407451592	101.096902834973	-1.60134666345808	-153.638368638943	
2043333333.33333	-3.29246331789547	-166.172075762904	-43.7625883281691	107.006226826948	-43.9723970039964	107.160147376271	-1.66588564007465	-155.615625948681	
2046666666.66666	-3.40725838705935	-170.734803663877	-42.5072118460603	118.991371930584	-42.6949935683809	120.923003366256	-1.74130213777413	-157.62092613552	
2050000000	-3.5918061848662	-175.373236236254	-40.6505077565214	117.089056852044	-40.8591137988522	117.101221632734	-1.82269908723402	-159.7419355876	
2053333333.33333	-3.80888373671801	-179.950945916927	-39.1136604587405	108.76525877657	-39.2455819327019	110.863486532414	-1.91190045106119	-161.94551770833	
2056666666.66666	-4.03218125561241	175.172129042211	-38.2126973104588	97.8113391016553	-38.2869747904911	99.0596602926018	-2.00285560019121	-164.10363408936	
2060000000	-4.27355346262532	169.87085261139	-37.8592683741709	88.6569399400284	-37.8609394779814	89.813940327113	-2.09223531145863	-166.340803007295	
2063333333.33333	-4.53418054674746	164.002434116029	-36.8452984135516	80.5987162476958	-36.913328248298	81.4800176306509	-2.17510389099112	-168.691016414636	
2066666666.66666	-4.84067321992558	158.197836917697	-36.0167179368318	67.1174759535082	-36.1896778623962	68.25132691635	-2.27193476366357	-171.190028392767	
2070000000	-5.03287879199464	151.858715479528	-36.0546708931534	52.3328047380169	-36.1404081521236	51.0801908907907	-2.383453690311	-173.65487419736	
2073333333.33333	-5.30474496895631	145.038096861277	-36.6855789284695	41.0387266382099	-36.8101527718086	40.9026568368865	-2.47546117102785	-176.050110124102	
2076666666.66666	-5.60373430833414	138.559884651936	-37.1500040750004	33.1002899067252	-37.3539210650769	32.4476583963883	-2.54976441039171	-178.581553501283	
2080000000	-5.83738963413465	132.374323478217	-37.2725217145355	25.460295179006	-37.363708047289	24.1709348635746	-2.6456727065533	178.578648405968	
2083333333.33333	-6.0227432394834	125.896509765501	-37.8275447490574	15.757747423863	-38.3572252599054	14.6825142258124	-2.77415445108482	175.728783131567	
2086666666.66666	-6.21809788440781	119.282981795467	-38.9178119927276	13.6307435515488	-39.4605344802996	13.7426396112131	-2.95093005784702	173.020946921177	
2090000000	-6.43791552934534	112.487259496937	-38.3686390255571	14.8296474112422	-38.8660960393279	16.7056803188093	-3.09439370818972	170.376631407558	
2093333333.33333	-6.71009166355773	105.438919243682	-37.8617137253297	10.3808665239113	-38.029241108537	11.9255681192544	-3.25542743574921	167.639203848209	
2096666666.66666	-7.05317896927225	98.6676364634398	-36.9532479764082	3.82854170101487	-37.1413234103635	3.19444211422273	-3.40719830120329	164.727040214185	
2100000000	-7.3228161215804	91.7122844885079	-36.9243807616848	-6.67710194262788	-37.1296112298641	-7.6267484088164	-3.62019634190226	161.514373299468	
2103333333.33333	-7.61333967202978	84.4796173798976	-37.0812261832222	-11.7156651698336	-37.7292788435956	-11.56143258487	-3.88459285127789	158.499490661605	
2106666666.66666	-7.85548446549414	76.6540285352788	-35.8915756639696	-10.4766345290492	-36.5113689794162	-8.9725440830322	-4.13043932190475	155.496876893856	
2110000000	-8.09712154070312	68.5335582271501	-34.0351059597242	-27.2181511230278	-34.602104710723	-25.0321472258296	-4.40609204406362	151.934658593128	
2113333333.33333	-8.24792954412521	60.934599778717	-34.3985534139673	-48.012248638289	-34.9238093572567	-45.7151802811465	-4.77569023497582	148.217956524169	
2116666666.66666	-8.13725499823656	53.0870356912851	-36.2269998233199	-58.5902519966078	-36.7471968932968	-56.0381442272417	-5.20112453447968	144.64884396756	
2120000000	-8.0534635479875	44.5474789101678	-37.3252799139036	-63.5839307715808	-37.7977612509997	-59.6864470929609	-5.62842263866069	141.068594783934	
2123333333.33333	-7.91057399857742	37.1134883863516	-38.0475385448548	-63.4583540163556	-38.12420382231	-58.1172009544521	-6.06339485209894	137.22789080241	
2126666666.66666	-7.70813004501152	29.8418283377917	-39.2588058032774	-63.9370587604788	-39.05001411806	-60.8213095902524	-6.48193709834365	132.682285060858	
2130000000	-7.51529018199036	22.9839387843901	-37.6768726147668	-54.8958963317889	-37.7048383791636	-54.5781380665725	-6.98138810097072	126.990843870856	
2133333333.33333	-7.41737421207726	16.7726409980608	-35.8334996968873	-62.5502587917565	-36.1720266436479	-61.8682338302737	-7.72946781552546	121.340877852167	
2136666666.66666	-7.34556226032874	11.69293201209	-35.0335648535374	-77.0669845720878	-35.4806449915421	-74.9957720101914	-8.37449993750023	116.551098823833	
2140000000	-7.22648101113358	7.66881431954912	-35.7287331919825	-88.7662400186802	-36.0220051260675	-85.4590796800635	-8.95461276165211	110.605410656669	
2143333333.33333	-7.04381973311953	3.53572856586617	-36.2088067436403	-91.2833537343705	-36.4675340933891	-86.3728928621749	-9.55744185854557	104.28738624078	
2146666666.66666	-6.805983414624	-0.556317208884446	-35.8387525763499	-97.2538661107044	-35.9070299874533	-93.11027413575	-10.068023053	96.9395265328369	
2150000000	-6.62358931248553	-5.68862210356252	-35.2031883403538	-101.035632553779	-35.2378243518829	-97.7244401229972	-10.6431246088693	88.5510551869261	
2153333333.33333	-6.55930103976093	-10.2658103379686	-34.5859321131592	-113.549523611725	-34.5618138378808	-110.478037471511	-11.261233167939	79.7752645617597	
2156666666.66666	-6.40641579325572	-14.6767835192647	-34.7231870125115	-126.639250472541	-34.883186860646	-124.744128976904	-11.8358050163932	71.9902144891253	
2160000000	-6.26831638031325	-19.4599891327885	-36.0352701613677	-138.933449556484	-36.2643698415012	-135.235310065123	-12.1070336268342	63.7195085441952	
2163333333.33333	-6.17240333159899	-23.8499771134168	-37.5969662635803	-143.247615995597	-37.790280827478	-138.425065575342	-12.2263589133171	54.208310084457	
2166666666.66666	-6.02130673942455	-27.9042940228736	-38.3117175722485	-143.68937519864	-38.3518411186171	-139.326850287175	-12.4019108540229	43.8792462685392	
2170000000	-5.90760315557888	-31.6956714432027	-39.6583135353945	-140.481144445754	-39.2921904608022	-134.393515391007	-12.5968899837912	34.2476329252046	
2173333333.33333	-5.77363126414705	-34.8292745856097	-38.0728771659248	-129.809248422298	-37.5924169114221	-124.319328413279	-12.7056356585932	25.4457937055067	
2176666666.66666	-5.60140860828087	-37.2644129883705	-36.3791465225249	-140.031035239842	-35.8179680505568	-136.93055097675	-12.661316782662	17.3963031193851	
2180000000	-5.37082549999573	-39.713193693559	-36.4453290457519	-152.673040101524	-35.8836214348445	-150.008468206969	-12.4229979209456	9.88170844791091	
2183333333.33333	-5.14408023951973	-42.2257026113433	-37.0580395132947	-151.504631787979	-36.4568486045224	-151.291807746603	-11.9814276702698	1.50426429411713	
2186666666.66666	-4.96487225191263	-44.9217672983683	-35.2749841531387	-155.849259745822	-35.2481874447702	-156.276454119015	-11.7303674330437	-7.81035663341408	
2190000000	-4.8838171110189	-47.4681161950236	-34.6109021267811	-175.152619701801	-34.5720519045022	-172.790184514261	-11.6455985012318	-15.3303915600814	
2193333333.33333	-4.86241996889072	-49.5439699367788	-35.8675060169659	164.912637358048	-35.8585448108101	167.895129801284	-11.4413092165584	-20.7006691816583	
2196666666.66666	-4.82551895887891	-50.9381994420119	-39.5369658186371	160.501322642743	-39.5031523374707	165.42633130521	-10.8576815917909	-25.8816235170807	
2200000000	-4.75290838825583	-52.9088691043283	-40.3428521473917	170.029227082167	-39.8533802617709	174.923879541157	-10.3141942801457	-32.3589503828424	
2203333333.33333	-4.75046312280005	-54.596454902187	-41.3834433941313	-176.132998288417	-40.6161186270307	-173.655143094683	-9.98323676130145	-38.4426533705063	
2206666666.66666	-4.6983513581757	-56.2307784554792	-38.1585096875822	-168.156645699854	-37.4069833788467	-166.908238695452	-9.61535279547082	-43.0346205917873	
2210000000	-4.63322868563777	-58.2486170072829	-35.90211716069	177.128267910905	-35.3285645801163	177.2719882204	-9.25281920639184	-47.2634898962171	
2213333333.33333	-4.53665617899797	-60.4576358293558	-36.2630127807495	157.882608293239	-35.677283070298	158.429646063905	-8.89880973339172	-50.8044661965073	
2216666666.66667	-4.45669555927103	-63.1898854244459	-37.7342238621687	151.490200546369	-37.2825169534209	151.424016149221	-8.44638834643141	-54.2137441682153	
2220000000	-4.44308469068099	-65.8290326426649	-37.5714658078671	152.769982802934	-37.2457041458244	153.853269671755	-8.16286287839849	-57.9665155804433	
2223333333.33333	-4.47188030251866	-67.9349358420594	-37.0391068704297	140.239079953334	-36.7590592498905	140.499764444188	-7.95170434338178	-60.2085453826744	
2226666666.66667	-4.39948129319557	-69.3999964023362	-39.7645595903981	129.125040661775	-39.4986660416665	130.818345697388	-7.61005246522026	-62.0736105296388	
2230000000	-4.28066691604679	-71.1230957067518	-41.1187561062828	142.046531807373	-40.6355240133297	145.733644564024	-7.30506221606727	-64.5287670536862	
2233333333.33333	-4.21175219338222	-72.7164172570253	-39.6771075413418	154.664934878761	-39.0880670207392	154.046505869591	-7.09757096676006	-66.2692140671174	
2236666666.66667	-4.13886798840486	-73.90445375385	-37.5404076293699	148.232415202529	-37.2052660543239	147.825476536076	-6.79632202925583	-67.7173210672917	
2240000000	-4.05595998497761	-74.9242150762801	-36.6451601776781	137.413062765101	-36.3913870039881	137.144919579058	-6.50587497305136	-70.0407622274601	
2243333333.33333	-3.98249312537456	-75.7488370127738	-36.6049937674056	124.293100362035	-36.2885160321691	124.44741904027	-6.35449799781855	-72.3454344521777	
2246666666.66667	-3.87742079916055	-76.7542913803271	-37.5287072276858	112.778061082683	-37.0880632933596	113.480248386423	-6.23791532174136	-74.0493700726999	
2250000000	-3.80605666446791	-78.0366854972125	-39.0773190519085	108.562927742014	-38.3991662004662	108.731224356232	-6.14741480965345	-75.8706155121765	
2253333333.33333	-3.84512082121616	-79.4100262551296	-40.1306830356393	113.930931909925	-39.5662669317783	112.476306776603	-6.06981915501884	-77.2445907861164	
2256666666.66667	-3.87271130027547	-80.1343819859304	-39.0228231662602	115.002407355	-38.3258786223054	113.67791858746	-5.95975109203367	-78.8516759790172	
2260000000	-3.85580426666444	-81.1004631646618	-39.4447053028491	105.756352914813	-38.6494461459578	103.208570371323	-5.921368572247	-80.504206800823	
2263333333.33333	-3.86538528805487	-82.4675700227389	-40.4700976657263	110.425289027823	-40.0520938233094	104.263193366213	-5.86877505062438	-81.5599112457331	
2266666666.66667	-3.92483676989293	-83.8276480826032	-39.1223006729378	114.297915171273	-39.0181973214256	110.460113659776	-5.72315315891365	-82.8929415685037	
2270000000	-3.94866036245342	-85.1799263782846	-37.9386729269954	107.785734352498	-37.9045307249334	105.997571419048	-5.61326100031095	-84.6804657756309	
2273333333.33333	-4.00028639334482	-86.7426568699854	-37.5969702091753	96.6401193826658	-37.4815603798804	95.1357601379572	-5.50095685141069	-86.7145300799546	
2276666666.66667	-4.04596187465576	-88.0104582121525	-37.7254884902854	92.0348952912716	-37.5917695174298	90.4219175687278	-5.46779645297884	-88.7092090614779	
2280000000	-4.01554291948697	-89.0854411663761	-37.6998821905232	80.4267846542124	-37.4121109946446	78.9023328118069	-5.43067532838272	-90.5445066966886	
2283333333.33333	-3.95227752760325	-90.4358497044857	-39.1352765532131	69.5615507081491	-38.8100374720952	66.5013032419886	-5.42331000512572	-91.9749926015941	
2286666666.66667	-3.89264588002609	-91.8121671962557	-41.4594463268955	70.0329002360828	-41.177512556044	65.1420329142251	-5.32047015149158	-93.4233656478233	
2290000000	-3.83655852307098	-92.9989626825781	-41.8301043114593	82.3616335736124	-42.1164317539093	78.9103081706459	-5.26817668180517	-95.0430811022382	
2293333333.33334	-3.78864039981898	-94.1344613521057	-41.2006105821021	83.8093995173372	-41.3150489535415	81.6078881125339	-5.2216498521144	-96.3720022655566	
2296666666.66667	-3.76176005536302	-94.8735626450845	-41.1468319244381	93.5397491233934	-41.1500950464692	92.5539653369479	-5.13097291582669	-97.2806669112871	
2300000000	-3.7028569922583	-95.3621735370772	-37.9458519679395	93.7537272472155	-37.8592200599924	92.5754432085528	-4.98528020391595	-98.6623703321232	
2303333333.33334	-3.63842391329561	-96.0677080850894	-36.5288652392594	76.3713352058065	-36.5531927420305	74.9364109594646	-4.9002595232834	-99.8980395333907	
2306666666.66667	-3.65136202258813	-96.8407882167335	-37.0072078553783	65.9733646922256	-36.9311853981488	63.8657377714017	-4.81602557932642	-101.173201621832	
2310000000	-3.69652234047031	-97.1783528767417	-37.5689568663498	55.8479994875731	-37.4574748206869	53.5040485324423	-4.78102701581015	-102.012232745379	
2313333333.33334	-3.71372166131791	-97.4703136192205	-38.1659063106073	54.707408974024	-38.32532295069	50.7777257556769	-4.67428060314909	-102.707593042868	
2316666666.66667	-3.70917445930385	-97.9954340354335	-38.464674374837	49.5538175832963	-38.4044582922226	47.8095086998067	-4.57724032668794	-103.582772862768	
2320000000	-3.74682827124698	-98.785389439807	-38.8368575194103	46.2545898253568	-38.8510194376892	43.6961475327732	-4.5127515884684	-104.493589203253	
2323333333.33334	-3.77153577122602	-99.6457409391424	-38.5607989748756	45.5236221152911	-38.7581570743392	41.9245006611934	-4.47815059577304	-105.243125549601	
2326666666.66667	-3.83840989336936	-100.737847631209	-38.9339672900036	36.3948218743728	-39.1119618461315	34.5457550012981	-4.47579500086346	-105.798477212374	
2330000000	-3.90603425182896	-101.791342227545	-39.7796305812239	41.2276588842021	-39.8810073827415	37.7252632302894	-4.42397982017604	-106.108944920252	
2333333333.33334	-3.94263766872109	-103.00245840653	-38.4507794800393	39.1374453887395	-38.9082151280585	35.2279430492869	-4.33862928340174	-106.654136078139	
2336666666.66667	-3.98443311747499	-104.360679941921	-37.8804030638059	27.1289713067609	-38.2449651618066	25.2091207571942	-4.28195921901375	-107.616711433749	
2340000000	-4.04066790346083	-105.616917052157	-39.1322534913956	12.6109490368667	-39.5774131862699	8.92076241721282	-4.29485827452962	-108.686279891628	
2343333333.33334	-4.08074702168116	-106.610413792116	-42.6865512754731	14.3816358223654	-43.530585551991	10.0471929169551	-4.35407388815217	-109.389584766574	
2346666666.66667	-4.0737681114386	-107.42515877846	-42.7084853562925	32.5393734675925	-43.3145304506537	34.0415776703521	-4.37931721325805	-109.854028864869	
2350000000	-4.04787713964198	-108.134696186451	-40.9316969620054	37.9470987651202	-41.349396605089	38.6140332453678	-4.38241468716686	-110.608676544043	
2353333333.33334	-4.00392067480844	-108.626702193977	-39.8948923777633	37.7228895735705	-40.1850899528423	37.0612531756538	-4.41480066539693	-111.574179589431	
2356666666.66667	-3.94479994938186	-109.076764152281	-38.0622369735573	36.6507291523227	-38.473757293643	36.1015082617962	-4.46563190462025	-112.503382201466	
2360000000.00001	-3.87142052522295	-109.461071127855	-36.312847131611	25.2185894295024	-36.7775548460264	24.8159767839777	-4.5327419289888	-113.276733657341	
