!Agilent N9923A: A.07.32
!Date: Thursday, 02 June 2016 23:33:39
!Model: N9923A
!Serial: MY52412257
!GPS Latitude: 
!GPS Longitude: 
!GPS TimeStamp: 0001-01-01 00:00:00Z
!GPS Seconds Since Last Read: 0
!CHECKSUM:0066352773
!Correction: S11(ON U)S21(ON U)S12(ON U)S22(ON U)
!S2P File: Measurements:S11,S21,S12,S22:
# Hz S DB R 50
1950000000	-1.53236438956447	27.8738039230508	-36.7853610223063	137.61931496937	-36.7701607288274	138.201930280043	-7.0168111185807	-58.5495988286026	
1953333333.33333	-1.54181493932515	24.4160662831786	-36.6224178284451	126.574497933199	-36.6441287503063	126.896921543537	-5.80996341127796	-69.0984513355278	
1956666666.66667	-1.57478268503787	21.116428603345	-37.595201598986	109.899513459585	-37.5618548066847	110.216056344951	-4.84875420985902	-77.7654311495904	
1960000000	-1.63609950188334	17.8002974367991	-39.325391871372	100.151997645349	-39.2951379269809	101.204013239346	-4.15340589281883	-85.371322103155	
1963333333.33333	-1.70799523612186	14.5149834908806	-41.2065164632483	96.4604421237615	-41.2998124974051	97.1277647529379	-3.65343387748707	-91.9512087818029	
1966666666.66667	-1.79967956793697	11.0062525504005	-42.161942426866	100.895743519259	-42.1355205104497	101.644120222619	-3.30200528609763	-97.692010185722	
1970000000	-1.89251376729851	7.55472116216834	-42.2622694204528	98.3768517345232	-42.2144187790084	98.404615036956	-3.03669568697983	-102.542149471067	
1973333333.33333	-1.95223295369222	4.03783451078511	-42.8261754675458	97.7687428299826	-42.4565011097629	98.3155071264254	-2.79847236433635	-106.935420648108	
1976666666.66667	-2.00876551693957	0.367508098638894	-42.6955303310368	98.1668332313323	-42.512645114485	97.2959701459887	-2.60838555927295	-111.028604144198	
1980000000	-2.03529004826402	-3.1850271238764	-41.2392090858521	92.6971288427479	-41.3882909358285	93.4791333911582	-2.44667764410289	-114.78813407229	
1983333333.33333	-2.02379779442375	-6.69967876708535	-41.4832872870928	77.8703937585227	-41.3234380389037	78.0626131777036	-2.30228091865989	-118.127163922617	
1986666666.66667	-1.99316684101055	-10.1214078384242	-42.5840407521572	69.2403809068952	-42.5330744956829	69.6862752062745	-2.1706210948716	-121.373425395241	
1990000000	-1.95974870967521	-13.3874445608904	-43.6472574776203	63.3326059231381	-43.6809899747791	63.6821121594902	-2.05587906168427	-124.241612545804	
1993333333.33333	-1.91002197182026	-16.3501141353855	-44.9303435708349	60.1975945833844	-45.194048489784	60.7850515810846	-1.94339590620962	-127.042484872328	
1996666666.66667	-1.8505115048403	-19.1584840325628	-46.0912763997317	64.5813670634409	-46.4730760891344	65.6776239302797	-1.85118757576267	-129.697905684124	
2000000000	-1.8034150813046	-21.9380908592691	-45.6938753019888	64.8302149896112	-45.4236449783538	66.8953451129407	-1.77015936588308	-132.002709782715	
2003333333.33333	-1.77832802265006	-24.5042676836916	-46.1780341145495	61.8000709211278	-46.0202850249877	63.3510982294007	-1.67618759725349	-134.174468464791	
2006666666.66667	-1.76748720641044	-26.9729813167229	-46.6765331438119	55.3818001133747	-46.7385313807525	58.3131414264333	-1.59310975709003	-136.279566257202	
2010000000	-1.78231179911514	-29.3780852354052	-48.0474318630871	64.0431943473363	-47.9564721345277	63.1538114829154	-1.52155690019384	-138.40829445919	
2013333333.33333	-1.829582361759	-31.8090913494164	-47.2013009429853	59.6120492829555	-47.3302832121767	62.3589146336184	-1.47214741481659	-140.357223695753	
2016666666.66667	-1.89798059985286	-34.2440964014666	-48.216073020785	60.6271354451828	-47.9349109583298	59.4774153042647	-1.44043214102139	-142.258017643546	
2020000000	-1.97815952366412	-36.888228467789	-48.466924247773	59.6433510646829	-48.7514300305332	58.2146650664685	-1.41705922923501	-144.067021761494	
2023333333.33333	-2.0853587501352	-39.595821415287	-49.2091146193339	64.8244440937696	-49.3103363481688	65.0068939532174	-1.41258697627267	-145.809735203064	
2026666666.66666	-2.17003326133797	-42.3989588062757	-48.9665207795996	70.6846532473143	-49.2168535987777	71.4220669438994	-1.41924342635739	-147.5104845295	
2030000000	-2.26914873390954	-45.3427943081754	-47.4289400935076	75.2131394756169	-47.1040661032325	76.0296110343233	-1.44266583630174	-149.301655628219	
2033333333.33333	-2.33479202642017	-48.384036808178	-46.7084891273241	62.6747016217432	-46.5203128675044	65.2385553625986	-1.48563741925012	-151.081604492365	
2036666666.66666	-2.38553183325774	-51.3640802328739	-48.3700411095904	55.4271077753791	-48.700423610512	57.1667406390704	-1.53086092582449	-152.838713572387	
2040000000	-2.43955952958436	-54.3099242615491	-49.2139110642729	71.0353980092512	-49.3664278196691	67.2897128184171	-1.59672247034042	-154.690590811411	
2043333333.33333	-2.47083301257154	-57.0184633046684	-46.9425703885406	75.8911325488665	-46.877457854138	75.6803095427896	-1.67117140783052	-156.6531141916	
2046666666.66666	-2.47937013111722	-59.6188078162251	-46.1515199154902	68.3258494205707	-46.2090527696006	68.9079704969722	-1.76128009095523	-158.632874174035	
2050000000	-2.48264052865384	-62.1740305562503	-46.1324555476528	69.8048267848789	-45.982923187233	70.8571410049894	-1.85349129343302	-160.769288803935	
2053333333.33333	-2.51362877376978	-64.7633170385644	-45.1404150017134	66.3585997019081	-45.0130391105579	64.6484943043109	-1.9540207618158	-163.005544448008	
2056666666.66666	-2.58140851312632	-67.2090663941349	-46.0712104434574	61.6549316771818	-45.8354082574069	62.2174201665185	-2.06047799276026	-165.247641575104	
2060000000	-2.68818689294811	-69.7560722754888	-44.9997366435116	76.7331985493892	-44.6283143374475	78.1320346244936	-2.16729807004691	-167.536772142957	
2063333333.33333	-2.86484424767558	-72.2675724442976	-42.4073006659859	68.9286290410629	-42.4667549913945	69.819164999555	-2.25657857736525	-169.909310976339	
2066666666.66666	-3.08962594468498	-74.6979361234149	-41.9226457582919	63.2844926850948	-41.8471497464941	63.3317308268868	-2.35447859628472	-172.488760170701	
2070000000	-3.37169928911975	-77.4650583090989	-40.9536497554684	54.6345667410558	-40.8278818161754	54.7911703087372	-2.47100380107583	-174.998824135803	
2073333333.33333	-3.76235297869718	-80.3549098766498	-41.1064735322085	49.3255077567313	-41.0057469005634	49.5609178844618	-2.55577129569232	-177.392430296285	
2076666666.66666	-4.27197872771987	-83.0439683302782	-40.6261223095681	48.2925096611073	-40.5966103132827	48.2944778819851	-2.62380714345642	-179.981155707341	
2080000000	-4.79621007874882	-85.6626017436946	-39.6190667045432	44.5015806741549	-39.6714780640234	45.3083513792804	-2.70533260070126	177.226996326656	
2083333333.33333	-5.36548152449164	-88.1899721215899	-39.2332255133401	34.799827364266	-39.2427524469339	34.2108239260256	-2.81028392176579	174.38796147324	
2086666666.66666	-5.93840222421829	-91.1368628959613	-39.5515853602735	34.099567283206	-39.55752608103	34.232523920329	-2.96382391502837	171.631830653895	
2090000000	-6.65698442282853	-94.2750042135171	-38.4832282450509	35.5699621722563	-38.5066595263706	34.9502254206645	-3.096906559778	169.01428160591	
2093333333.33333	-7.53389117108799	-96.9534094340557	-37.3138027749285	27.8457782255493	-37.3721122920441	28.4946892570317	-3.24679433943519	166.365651553204	
2096666666.66666	-8.54550363789515	-98.2703658634294	-36.6098354865428	23.0415613783666	-36.6389188856561	23.0699482523183	-3.38101675943742	163.632872471591	
2100000000	-9.70907286079645	-98.1581209427094	-35.6274277536204	13.9324487900033	-35.581461849774	14.1068927506259	-3.56700658203467	160.498547099398	
2103333333.33333	-10.9535302066746	-94.7918858245598	-35.1253958394428	2.26883908355482	-35.188258449526	2.57088483300396	-3.82281125732964	157.606949936082	
2106666666.66666	-12.0592803406248	-87.9276426357789	-35.2750792552917	-0.416916081530425	-35.3437077358791	-0.0968374652212878	-4.07028311100205	154.82443844204	
2110000000	-12.7455549998033	-77.8007266737051	-33.7478428160163	-10.7918388395012	-33.7498861793477	-9.66319889107364	-4.33939773256924	151.538792601067	
2113333333.33333	-12.7865714976111	-65.5677212110117	-33.6775125801747	-28.1142803995754	-33.648104847079	-27.9689197960962	-4.67704615908339	148.005467826025	
2116666666.66666	-12.1525634891077	-53.8475037290055	-35.1054564129371	-38.3939250730596	-35.0430326483819	-37.5405327449636	-5.09833889616656	144.410311678167	
2120000000	-10.9009417225389	-45.5535322060966	-35.5517021832921	-41.274519729716	-35.5749224208644	-40.8877662965176	-5.55617980843065	140.977961598774	
2123333333.33333	-9.76015487805183	-41.3641751814946	-35.3217649650349	-45.4815851044622	-35.3107087188985	-45.3517048815135	-6.01813295879679	137.301644504966	
2126666666.66666	-8.72064481608063	-38.5846628662366	-36.4692760940871	-54.1335888507631	-36.4519187177546	-53.429567788799	-6.47365630536816	133.055751310271	
2130000000	-7.77215092397747	-37.31163531677	-36.3732776818089	-49.8687832838384	-36.4245144584078	-49.1613586730316	-6.96522009152108	127.712872151794	
2133333333.33333	-6.96315917046467	-37.6432531404867	-35.3182328185552	-52.4728147340246	-35.2537586964766	-51.0524114024929	-7.68049371179178	122.087392654414	
2136666666.66666	-6.38190217803945	-38.7464922165879	-34.2293734846358	-64.4473947686823	-34.2398652316715	-63.7604479277493	-8.33935834790946	117.108515787382	
2140000000	-5.95408988563942	-39.7918332011491	-34.8975202870768	-80.176988208489	-34.8206509623534	-79.3021072921137	-8.90960069983377	111.10786223174	
2143333333.33333	-5.57021888443113	-41.1825622459543	-36.3260410417008	-80.8405199513424	-36.3443533224697	-80.6895293912966	-9.52498972010894	104.575381480793	
2146666666.66666	-5.23817953058041	-42.8684923128849	-35.8476821816785	-83.5989213729036	-35.8679287199981	-82.150774644012	-10.0110138511226	97.2748454929997	
2150000000	-4.93338281627344	-45.2724717361505	-35.5787227014654	-90.2466648770133	-35.6355687055751	-89.7374030005712	-10.5548286553056	88.4973739069779	
2153333333.33333	-4.75767274177291	-47.6602218733637	-35.1114557630666	-98.3528821718037	-35.0634765691042	-97.7279732815166	-11.151365313594	79.6333080278139	
2156666666.66666	-4.52919453259922	-49.5191518222359	-35.151692876828	-112.256999514269	-35.192635774943	-112.515456776385	-11.7114933045548	71.6162027767109	
2160000000	-4.26802851397691	-51.823724393563	-36.6903214158927	-127.319938551082	-36.5728589408616	-126.888595868508	-12.0196610056773	63.7215323020356	
2163333333.33333	-4.06080623460283	-54.0379090992022	-38.8356863030144	-133.571163320691	-38.8760835467643	-133.187581959659	-12.0872828722217	55.0335323406706	
2166666666.66666	-3.84043765754578	-56.0216137786368	-41.2196308472441	-133.58596636097	-41.0401811242287	-132.722865887484	-12.2048037811555	45.27659582317	
2170000000	-3.63093494620464	-57.790155504803	-42.8113673276623	-119.308620875272	-42.6498550999949	-118.456797861274	-12.3404208175093	35.8658616500798	
2173333333.33333	-3.42769613181076	-59.3460152096608	-40.9816790429611	-100.430450172345	-40.9500603388653	-101.33629567206	-12.4612754961953	26.9506577384413	
2176666666.66666	-3.25954460760882	-60.7551050424069	-38.2012899138533	-108.340382421996	-38.2601876278698	-107.303778807909	-12.5249323324948	18.8556544186508	
2180000000	-3.1043275762367	-61.8743966045813	-36.8659330486297	-121.039270729519	-36.8454505061917	-121.143436441958	-12.3825465316218	11.7883583784021	
2183333333.33333	-2.95487215653863	-62.9140407996452	-36.6738062582216	-135.70810314341	-36.6059099164274	-135.594777445114	-11.9690251005176	3.46183179047639	
2186666666.66666	-2.85239662980774	-64.1314002610943	-37.1713588295894	-151.341361761517	-37.1270338925872	-150.655590387457	-11.7446101968984	-6.4044437874981	
2190000000	-2.80494148756668	-65.0702262006812	-38.5133192926606	-165.723538126369	-38.608209770236	-166.227897886137	-11.7416311464068	-14.8899486621853	
2193333333.33333	-2.77003355139429	-66.0711089494206	-41.0473657004367	-172.973681313048	-41.0933188579086	-172.149146513065	-11.6638991329447	-20.8940002043337	
2196666666.66666	-2.7638429546974	-66.8537953369137	-43.1291024014814	-174.963624005611	-43.0578930202329	-174.34253527932	-11.1599202417004	-26.1588204553616	
2200000000	-2.7657639289718	-67.9392982744067	-45.9989579862319	-171.181035599881	-45.9408105098971	-169.256820180182	-10.615777125942	-32.901700709337	
2203333333.33333	-2.80278246507823	-69.0461699844586	-47.4161835807248	-128.666073635325	-47.4895478099315	-128.934464532913	-10.256325066472	-39.3533035170398	
2206666666.66666	-2.82338111570921	-70.1627984589289	-41.7153003258202	-125.210268152928	-41.6053937934325	-124.111689363421	-9.86907997128792	-44.2132115727638	
2210000000	-2.84397552168146	-71.5864472396279	-39.4140393685441	-143.52594482699	-39.2471148302244	-142.888756352919	-9.45112559593685	-48.6269254251322	
2213333333.33333	-2.8451358552199	-73.0461411425494	-39.2371411799288	-160.750868858036	-39.1945996676505	-160.728707401293	-9.05004739546233	-52.50225743546	
2216666666.66667	-2.83420848266241	-74.6945776450986	-40.6173130482586	-171.295928376437	-40.633213025707	-170.756351911577	-8.58133982725688	-55.7600201920974	
2220000000	-2.83156876693937	-76.1607444409343	-40.4767658792051	-173.278099520801	-40.4567404130111	-171.147858586141	-8.20263377120026	-59.4468049952989	
2223333333.33333	-2.80620116771515	-77.4774234463197	-40.2800122915117	175.158606112555	-40.1983358167486	175.313887889343	-7.93435959818884	-62.0204820431195	
2226666666.66667	-2.74356636111018	-78.6390244518261	-42.1799448452938	163.408792594949	-42.1553558817751	162.20725756886	-7.59032056784285	-64.0124959155598	
2230000000	-2.66535279173733	-79.5092235956299	-44.3091445211374	162.802301606979	-44.8242956753372	163.532949520891	-7.27701322324974	-66.3674254024749	
2233333333.33333	-2.55860514828213	-80.3870106612757	-45.0084164359593	178.123486169306	-45.0108166186556	178.286385799986	-7.06753120666288	-68.1173670191589	
2236666666.66667	-2.47885738459371	-81.2705056699914	-43.1535885222192	-179.895934806707	-43.140793973084	-177.609183989591	-6.79047051739681	-69.3835655175168	
2240000000	-2.44521098747023	-81.9277879189551	-42.1401506491957	169.148386289303	-41.8988454803146	170.396864427253	-6.49792390428556	-71.3664434804141	
2243333333.33333	-2.41978264001734	-82.2317365548629	-42.4703766042614	154.82717988122	-42.3220267037004	154.854155038577	-6.33149261684337	-73.4771075599803	
2246666666.66667	-2.36153604532924	-82.5826277451862	-44.8973650147084	145.126271475407	-45.0084518982459	145.526135218223	-6.22169407834407	-75.2104340740891	
2250000000	-2.33438383789624	-83.1403824624775	-46.8551805392975	155.788692455456	-46.5557375470468	157.323873821847	-6.14368515569437	-76.9028640255125	
2253333333.33333	-2.34847577689124	-83.8292436738907	-45.7652253751648	165.804689659122	-45.6504739245986	165.860307894617	-6.09445813137482	-78.1945227482386	
2256666666.66667	-2.39258650447712	-84.6315521750376	-44.2626693947304	157.900566025743	-44.1270710521358	158.323563402318	-5.9964560640396	-79.6500305429136	
2260000000	-2.48493551886992	-85.2884112995565	-45.0162032937468	151.119015647175	-45.1000068639911	151.094064380776	-5.96793035552745	-81.3658175509323	
2263333333.33333	-2.56589455766084	-86.0810398867744	-46.2462447743301	151.987273197719	-45.8614914406056	151.107693187768	-5.94327031640952	-82.5122170836213	
2266666666.66667	-2.66071282757044	-86.9080343220512	-44.8722290707269	151.125883057025	-44.828678608559	152.631606676969	-5.82918696697947	-83.8793739927201	
2270000000	-2.71190492992296	-87.825371186188	-45.211853699308	141.675281618053	-45.1574444878344	143.353937571788	-5.74278522708768	-85.7599887043092	
2273333333.33333	-2.75757347328738	-88.9787001256672	-46.5469751862274	133.281505587871	-46.4659739338813	135.602889600591	-5.63928189119099	-87.782637900978	
2276666666.66667	-2.7992435015974	-90.1580102768936	-47.4417686524539	147.002318079969	-47.1402509865492	146.27918050308	-5.60470343005767	-90.0028019684751	
2280000000	-2.79881747951182	-91.2548139566517	-45.4478415886627	142.615203556264	-45.410222776682	140.414714246313	-5.57117072839255	-92.0736828047714	
2283333333.33333	-2.77327908112537	-92.4380498077278	-46.2576538915	128.400079186376	-45.8822197836426	128.327657540026	-5.57815042118002	-93.767072164698	
2286666666.66667	-2.74371391624288	-93.5049306924391	-48.384881667419	129.233031483381	-48.1250216445177	129.643324771001	-5.48441809254866	-95.3143774131292	
2290000000	-2.71448376086063	-94.3516496730579	-47.6576311827324	135.829404631505	-47.4585759942811	136.814704467225	-5.42934674277869	-97.0095528482127	
2293333333.33334	-2.65612911286774	-94.8696664384583	-46.6594731800855	133.13971907108	-46.4387025881028	133.709795066805	-5.37813669354195	-98.4713374666201	
2296666666.66667	-2.60020316493648	-95.3399938134807	-46.6392403435472	126.110285483156	-46.7866124136366	127.914763987095	-5.27935404222626	-99.3123992132596	
2300000000	-2.54688738564214	-95.5872188572656	-47.1852077528359	125.855010835311	-47.2032414001052	126.367355486663	-5.08505452421251	-100.606626194648	
2303333333.33334	-2.49312359992599	-95.8983543494162	-46.4368792781553	115.767353337743	-46.2393493495354	117.02870070481	-4.96952618665888	-101.963151805454	
2306666666.66667	-2.49465588582112	-96.21626805241	-48.5625397942607	105.001214217167	-48.0464805151059	105.065415542611	-4.85722552896032	-103.316340089539	
2310000000	-2.50987036828842	-96.3510816838788	-51.2708522328775	122.970972374823	-51.122987662286	119.624873747352	-4.80127837123549	-104.236434721843	
2313333333.33334	-2.54039802351308	-96.6770793300967	-48.7686903602506	132.835539700944	-48.5145006685565	132.228350869071	-4.68914238388334	-104.837417116082	
2316666666.66667	-2.59256786195585	-96.9807584485336	-47.1244699474749	127.422498325745	-47.1214688413931	126.947407838718	-4.58350385904857	-105.577304136907	
2320000000	-2.67334631260448	-97.4520888660736	-46.7954372665283	113.544699515908	-46.6674139398838	112.946524720145	-4.49621213964163	-106.305903482059	
2323333333.33334	-2.75035094018527	-98.0822867559924	-47.6522444533312	102.068223830894	-47.6633266506909	101.670397953512	-4.44428048183722	-106.982010130779	
2326666666.66667	-2.85171043443858	-99.008682002318	-49.673819707199	100.53951357709	-49.6726052657302	99.2566972389478	-4.43595707147943	-107.454793369849	
2330000000	-2.97282887145867	-99.871932110294	-51.0752297472901	117.212971829215	-50.3620929622412	117.426928520921	-4.39466312521031	-107.611704572336	
2333333333.33334	-3.05970980348605	-100.815282206819	-48.2942470581491	114.865203118462	-48.300541713971	112.975068580457	-4.3075768118062	-107.902546440566	
2336666666.66667	-3.11549895157584	-101.855739509969	-48.7240066357859	110.730990757346	-48.3320336101601	108.052269441511	-4.23102056201659	-108.723437790517	
2340000000	-3.17083162015837	-102.95818729294	-47.9520200654351	94.57826139625	-48.2500598007745	92.8314981304038	-4.23944230958263	-109.828196759972	
2343333333.33334	-3.19363346218385	-103.845694677439	-51.6779475058948	87.4678254301632	-51.7037994789279	88.105308500567	-4.31626911745092	-110.604931061545	
2346666666.66667	-3.1697032935835	-104.707385053441	-53.32781004366	100.121548903311	-54.2513031537001	104.784485864709	-4.38384248191297	-111.011103511894	
2350000000	-3.12586888773645	-105.429347871453	-52.0293434189137	115.014806994008	-52.294094948948	115.099946207711	-4.40166123644156	-111.635257813969	
2353333333.33334	-3.0629926852154	-105.99970213805	-50.8427010514435	115.074865567567	-50.8492475648197	115.519338781946	-4.44409026178685	-112.589516389518	
2356666666.66667	-2.99909255396589	-106.47644045524	-49.7369723803872	108.450624289627	-49.9202585681798	112.952740763554	-4.51626703085375	-113.576758563423	
2360000000.00001	-2.95274859265232	-106.867673729409	-50.5958056528722	99.3363881174274	-50.241387050597	103.198651802564	-4.6070262388721	-114.405156770253	
