!Agilent N9923A: A.07.32
!Date: Thursday, 02 June 2016 23:54:13
!Model: N9923A
!Serial: MY52412257
!GPS Latitude: 
!GPS Longitude: 
!GPS TimeStamp: 0001-01-01 00:00:00Z
!GPS Seconds Since Last Read: 0
!CHECKSUM:1185708941
!Correction: S11(ON U)S21(ON U)S12(ON U)S22(ON U)
!S2P File: Measurements:S11,S21,S12,S22:
# Hz S DB R 50
1950000000	-3.9675755366188	-6.57009661388092	-39.9807607718771	144.383578276739	-39.8318414764281	145.081427338778	-1.67956438101501	25.9125196000188	
1953333333.33333	-3.96632481423853	-15.1514192107006	-39.3062921408275	140.012726723397	-39.1530969401095	140.31322660525	-1.64554198882096	23.0276712033918	
1956666666.66667	-3.99225292101129	-23.3591734837591	-39.4140258976816	131.656694451242	-39.2250268596239	131.283719178531	-1.59993974768617	20.2040477930315	
1960000000	-4.03279813650568	-31.3929349487508	-39.7075588587988	126.847254467603	-39.5733577483524	127.70732423778	-1.56466085256781	17.4261832075174	
1963333333.33333	-4.02422662254549	-39.2504893762923	-39.2354031214729	124.180712081229	-39.2508970843889	123.934159781651	-1.53718843173071	14.6463111384564	
1966666666.66667	-3.97917827327067	-46.9817721197868	-38.8383108319443	116.514168288302	-38.7806339082444	116.54142772971	-1.53543816900222	12.0592324660387	
1970000000	-3.87316737598546	-54.554532505318	-39.0820362075381	109.222541118726	-39.1026268933032	110.015791558294	-1.5399082821683	9.59980053396426	
1973333333.33333	-3.71904568106991	-61.729658973613	-38.8480523778181	105.151715955972	-38.9332617706948	104.996732947527	-1.55424998960781	7.1571677016002	
1976666666.66667	-3.54615961050519	-68.5693231405477	-38.8200619330535	98.7233477741032	-38.9946571860631	98.3306598795972	-1.57695965455661	4.79861309671103	
1980000000	-3.37332259120673	-74.6003285719677	-38.0980570784333	92.4336060586141	-38.2769190209626	93.1228526931249	-1.61055378113962	2.50104281639806	
1983333333.33333	-3.15805902076199	-80.0888186356937	-38.3547384048982	78.164027001229	-38.4325686145347	78.9444323497111	-1.64337298103986	0.214194657179858	
1986666666.66667	-2.96732052248747	-85.2496395838775	-39.6000444698218	68.2209206351963	-39.6065609845188	68.9812587160901	-1.6755816214144	-2.17249972693702	
1990000000	-2.82023349403104	-89.9553204821433	-41.3524620049867	66.6898198474021	-41.1336531448939	67.9901748809464	-1.71706205685541	-4.53288453885453	
1993333333.33333	-2.70473007845456	-94.3800525325073	-41.7799260940887	70.9637852182573	-41.6984659719706	72.4007376000461	-1.76508872202999	-6.9190591425722	
1996666666.66667	-2.65064047291401	-98.5948228423105	-40.915292922946	73.0676737940784	-40.9423813362062	72.3992177765253	-1.80741320761591	-9.32456957789376	
2000000000	-2.64037922915656	-102.701530958127	-40.7717805640548	65.3664024312513	-40.6627624647923	66.7215071384473	-1.84625676223162	-11.7104288821302	
2003333333.33333	-2.65517569266592	-106.692787833666	-40.4806332101373	62.3065024879858	-40.590329361324	63.758247606	-1.86838526457159	-14.1441701198026	
2006666666.66667	-2.69259511285345	-110.966906412598	-40.8021542141138	54.8116125706658	-40.7594724548677	56.2070452024349	-1.90447035918072	-16.4995463336525	
2010000000	-2.7764193986362	-115.331869215177	-41.372682449534	54.4654508754459	-41.4158896172668	56.5253174329774	-1.92083434516347	-18.8494189494077	
2013333333.33333	-2.86858392990886	-119.489566987571	-41.0793606683442	54.1339539165929	-40.8349113988047	55.6421201125775	-1.92102388743993	-21.0542306449568	
2016666666.66667	-2.89079563739367	-123.964808792272	-40.5456991566661	50.5426643836991	-40.3862199805761	51.1988507524388	-1.90783112771332	-23.1636821050465	
2020000000	-2.91716337234964	-128.75573623066	-40.1961460236721	44.7090057423719	-40.1374432151225	46.4319056253559	-1.87427085161286	-25.2142662054157	
2023333333.33333	-2.94595031300665	-133.494693538837	-40.5432389248468	35.8149938643135	-40.2021417222117	34.7998412660187	-1.84474678134244	-27.1426781203994	
2026666666.66666	-2.97196599748965	-138.066222590236	-41.7419934275726	32.4120745780076	-41.7009912914764	33.6877567644912	-1.79455956310437	-29.0471770800888	
2030000000	-2.99127830124065	-142.307647491408	-41.3743319656359	36.7618543089195	-41.3433808613935	38.2918054751047	-1.73844752965937	-30.9271182725153	
2033333333.33333	-2.98059386980359	-146.222320580482	-40.2713829109545	29.047695638013	-40.4093027557786	30.4541765614509	-1.69213816378879	-32.6696047467233	
2036666666.66666	-2.93578402427759	-150.106744294526	-40.6785999699772	19.4116224067498	-40.5655408655997	21.0590562589688	-1.64685627700634	-34.4096451785343	
2040000000	-2.92725155532192	-154.206543330417	-42.0979571953852	12.8174678853284	-42.0442772688727	14.3130515028422	-1.61649337582893	-35.9928844401383	
2043333333.33333	-2.99332637774824	-158.094356478265	-43.232404213115	22.5275210291965	-43.0762463277296	22.120475407995	-1.59313454947416	-37.553641118624	
2046666666.66666	-3.07219389237715	-162.054720337497	-41.9460455512574	27.438090803477	-41.8910691668439	27.6095354673731	-1.57070593124958	-39.0188839555468	
2050000000	-3.24642377875392	-166.231730920344	-41.0952716145018	21.8130122520485	-41.0123695535675	23.1715072842966	-1.57426998329226	-40.4373540416836	
2053333333.33333	-3.48198018461953	-170.341434099244	-40.4056508521635	16.4215284994635	-40.3854997905116	17.5742424708019	-1.59000826908717	-41.7812443350565	
2056666666.66666	-3.76894317887299	-174.727354585432	-40.130891963022	11.7892549295731	-39.9974568415443	11.3468922234269	-1.60033905082966	-43.0429401947748	
2060000000	-4.07462831653695	-179.377095121005	-39.9250154108406	5.0668820189282	-39.8430199684733	5.82358608690012	-1.61099789314639	-44.3124618570278	
2063333333.33333	-4.3977665086576	175.359714395039	-40.3488707238463	0.141601679244752	-40.1652688161015	0.422858972249854	-1.62985989879885	-45.7051032621412	
2066666666.66666	-4.74465497748285	170.134279288759	-39.5518752033549	-1.10238389894553	-39.4871679156625	-0.490135653238685	-1.67363725048067	-47.1096402938603	
2070000000	-4.96869165693365	164.245409916969	-39.3127278295547	-14.6666276378415	-39.324067338958	-14.6262398594588	-1.73257543939803	-48.4798214340795	
2073333333.33333	-5.22882322217855	157.588904135403	-40.4155588780856	-21.4770712536682	-40.1343994097417	-21.9152451289502	-1.77676784801543	-49.7890468004492	
2076666666.66666	-5.51125877448085	151.047090828241	-41.7169052741753	-26.7050072831257	-41.4746286446607	-28.8787917251427	-1.81898895376401	-51.3008145437311	
2080000000	-5.7342916685317	144.724091521134	-43.3329210040532	-17.7467746326524	-43.3428430529567	-19.9416961879572	-1.87835577168223	-52.9230559732831	
2083333333.33333	-5.92661589964142	138.160850268692	-42.0379992423878	-11.6085053932125	-42.329106999452	-10.6109620390796	-1.95528432148977	-54.5679177532099	
2086666666.66666	-6.16404815330746	131.680058829493	-40.907625942507	-14.5674040513733	-41.1646543909696	-11.4228824437543	-2.02530240598501	-56.138321886271	
2090000000	-6.3947426485267	125.390139500333	-40.6803168434469	-16.6930903653422	-40.6060934487683	-14.9692454840365	-2.07800880563344	-57.6869307400833	
2093333333.33333	-6.69331960470509	118.821903969766	-39.7053880532168	-24.4152836913248	-39.6409469288354	-23.1767217860532	-2.11093967152825	-59.3317811959411	
2096666666.66666	-7.12435337480756	112.53690969433	-40.2030679928554	-27.886668884708	-39.9871205524558	-27.7504574142261	-2.15850069222216	-61.000403131152	
2100000000	-7.52567696926203	106.126999911306	-39.6644965927899	-30.7225624666546	-39.4939031188622	-29.3833726000024	-2.21903009992161	-62.6536985225922	
2103333333.33333	-7.92312400820666	99.5021239158933	-38.9060110834274	-39.0734705247021	-38.738912330289	-38.5643523152522	-2.25603065679318	-64.0599017512867	
2106666666.66666	-8.3057515523528	91.5552571119647	-40.0537560569998	-45.7104191980401	-39.8837107222003	-46.3845191921667	-2.25598710512638	-65.4492619293595	
2110000000	-8.7237331719883	82.9623264685128	-40.0405772105359	-43.4211469833444	-40.1583077431858	-44.8474362239375	-2.25773580725048	-67.037742702789	
2113333333.33333	-9.02360531506335	74.3147550157792	-39.6632622493372	-44.304662154637	-39.9049338884923	-44.6235564135341	-2.2974823958766	-68.5871200393327	
2116666666.66666	-9.09357262340338	64.6756422917419	-39.1807141896286	-45.8621939873931	-39.2721599364174	-45.0261488260622	-2.35494296111607	-69.8383830544012	
2120000000	-9.14125410404316	54.8641347309635	-37.7661788564626	-52.4946559018833	-37.786569058252	-51.9524895272663	-2.39323523718111	-70.9287729541151	
2123333333.33333	-9.01279948114361	46.2636907357902	-37.8443092741474	-64.4629479883552	-37.8498619863925	-63.8919063972461	-2.42821167799564	-72.0349363333425	
2126666666.66666	-8.72819636670051	38.1336891428935	-39.0587093994129	-72.7307533415587	-39.1755822551919	-73.8113490187728	-2.50059153452797	-73.1633307185441	
2130000000	-8.43881162012771	30.4041270707291	-40.5066816358458	-65.8868964031003	-40.8154191385535	-64.6174654080511	-2.59853369631559	-74.1641129686803	
2133333333.33333	-8.22509844157139	23.6614133609854	-38.2125626906693	-58.0146573314388	-38.2779465156716	-56.3423169685868	-2.7438601193308	-74.9489964018713	
2136666666.66666	-8.05861663442485	18.0858322152685	-36.5465007848164	-74.7102924154664	-36.5146384081346	-73.1052161370638	-2.87798240146642	-75.3802068291445	
2140000000	-7.87686412193472	13.5219534443244	-37.51942376026	-89.292735959521	-37.3820160531684	-89.5727588968072	-3.0181232812972	-75.8919175329368	
2143333333.33333	-7.69932614874102	8.94843260964892	-39.7210902545403	-89.9098174729753	-39.7250393549095	-90.925595601493	-3.21921739850929	-76.2614988084456	
2146666666.66666	-7.49676961845087	4.94598271409555	-39.572195648167	-82.5351584493431	-39.7176871095357	-82.9239923159514	-3.44790653863349	-76.2334501164691	
2150000000	-7.29054435394334	-0.520498998474053	-37.8580736423659	-78.0603384178009	-38.0383502141116	-76.8180508139326	-3.67826559629717	-75.8125836649807	
2153333333.33333	-7.24316456964968	-5.92298107625183	-36.0989887267379	-87.5400197228992	-36.2767299625116	-86.0576086174094	-3.88052103361648	-75.0904569311471	
2156666666.66666	-7.1435413051765	-10.9463479095698	-35.4468166367848	-99.8155875243038	-35.577563233452	-99.1837041430623	-4.00960152729362	-74.2019810611975	
2160000000	-7.04641973419517	-16.4614417765889	-35.3692978994706	-112.92393342565	-35.450357051688	-112.115588398485	-4.15191162880573	-73.4563990396142	
2163333333.33333	-6.9825875791047	-21.345766952613	-36.3899102516308	-126.843299301751	-36.5433342466097	-124.898410330811	-4.24946932780957	-72.3430026427644	
2166666666.66666	-6.79499207753615	-25.6355915844868	-37.7939333533747	-132.544224112669	-37.8040914435751	-129.638436345863	-4.26750656059043	-71.4693790421354	
2170000000	-6.57763595582552	-29.7035311663433	-38.999640388622	-129.977149084601	-39.0250635514558	-127.556630107134	-4.25609963141007	-70.8484876559748	
2173333333.33333	-6.33555222813059	-33.2974760997613	-38.3786714976863	-124.833603040712	-38.3055684254393	-123.33701807771	-4.21720407330113	-70.4840525242089	
2176666666.66666	-6.06310762364181	-36.0790137844034	-37.6418861453756	-130.843500061091	-37.5219978679862	-128.873216182296	-4.15924173352187	-70.4013977930518	
2180000000	-5.73766017424699	-38.7849885542902	-37.4733191703931	-141.006922574822	-37.208948293143	-139.296316042476	-4.08310751808682	-70.4731936151092	
2183333333.33333	-5.45771693642953	-41.44672495072	-38.5973880052594	-143.2111260779	-38.5698318115447	-141.480679465625	-3.99539620269708	-70.8397838895389	
2186666666.66666	-5.24066698927545	-44.0271400982133	-37.5244668101178	-142.589595008397	-37.3032679216707	-141.402705418666	-3.88888995823304	-71.2591904118885	
2190000000	-5.10510411958688	-46.4223967192868	-36.727102875335	-159.147771110994	-36.5784151368272	-157.821453398554	-3.79543799673118	-71.9607365052074	
2193333333.33333	-5.0765774287488	-48.5784156497348	-38.3031541869203	-173.949998695189	-38.3099808270587	-173.60957556395	-3.69618515205463	-72.5972343982117	
2196666666.66666	-5.06132411157498	-49.849893632618	-41.3331440008532	-171.565877989174	-41.2090458495032	-170.697285621048	-3.5602001308126	-73.2469987489294	
2200000000	-5.03511080293426	-51.5748551534117	-41.3231318549874	-163.251279033156	-41.3585150839918	-162.805266837359	-3.41064943999106	-74.0657261859199	
2203333333.33333	-5.02759156580371	-53.0366726830458	-40.8634617926254	-155.302532105002	-40.7570349931502	-154.772470095811	-3.28439892579713	-74.9369951244227	
2206666666.66666	-4.99790003361656	-54.7616222117402	-39.0553020986903	-160.392822553921	-38.9913944120111	-160.754740501558	-3.13847783392902	-75.7870891506923	
2210000000	-4.95983015680912	-57.0474107296991	-38.4651443346349	-170.185004300189	-38.4127326193032	-169.647370170259	-3.01660761818043	-76.6845448661339	
2213333333.33333	-4.89474093528626	-59.506604879444	-39.0360575307312	177.733941509937	-39.024350361148	179.137200313593	-2.90598380680629	-77.4902522835432	
2216666666.66667	-4.83035216297652	-62.4611065220899	-40.4361408252352	176.082525279102	-40.3200076769557	176.786955944348	-2.79718337889647	-78.2016126861717	
2220000000	-4.81295823490275	-65.334259413758	-39.8672765953818	176.359112590492	-40.0276602622156	178.412008708427	-2.69844755060811	-78.9861292688186	
2223333333.33333	-4.81006937382619	-67.685045666646	-39.1961667770544	170.535588218792	-39.1789384523362	171.639131570082	-2.64386974669691	-79.5361518415021	
2226666666.66667	-4.69381174155427	-69.4749738591616	-40.1390077585427	163.356167757058	-39.9603735690973	164.367536563639	-2.59066928314515	-79.9311197696148	
2230000000	-4.55580632153672	-71.4140422146858	-40.4157348025951	157.715151058719	-40.3097619022305	158.341520892975	-2.52860145410096	-80.253171373513	
2233333333.33333	-4.43749875280284	-72.9948772987924	-41.7690740234279	159.682878889096	-41.5156163169477	159.03548045242	-2.45576618347948	-80.6773052009635	
2236666666.66667	-4.31015894798699	-74.115858685742	-40.7642067325658	162.213079840068	-40.638968927299	161.555252722887	-2.43415906762754	-81.1196251300505	
2240000000	-4.1970308897263	-75.1127248686112	-39.9330708811269	151.665133672891	-40.0455500195387	151.07081705124	-2.40671897481043	-81.4372727068684	
2243333333.33333	-4.10314295013825	-75.7075249576323	-40.9863093019843	139.272208162618	-41.1669233136736	138.157667401087	-2.36286851551044	-81.8715556056954	
2246666666.66667	-3.98307442332727	-76.3667208074374	-42.959428750458	140.031709281777	-43.0752114190435	140.880026542355	-2.34330055797971	-82.4919535461654	
2250000000	-3.88709240514628	-77.3237036557859	-43.1198558557142	145.123088580637	-43.281474122185	146.871216903186	-2.37191009630251	-83.2105638148422	
2253333333.33333	-3.90009601210934	-78.5513791623249	-42.6996129163192	147.516844182578	-42.4517729033634	148.848901992096	-2.41490685597199	-83.8959892577989	
2256666666.66667	-3.94299431694465	-79.3087251857036	-41.9176028783685	142.802069152924	-41.8055491130688	144.185426046311	-2.49065059575944	-84.5047918527832	
2260000000	-3.96797432298701	-80.2835755021737	-41.5525403105987	138.243327467374	-41.5191925926879	136.7854400189	-2.54302531684893	-85.0345263795266	
2263333333.33333	-4.04751566783377	-81.6322034385047	-41.9072160961477	133.414310657504	-41.8647439293007	134.992145230426	-2.58968369087453	-85.7930674295259	
2266666666.66667	-4.14757303229535	-82.8839951550801	-41.1780968118369	126.899979929748	-40.8050982387445	128.21707802049	-2.65992529282841	-86.5656962574887	
2270000000	-4.20249806587707	-84.2652473059073	-41.7812368109688	114.624000487641	-41.7310912079578	113.464722953411	-2.72270205069754	-87.2336947802973	
2273333333.33333	-4.25148144749772	-85.9793882600074	-42.7681733651585	110.274385058733	-43.0267853963555	110.773693443388	-2.74320310417187	-87.9897338058645	
2276666666.66667	-4.30806093179248	-87.7057683823591	-43.9904630672307	109.058451756941	-43.9008307640408	108.887539093345	-2.75669048584305	-89.0589193166917	
2280000000	-4.29627246272017	-88.9800617545356	-44.3591441367806	109.198604134063	-44.3948460999457	110.114978338509	-2.79430461855911	-90.2465674284942	
2283333333.33333	-4.20639961415583	-90.5323216062694	-45.1379808108272	104.757961062557	-45.1196521064073	104.072360017961	-2.84650443403544	-91.1979382657793	
2286666666.66667	-4.11535155544074	-92.1333800083071	-46.2398964951063	108.226004705841	-46.3520606701874	103.772442170231	-2.8673911831554	-92.0685393394753	
2290000000	-4.02885885614776	-93.4272061439918	-45.2843650760389	115.71174975824	-45.712840813927	114.23328229896	-2.86838052191898	-92.9301469467322	
2293333333.33334	-3.93049154794798	-94.4743630566365	-44.6872095397729	103.275146415892	-45.005069103912	107.322073913724	-2.8555287841809	-93.8576356076082	
2296666666.66667	-3.84883569580985	-95.2079580092507	-46.0425255614515	99.484932038931	-46.5864022800583	102.702594443311	-2.83207259011972	-94.6851262527194	
2300000000	-3.76152353522751	-95.6830515461119	-46.5712749636539	110.740758704585	-46.6541971353001	114.822029926382	-2.81162094976622	-95.5467552132454	
2303333333.33334	-3.68715216757889	-96.1859596386024	-44.7380533557045	114.027066234917	-44.6784456013348	115.202694922083	-2.79165332462948	-96.1104840452203	
2306666666.66667	-3.68088840321838	-96.6797216995602	-43.2807433696103	99.6842392639247	-42.9480305267317	100.52275652649	-2.74353075766027	-96.6984732232888	
2310000000	-3.73509142468082	-96.8141976839678	-44.3616417992099	83.1757768534516	-44.1717278243004	83.5100846597515	-2.70528365413717	-97.2427799372271	
2313333333.33334	-3.75962905110645	-96.7592291569345	-46.3734784974586	80.5943109066308	-46.6864993602846	78.2111454480249	-2.66308960402837	-97.6172914344175	
2316666666.66667	-3.75593674032015	-96.9743322146008	-48.017447544478	85.9073979352291	-48.0144568382368	85.9855690319607	-2.62603309736819	-98.0545319305485	
2320000000	-3.81100244003733	-97.6711396821266	-47.876666477961	91.123493769292	-47.8222684466509	89.204274864269	-2.59722476612757	-98.3757152645978	
2323333333.33334	-3.86647191312263	-98.5739295265175	-48.3996066265916	96.8683172173593	-48.5170159770253	96.4791240325103	-2.57992218821436	-98.6143743723989	
2326666666.66667	-3.97411247028231	-99.7372507192454	-47.1503999356632	96.0552880653566	-47.4241871849048	97.4904069792442	-2.56205189249987	-98.909660631921	
2330000000	-4.08077497105369	-101.015508485439	-46.4948524865965	96.5520173084307	-46.1164944953081	96.743644641958	-2.5742133660243	-99.2516734909474	
2333333333.33334	-4.16718200492038	-102.434327815308	-45.8174601111889	88.7722539249167	-45.4428809721794	86.202971011897	-2.61495191820257	-99.502837840889	
2336666666.66667	-4.23302063338082	-103.952396277453	-46.5267740619613	74.780661529267	-46.7401533707042	74.2878502057176	-2.66172310656265	-99.5816995979979	
2340000000	-4.2865269600427	-105.440555187076	-49.2791916671325	73.2508319933744	-49.3150253373916	77.6390164784328	-2.69075214911123	-99.6577658281343	
2343333333.33334	-4.30609806973829	-106.611329361498	-48.8658352039693	89.6885028547972	-48.4931258699374	89.6117349149324	-2.71177143067544	-99.9467663278932	
2346666666.66667	-4.26247736364538	-107.753499350793	-47.7884127480701	77.8785808197354	-47.3037116968198	76.8276941852052	-2.77548382285875	-100.411035125637	
2350000000	-4.1960292084696	-108.671977431156	-50.4870523183148	79.6606865008886	-50.5467736975489	78.5577676302883	-2.86379472155594	-100.836943669015	
2353333333.33334	-4.11174186956485	-109.266286095194	-48.5242123658152	105.810953548706	-48.5863303420756	104.519704504557	-2.95619884584869	-101.279053742957	
2356666666.66667	-4.01946199681808	-109.744450109177	-45.8429700504507	89.8422497095295	-45.8125205918455	90.0231767796789	-3.03952145671027	-101.804303003988	
