!Agilent N9923A: A.07.32
!Date: Thursday, 02 June 2016 23:52:42
!Model: N9923A
!Serial: MY52412257
!GPS Latitude: 
!GPS Longitude: 
!GPS TimeStamp: 0001-01-01 00:00:00Z
!GPS Seconds Since Last Read: 0
!CHECKSUM:2021149296
!Correction: S11(ON U)S21(ON U)S12(ON U)S22(ON U)
!S2P File: Measurements:S11,S21,S12,S22:
# Hz S DB R 50
1950000000	-4.03581707380481	-6.71800619815753	-39.7146445647014	142.788470738771	-39.9478808318592	145.488185361343	-1.6802096465405	25.9188507235078	
1953333333.33333	-4.03361007171567	-15.3155356832251	-39.4368632823797	138.227300815619	-39.251201899536	140.437308181371	-1.64293293247732	23.039191266803	
1956666666.66667	-4.06612389935299	-23.5614889007932	-39.465794786854	130.081453286965	-39.4097030677016	131.254213750614	-1.59768048852609	20.1786076840199	
1960000000	-4.11127724231828	-31.5459055911571	-39.9960298078944	126.586395638802	-39.7291596780214	129.490830667323	-1.55602121821937	17.3671435234957	
1963333333.33333	-4.09971712376227	-39.4285072470932	-39.2929943924488	124.32370934405	-39.1170867876451	125.590797659648	-1.54228966164751	14.6284556174602	
1966666666.66667	-4.0486240171894	-47.1761501044126	-38.7375775971181	116.678803606423	-38.6595553184705	116.843168723605	-1.54354164913442	12.0225346482441	
1970000000	-3.94404906771645	-54.7350685144211	-39.0868615772153	109.631233386145	-38.9738041030705	110.083503171308	-1.54797482032262	9.61209840148285	
1973333333.33333	-3.79110343188604	-61.9326683845844	-38.7483596571299	104.102810212201	-38.7581965445171	104.373277256028	-1.55786730710656	7.17958655164765	
1976666666.66667	-3.62241862522077	-68.7887622678353	-38.8538320416991	98.357502185271	-38.7818139097878	98.8493315368764	-1.58022825823508	4.77442879619423	
1980000000	-3.44579722032337	-74.8312797157556	-38.1571053459666	91.0410465798084	-38.1829534943592	91.2755816531566	-1.60877313717554	2.46345163076975	
1983333333.33333	-3.2372097498002	-80.3330825572692	-38.3900518048299	77.9889752915519	-38.4372405202467	78.8910680120307	-1.64408513563808	0.164146297262233	
1986666666.66667	-3.05075371090098	-85.4637671732134	-39.3550197490572	68.9281700107966	-39.5027695730558	69.6340766937586	-1.67776485396511	-2.19804180103314	
1990000000	-2.89730205718117	-90.1490539752843	-40.9894689478369	64.1917716515935	-40.9504658355659	66.4481413346626	-1.71721743363578	-4.53350237309247	
1993333333.33333	-2.78011125595762	-94.6228176515662	-42.0262933114256	68.5920548550225	-42.0178614539219	70.4280618475554	-1.76188460207963	-6.94788567928658	
1996666666.66667	-2.7284425376111	-98.8394660471924	-41.2048485113966	74.119467285426	-41.0098955006324	74.1331884164009	-1.80692568352752	-9.35632701619171	
2000000000	-2.71482365034809	-102.969290640642	-40.8196995901127	65.7074542763369	-40.6163642435836	67.8730230431665	-1.84605381133347	-11.7145633907887	
2003333333.33333	-2.72998330295935	-106.962264420064	-40.5399026353091	62.0000301015513	-40.509253838719	63.5658581391693	-1.86852672054462	-14.1505949061762	
2006666666.66667	-2.7733124622185	-111.1931904223	-40.751346097706	54.6821013665435	-40.7802309992651	54.5597582541351	-1.89882206618851	-16.5075196219449	
2010000000	-2.85369957975176	-115.610119378369	-41.5134466841172	54.3264276518391	-41.4939153116723	54.723059697878	-1.9142199983042	-18.8523163376134	
2013333333.33333	-2.94591505500104	-119.817106853935	-40.9673135029541	54.3914533068562	-40.843025314429	52.9785374963652	-1.91752476048867	-21.0715191881519	
2016666666.66667	-2.96373533072293	-124.246253159303	-40.7147737100786	47.7825848674584	-40.6944113978094	48.3801173049096	-1.90030083117411	-23.2249616879299	
2020000000	-2.9958743101001	-129.04032174661	-40.563294711832	44.3283541497014	-40.428761330214	44.0727261229812	-1.87725954607146	-25.2478723480993	
2023333333.33333	-3.0232469982993	-133.75737008653	-40.7510893570811	35.5331514491558	-40.6946279916196	35.5340415406133	-1.84363088576761	-27.1599727043324	
2026666666.66666	-3.0467953434797	-138.351970779597	-41.9955455981701	34.625986102887	-42.058693516032	34.588601201128	-1.79562562471469	-29.0544735840424	
2030000000	-3.06828827153999	-142.593585527596	-41.4522384800839	39.3079981364925	-41.4719284561413	38.5720064978074	-1.74081260628784	-30.9505926165991	
2033333333.33333	-3.0597496053158	-146.544976049834	-40.2741435449804	30.5712259408041	-40.355544685643	29.8178266961117	-1.69480110228524	-32.6763405891009	
2036666666.66666	-3.01844987974658	-150.405711137846	-40.3774038625794	21.5530406693565	-40.7983711102562	21.6195750407698	-1.64927698241756	-34.4233652220672	
2040000000	-3.01160473063261	-154.489849528689	-41.9128325332737	12.778597694574	-42.1324115762731	15.8895356779463	-1.62376975478594	-36.0078507864402	
2043333333.33333	-3.07844224463071	-158.351520112129	-42.9456684579858	21.3799953975096	-43.1787519830211	23.1228180657803	-1.5997539836869	-37.5604862986693	
2046666666.66666	-3.15474853399342	-162.332970951967	-41.8320514204124	25.5585544897151	-41.868938056532	27.3350512403608	-1.57964228066873	-39.0242322173615	
2050000000	-3.32141758224783	-166.528161808124	-41.1036739096681	22.758152615702	-41.0881872075414	23.2957714792484	-1.57910672120376	-40.4686401563077	
2053333333.33333	-3.56296195613713	-170.657324618026	-40.4213363863511	17.2421163760035	-40.4957154021628	16.5519250421775	-1.59348035628792	-41.7824233578749	
2056666666.66666	-3.84418362660353	-175.091016873622	-40.1674348429	11.243043303847	-40.3069570938102	14.5908905889589	-1.60528070047924	-43.0718433647809	
2060000000	-4.15694768666878	-179.725924574887	-39.9427759812843	6.16380058861718	-40.0887509253586	7.22902673693352	-1.62035254547458	-44.3247819335454	
2063333333.33333	-4.47015094369411	175.048922379032	-40.1525418456883	1.25460238849746	-40.3851372051352	3.79484236893355	-1.63920951007909	-45.6937356293023	
2066666666.66666	-4.81975634322979	169.800165467117	-39.4858339538548	-1.86928890346454	-39.3234894588511	1.60294793510979	-1.67458940250257	-47.0791116062407	
2070000000	-5.04803491231668	163.863667932025	-39.2834686535779	-14.5164289568489	-39.121062393994	-12.6049757289561	-1.72913556145717	-48.4945310060616	
2073333333.33333	-5.30199934596812	157.268015210821	-40.4692703179171	-21.9244523750427	-40.2525789928117	-19.5881001075986	-1.77748135578401	-49.8272865741768	
2076666666.66666	-5.57355667844742	150.669758910661	-41.5483291774731	-26.8617291188132	-41.4777797058622	-25.0522398314033	-1.82220290699565	-51.3396163765329	
2080000000	-5.81218837398019	144.32304150092	-43.1572364683566	-15.7807298937174	-43.3455533600649	-13.4755618227268	-1.88435384281528	-52.9334245431261	
2083333333.33333	-6.01147451595419	137.805671466706	-41.5187582699915	-11.2041167730618	-41.6304259847424	-8.58725038821742	-1.95851071989678	-54.5581680881538	
2086666666.66666	-6.24349211340093	131.462819332358	-40.6056164380097	-15.0292856859177	-40.481411130251	-12.7330192529139	-2.02417855105862	-56.1154133762698	
2090000000	-6.46093242702329	125.21951071751	-40.3094257793494	-19.4400665258845	-40.2524009999272	-15.7842592300752	-2.07317300951732	-57.6856507351401	
2093333333.33333	-6.75488007587525	118.606317186937	-39.5900368872611	-25.2087572091736	-39.332285032706	-24.1152423375451	-2.10845522372382	-59.3319003696846	
2096666666.66666	-7.17471094822747	112.28985812798	-40.0418540748002	-30.196236920503	-39.7399554772324	-27.3028294754471	-2.15102662473266	-61.0309225906361	
2100000000	-7.57548961742385	105.873154668814	-39.4640927792214	-34.2420127053386	-39.0679396265143	-31.5445348649734	-2.21157052239356	-62.6776239385211	
2103333333.33333	-7.96435495294963	99.2599718498001	-39.0991970607675	-42.7122367360905	-38.5983045234414	-39.4480268982992	-2.2557596908948	-64.100896762853	
2106666666.66666	-8.33666504715317	91.1805362980293	-40.3778966809028	-49.127517535397	-39.7489341250887	-46.2133056157912	-2.25659847384001	-65.4474987447387	
2110000000	-8.75020744160057	82.4795462136046	-40.6062192415754	-45.446261757667	-40.0064721601491	-44.1333311295246	-2.25352890080229	-67.0510698095792	
2113333333.33333	-9.06114316184502	73.7042703689919	-40.1684999658793	-45.1252050989479	-39.3753170925416	-43.1885167361776	-2.29735587414334	-68.6094793210482	
2116666666.66666	-9.14234481719476	64.1026083121158	-39.4980595945974	-45.2223654383807	-38.8480883559223	-45.4287774730028	-2.35894143826283	-69.8509209681099	
2120000000	-9.1930151398785	54.2866115501562	-37.9702489563923	-52.3577600537123	-37.3720545201569	-52.9005144187118	-2.3937332261751	-70.9202604878175	
2123333333.33333	-9.0808281631665	45.7534985953897	-37.7822390136705	-65.4827270423836	-37.2611878958112	-67.3224463865754	-2.42494553337391	-72.0229458955364	
2126666666.66666	-8.78640741574323	37.7055098811045	-39.0697121587769	-74.0115362402474	-38.7247819981128	-75.9847078758891	-2.49749395491956	-73.2033107104739	
2130000000	-8.49710500467021	30.0972465809437	-40.4398687431097	-69.1786486958803	-40.3045772862913	-70.6638390767068	-2.59994512263733	-74.2067550709205	
2133333333.33333	-8.26497087417152	23.3841934679056	-38.6607950571796	-60.9303041065841	-38.1812607536207	-62.3388353627521	-2.74814755210844	-74.9919804048799	
2136666666.66666	-8.09641079239969	17.7943662425656	-37.1254272211705	-76.2896908087756	-36.8193278052359	-77.2650733773968	-2.88792411479551	-75.409577798053	
2140000000	-7.90358618544721	13.2561752686548	-38.1275518299412	-91.8839568698693	-37.7928764035592	-91.6474702314142	-3.02805003365753	-75.9219996784918	
2143333333.33333	-7.72342121327373	8.56239664070641	-40.781031666854	-89.0902816223868	-39.9960319523502	-91.2125002978064	-3.23036797857803	-76.2814105523098	
2146666666.66666	-7.5363497257662	4.36115638499243	-39.9548867403445	-78.3029933596647	-39.4566872492211	-83.9300947767464	-3.45605812221852	-76.2436886789845	
2150000000	-7.3552062582505	-0.990166098801321	-38.0256815495048	-76.2875072374884	-37.9855779549904	-79.7675909898701	-3.68565040320474	-75.817311223157	
2153333333.33333	-7.30175861681617	-6.28960092120851	-36.4179262745551	-85.5677462304012	-36.4012823261663	-88.4514807989854	-3.88729774639904	-75.0263463327942	
2156666666.66666	-7.20309649735827	-11.314606222372	-35.664976773341	-97.5658694550058	-35.6918961376244	-100.489721000897	-4.01022263975725	-74.155273718873	
2160000000	-7.09533756207538	-16.8232852549427	-35.5513586066082	-110.783653479401	-35.502380363309	-113.162613172755	-4.14758993027368	-73.4040275682382	
2163333333.33333	-7.03439009878864	-21.7589245389942	-36.3872552364006	-124.720078138372	-36.0886429800854	-127.238875548913	-4.23963150481686	-72.3489916694706	
2166666666.66666	-6.85334676703548	-26.0604910806776	-37.7153162667231	-131.685280733135	-37.7008927469612	-134.88899955097	-4.26035663575101	-71.487255606033	
2170000000	-6.63866688623514	-30.136541604452	-39.3106074825904	-129.681177114752	-39.2249853027009	-132.907981815093	-4.25215062707071	-70.8665598108028	
2173333333.33333	-6.39993931915537	-33.7233146876145	-38.6334443431143	-123.521238664756	-38.9028522613875	-126.179228804846	-4.21463656903137	-70.536600240337	
2176666666.66666	-6.12517003274018	-36.4730945634753	-37.7359313710108	-130.598313436878	-38.009337013247	-131.660710160587	-4.15861642207332	-70.443754179671	
2180000000	-5.79960956224495	-39.2365408778002	-37.6280799526273	-140.5694162762	-37.7032515634298	-141.809672203966	-4.07992487908385	-70.5076658067775	
2183333333.33333	-5.52581008494474	-41.9181097700753	-39.0234999177023	-141.930869694985	-38.8940287518896	-144.166211298434	-3.9912580021897	-70.881518634962	
2186666666.66666	-5.31547048633807	-44.5061754809398	-37.7810249784494	-140.143952172384	-37.9078126784758	-142.321577908114	-3.88612633307538	-71.3188054781363	
2190000000	-5.19394831735001	-46.8231245373662	-36.885661098951	-156.334386516962	-37.0982058093369	-158.049749429882	-3.796801143639	-72.0276390252936	
2193333333.33333	-5.16715889143529	-48.9257768175232	-38.6047138091454	-171.522128419185	-38.7730008763307	-172.933986244639	-3.69923910228051	-72.6194910418626	
2196666666.66666	-5.15252510554539	-50.1714221641268	-40.9885146881128	-167.907507603947	-41.2180856675121	-169.717033260278	-3.55880584470218	-73.2589669579321	
2200000000	-5.12424059752822	-51.8566058011981	-40.9873590737141	-163.197535850419	-41.3746172435518	-165.085509425594	-3.41071620040293	-74.121023258201	
2203333333.33333	-5.12214430346237	-53.2970740383761	-40.8471962772329	-156.118338770482	-41.069284246073	-157.489079402153	-3.28396712804386	-74.9775422856912	
2206666666.66666	-5.07881606008232	-55.0113028971556	-39.2457715435229	-160.36059083601	-39.4421756742418	-159.866581212615	-3.14076199996789	-75.8213605610358	
2210000000	-5.03503325492324	-57.3216485847355	-38.5645178394217	-169.442614990101	-38.8096196593404	-169.695872154237	-3.01964395813822	-76.7179494654691	
2213333333.33333	-4.97098879495598	-59.8381769815531	-39.0252214509101	-179.890301206762	-39.1939007385203	179.058992981633	-2.91001567418555	-77.5192135835166	
2216666666.66667	-4.91727507079145	-62.7842063965952	-40.3361218887902	177.339803874849	-40.7499697323967	176.21558090342	-2.80229949542479	-78.2417881366594	
2220000000	-4.8990972187103	-65.6150808482824	-39.9060536021775	179.800903841172	-40.1737375474031	178.304209114866	-2.70929867391933	-79.0152838065682	
2223333333.33333	-4.89605536913512	-67.9377884781856	-39.3434890827047	172.203438537957	-39.6195887319536	170.773850643952	-2.65649383242496	-79.5401152752954	
2226666666.66667	-4.77920623858521	-69.7091623602176	-39.9586536110425	165.947879889625	-40.5067343659409	165.307640923672	-2.60337449439148	-79.9236247539081	
2230000000	-4.64375753076462	-71.5934708104497	-40.2599160992222	159.967318869887	-40.6524408419108	159.476431393057	-2.53485798569036	-80.2429434441461	
2233333333.33333	-4.52119324694946	-73.1582733214401	-41.2641525871092	159.126643367251	-41.7178771786156	160.553090891377	-2.46153386386018	-80.6685900263478	
2236666666.66667	-4.39217503761603	-74.3002970668018	-40.5360642921734	161.968943012585	-40.9897667227707	162.206543363525	-2.43710954198314	-81.1208495725076	
2240000000	-4.27476167437574	-75.2842533633491	-39.9066246306815	150.887702632114	-40.3541231738446	152.232253976303	-2.40804071368174	-81.4393711210389	
2243333333.33333	-4.18436767128997	-75.8928391671545	-41.0903328970884	139.290699625913	-41.1925976556347	140.000217320351	-2.36746927953628	-81.8370484948448	
2246666666.66667	-4.0656637835996	-76.5363371285347	-42.6247595884681	141.458709356006	-42.9447335045934	141.402373846053	-2.34274649649778	-82.5241902224783	
2250000000	-3.97012986800764	-77.5282633402884	-42.754060062947	146.711042936648	-43.3448690209368	147.31082321996	-2.37876550814369	-83.2367437894678	
2253333333.33333	-3.98653841656977	-78.7272109707173	-42.2894060844299	147.08938425255	-42.4655367486039	147.013421146869	-2.422715432621	-83.9204834540826	
2256666666.66667	-4.03300777268551	-79.4780652873707	-41.7103077915257	143.0724545878	-42.185389802476	142.194050076031	-2.49522378152793	-84.5330010094574	
2260000000	-4.05675850714973	-80.3738737128051	-41.6198736725026	136.715449964151	-42.0030185609158	136.336893061321	-2.54929180583235	-85.0533427196487	
2263333333.33333	-4.12310495350957	-81.7072328278655	-41.5014310203358	134.676891124588	-41.9961515893256	133.644138620754	-2.5957955765832	-85.7829832960168	
2266666666.66667	-4.22032435766025	-83.0389794865077	-41.0823014865895	126.954634069368	-41.6289803573947	127.672923506012	-2.65730162481593	-86.5593211111141	
2270000000	-4.27544532580084	-84.4492168176168	-41.7382413557893	114.301158755073	-42.3013472045633	113.54362862238	-2.72132682097055	-87.2592208842012	
2273333333.33333	-4.32943346839801	-86.131077167027	-42.5263857237218	111.036948711785	-43.4623350889126	114.268537235658	-2.74384724033648	-88.0190455060251	
2276666666.66667	-4.3775777817766	-87.8360446372691	-43.6066731118802	107.237263204228	-44.8016657584069	112.871504419189	-2.75891714890976	-89.0929023062632	
2280000000	-4.36194918464994	-89.141289530711	-44.0961032967971	108.793430887842	-44.461559896501	111.27289251269	-2.7987280362588	-90.2700457914655	
2283333333.33333	-4.27348523660231	-90.7627028381856	-44.6562557251914	104.827433324287	-44.9233210834813	109.567866288731	-2.84699285267418	-91.197837400187	
2286666666.66667	-4.18794970920994	-92.3482495724673	-45.7961362230914	103.544719388563	-46.1201580607916	108.454818572758	-2.87194048282606	-92.0694288485377	
2290000000	-4.10328248007279	-93.6349522842702	-45.4033047073105	112.039930532625	-45.0275837534806	114.869609100141	-2.87628260278016	-92.9500577475623	
2293333333.33334	-4.01645247974348	-94.6277584136011	-44.9757951404764	103.768386964366	-44.9381395569109	104.57037145548	-2.86186403885507	-93.8497099914411	
2296666666.66667	-3.92463903573407	-95.3007737947509	-46.306743946784	100.812875973766	-46.6784770383851	99.9452233180218	-2.83513268430594	-94.686616500983	
2300000000	-3.82467780101365	-95.783184668854	-46.1343552466713	110.351007830492	-47.077912751572	113.675057875964	-2.81113575906602	-95.5128674365737	
2303333333.33334	-3.74539944162221	-96.3130018135486	-44.231453670952	111.33275810651	-45.0814968254934	115.766246749596	-2.78809919622946	-96.0958758692638	
2306666666.66667	-3.7392113548681	-96.853804759398	-42.8790652450453	98.0140896936421	-43.5025932260217	103.00042839029	-2.74245275856125	-96.6616548268134	
2310000000	-3.79985868617183	-96.9980800063962	-43.9835133542065	80.6270369792939	-44.6944394923443	84.4277622393695	-2.7016266006799	-97.2300147946177	
2313333333.33334	-3.82402675239039	-96.9702114540189	-46.2103712446275	74.315494328058	-46.7389044682299	81.3517175736979	-2.66422471337892	-97.6545823079805	
2316666666.66667	-3.82560036728911	-97.1701322952391	-47.9746218620047	81.5153458034954	-48.6088000309916	86.8631277272343	-2.62743856012555	-98.0443821944182	
2320000000	-3.87600243338053	-97.8645671258562	-47.873192258679	81.8066902149907	-48.3760913961645	92.7864229298185	-2.59988184897015	-98.3688803029508	
2323333333.33334	-3.92856665156576	-98.7803271941019	-49.0974794158864	88.0084332882171	-48.8451441145854	99.6810443986577	-2.58254038330693	-98.6127422868078	
2326666666.66667	-4.0312562785807	-99.9811988837807	-48.2422837380702	96.3636443185739	-47.9357484219267	99.8389001643916	-2.56936128441447	-98.8960487233974	
2330000000	-4.13973561195396	-101.248425197462	-47.6991375350412	98.4731264745994	-47.1274240845086	103.099331655081	-2.57082526228741	-99.2614178278891	
2333333333.33334	-4.23088058559001	-102.747415782742	-46.313236737226	89.7226811873343	-46.3637658444422	91.8347220931848	-2.61488759825359	-99.5182259341611	
2336666666.66667	-4.29479406094423	-104.25796818617	-46.6868266565206	79.0125340270466	-46.5370259703889	83.6195023502507	-2.66646203986935	-99.5963791648434	
2340000000	-4.35693058783402	-105.728752849605	-48.6034576395413	75.2803804446003	-48.7031380277672	80.970679283434	-2.68888967313663	-99.6491614935347	
2343333333.33334	-4.37151388248107	-106.906483607389	-48.429212511354	89.1043311409003	-48.0073105076405	92.1378419664494	-2.70906828714367	-99.9735463799105	
2346666666.66667	-4.32179243086935	-108.014463050972	-47.7853274017325	76.6465738130128	-48.1844049417418	83.9168129542182	-2.78416994921717	-100.423836886462	
2350000000	-4.26247964531057	-108.996714824501	-49.7308301214667	77.123082987048	-50.1380070559144	93.5672976667287	-2.85930416586309	-100.865521434959	
2353333333.33334	-4.17780339916639	-109.545131141949	-48.6254418668201	98.8546233440843	-47.1027263305033	106.729691072154	-2.95283544851063	-101.306114475052	
2356666666.66667	-4.08413778476034	-109.985701400894	-45.8088936228039	85.1274620025859	-45.0102253236538	90.5185982538648	-3.03454313610372	-101.841836092492	
2360000000.00001	-3.99082488192059	-110.339490444696	-46.4816962595998	75.1042877125442	-45.978168889358	85.3671967547502	-3.125850467761	-102.608965165098	
