!Agilent N9923A: A.07.32
!Date: Wednesday, 09 December 2015 22:04:26
!Model: N9923A
!Serial: MY52412257
!GPS Latitude: 
!GPS Longitude: 
!GPS TimeStamp: 0001-01-01 00:00:00Z
!GPS Seconds Since Last Read: 0
!CHECKSUM:0338460400
!Correction: S11(ON U)S21(ON U)S12(ON U)S22(ON U)
!S2P File: Measurements:S11,S21,S12,S22:
# Hz S DB R 50
1235000000	-31.5106405391773	104.404457747026	-85.6850289698364	-24.1917781115206	-91.5541023449485	-145.120560344777	-40.9584362830483	9.91600868211005	
1235100000	-31.4647335017472	104.336906855501	-91.8619011278015	112.099900549117	-81.4282637508673	58.0747043522602	-41.0107953903524	9.68069166139439	
1235200000	-31.4753340037888	104.099713947667	-87.2727820006396	-128.700793586826	-88.7764484760592	84.3819718138041	-41.0035506735839	10.3594204490395	
1235300000	-31.4394730977587	104.014042382471	-88.7031763141918	-53.7714348526103	-84.5738676419048	157.826942171154	-41.0620743861101	10.8170141251146	
1235400000	-31.3761790273725	104.111477885538	-93.7486231799388	102.149468344717	-93.852155280214	125.455827611331	-41.0512696878781	11.5940606908375	
1235500000	-31.3990876785769	104.129660928662	-87.9894805233935	-78.5936569264553	-84.8901415600448	79.4442061447978	-40.8634484726785	12.1329306370759	
1235600000	-31.3725665254876	103.945509699928	-87.3061549121794	-135.393717070796	-101.363333755694	25.1199757430675	-41.0036187462097	12.0261477098497	
1235700000	-31.28106624607	104.080069015234	-86.5578699687123	94.3985492450065	-82.7312991689413	75.3288585739071	-40.999117274404	12.461152980227	
1235800000	-31.2825661828805	103.823367038709	-85.9873016945291	-47.0159333605278	-84.1729710891694	85.5153529832721	-40.9898050949905	12.9548820487962	
1235900000	-31.2650637753557	103.791726496563	-90.3986208432775	-73.5857521243849	-88.8841789510744	-129.612870050525	-40.8923720133986	13.0259412780956	
1236000000	-31.2343290925318	103.981631895235	-81.4204400280771	-68.2840995271719	-83.6824886641888	137.012585615665	-40.9336287830341	13.3389451804032	
1236100000	-31.1844167479094	103.722735780445	-90.77650613305	-104.082958843779	-79.0001825416027	85.5830850584566	-40.9344573967034	13.7413892351412	
1236200000	-31.1467788620766	103.915669322999	-86.8824268200814	-106.767508553441	-90.6167207967768	107.019946532559	-40.9587563577809	15.0715572757838	
1236300000	-31.1292522624548	103.929861605803	-91.1667860922362	-33.2125364945012	-81.9061834030582	108.706324841711	-41.0342534893977	14.1821842205801	
1236400000	-31.1172089616792	103.817523871805	-82.4689936717259	-17.0533453629898	-87.4112664943445	109.919395198503	-40.9133837720223	14.4291338019576	
1236500000	-31.0804486629398	103.608065051845	-89.4023445986092	15.0033961098348	-86.4370084219369	-142.120623903986	-41.0643516423421	14.7582780683367	
1236600000	-31.0883684450076	103.752414002999	-90.7672115690389	124.774513489814	-82.4119170334626	168.467448209024	-40.9832757984839	15.3281586340942	
1236700000	-31.0208632576165	103.680382916808	-83.8416966544518	-60.1805053746529	-86.3878087890362	179.00327495723	-40.9715700011863	15.7120487898407	
1236800000	-31.0409936617402	103.684122952088	-90.1216833824042	65.4592993822955	-94.6996527222857	150.882101253688	-41.0283471869535	16.2508846186005	
1236900000	-30.9895605800266	103.700311038446	-87.1562996964367	-108.253143087609	-89.712986525751	176.240491730091	-40.9766035739719	16.8457083048302	
1237000000	-30.9762759420445	103.52574671655	-91.4072235462029	-83.0339274258487	-86.6430624428494	155.105264615626	-40.9885751512181	16.8725190202724	
1237100000	-30.9061646209064	103.605020286299	-92.7326200849996	25.2501757284558	-93.6499036616345	71.2393318282924	-40.991255382291	16.376721447405	
1237200000	-30.9121013913978	103.494434688502	-94.4997388753071	-38.4470730954655	-84.2133713395231	86.1037973329608	-40.968068083518	17.6668973174894	
1237300000	-30.9250665269491	103.589229745754	-85.5506208804787	-168.569652865759	-105.26392598915	53.7048780656155	-40.8890493532965	18.2582765887054	
1237400000	-30.8278745550851	103.278545176431	-82.3363853773028	-19.5739871000238	-80.6510378572423	144.322883374866	-40.924357598884	18.056400159357	
1237500000	-30.8473661365054	103.612908522356	-92.6438065095977	-51.0257978558021	-83.6868375310288	142.65175200855	-41.0165090940626	18.8657415714071	
1237600000	-30.762783197986	103.810573361101	-93.3444869033521	159.352285204689	-88.0223996954384	117.832620569008	-40.9766225788639	19.5237116894519	
1237700000	-30.777802988134	103.446108171687	-80.8495577981212	-127.697911451737	-82.6983575258949	140.595441775433	-40.9591668666396	18.7218277198309	
1237800000	-30.7548735078144	103.446621763895	-84.484437689454	-48.2997138117863	-85.2571680815552	107.426222022171	-40.9890281311917	20.0277137380141	
1237900000	-30.7357353838141	103.298698734287	-107.235995435763	123.835888570873	-85.4212199997658	-17.9043490111553	-41.0360904709598	19.8876499637315	
1238000000	-30.7001351885909	103.436674979069	-91.7130707213987	58.9293052506339	-81.2997653977091	73.2769935304594	-40.8821871418	20.4068224357607	
1238100000	-30.6927488681566	103.483316084296	-87.6613253441948	-119.857563208589	-85.1356559111846	125.948854870434	-40.9477910908009	21.0380072879165	
1238200000	-30.6759189155751	103.459062440029	-85.7726505310635	85.4711365779458	-85.5350756367233	143.291612989259	-40.9114252418411	20.519481256114	
1238300000	-30.6303971159395	103.448115713138	-86.897152094989	-90.241724994048	-87.3294999714929	96.5779076564583	-41.0338067993805	22.017234591173	
1238400000	-30.6028408669429	103.616388970783	-90.4361201515556	45.0070624447201	-86.4951171560165	-163.223694709881	-40.9768383068619	21.6219159162657	
1238500000	-30.566973000123	103.406321025555	-84.4039211885959	-39.460601053112	-86.5628031291214	-118.588746869284	-41.0022058580739	21.3435019248251	
1238600000	-30.5450249888776	103.431580206929	-79.0653626706652	-63.7844188375801	-85.719160955583	92.0908624292082	-40.9189541593595	22.7349694075497	
1238700000	-30.5213614507033	103.578760928962	-81.9047276788818	-143.475354725541	-89.1678728867016	172.316554267251	-40.9545667561864	22.4816352814277	
1238800000	-30.4787966340771	103.552041749903	-88.9649795100296	60.0153562874344	-80.9911126504199	93.2887462259246	-41.0289911795209	23.0787419922033	
1238900000	-30.4671007987282	103.446695721	-90.971473085133	145.403510485308	-87.9023578205916	103.305585268334	-40.860481354933	23.1179268148191	
1239000000	-30.4581507034785	103.740778264853	-96.1825864627515	-31.8076040868898	-91.1906268951458	19.8060125450549	-40.9501588622226	23.2242307508176	
1239100000	-30.4019488784832	103.558562408689	-87.5995838037692	4.93152089039392	-83.0146692408376	49.9176689065752	-41.07601255532	24.2828842975332	
1239200000	-30.4018270020919	103.481887705085	-87.8862663678292	-27.869788357675	-97.6195138362213	-138.177381639394	-41.0283820545694	24.7330935052189	
1239300000	-30.3869249594557	103.748630428294	-91.5131806123794	11.138064941774	-84.8316559833398	146.997812404366	-41.0243754546237	24.8539123816881	
1239400000	-30.3499920910017	103.48143479138	-88.7662101801796	20.4452896423155	-87.7512714327912	44.8980344165193	-40.9255524000532	25.3824036804234	
1239500000	-30.3382371325898	103.62042303693	-92.0963278649966	52.2023531141559	-83.4324609027952	-166.249432223301	-40.9222862790431	25.6170061223929	
1239600000	-30.3180047579589	103.788446088415	-87.7207918163987	-74.8633694798568	-97.9040048831789	104.21766645671	-41.0022484912101	26.6476322716667	
1239700000	-30.2730247870814	103.627272207683	-85.8878099002569	-99.7874617737944	-88.6482837756387	165.183324572923	-41.0524570647438	26.3225229992926	
1239800000	-30.2440992837879	103.681258540533	-84.3773165966575	-37.7413249234256	-92.9568482309753	149.458358060714	-41.0142226115273	26.1840105235128	
1239900000	-30.2213726974215	103.643285556129	-93.7733262951931	-36.926895172667	-86.819311224809	47.1001120767614	-40.9876578139053	26.8570394665516	
1240000000	-30.18848370709	103.835903653958	-87.5782307057272	42.0901093217771	-95.7148678297651	-37.2048350855757	-40.9693910131921	28.0750819598239	
1240100000	-30.1958866830815	103.640620216744	-87.5951926062276	-112.652889453876	-90.0723845844797	28.7727530186272	-41.0709535255756	27.3898057940481	
1240200000	-30.1486761536051	103.644570363091	-87.000777128501	-46.008606772218	-84.7147477384634	126.95051545855	-41.0032316073749	28.4734816064329	
1240300000	-30.1139228149751	103.721664565366	-80.7305351817455	-70.3158747962467	-91.9973200167893	104.810785536741	-40.9897781554291	28.4999887216034	
1240400000	-30.0759543195567	103.796276043446	-86.5647238469893	-28.3428707213706	-80.8240852911016	147.848064346313	-40.9359186181115	28.9245916660721	
1240500000	-30.0749553650052	103.599201458352	-101.930889522283	156.568738517194	-94.3672957922741	-121.260672517996	-40.9704286081075	29.1802018000333	
1240600000	-30.0484637451729	104.036835028675	-91.2452362439362	34.7427657772424	-84.4313192818063	124.907672665269	-41.0539411866404	29.5745283251007	
1240700000	-30.0460176186491	103.792070228315	-80.0899201007756	14.8291007374068	-83.8463566181951	99.8675818691865	-41.0364372278476	29.178753160174	
1240800000	-29.9900102365012	103.975306182241	-80.5042512941996	-35.2116546505898	-82.4890671453176	82.4669380329819	-41.1394548509592	31.2041471991448	
1240900000	-29.9779105557457	104.131433085024	-84.6854341943945	-49.5255905617293	-85.5809566620953	-119.046036927247	-41.0522827781439	30.7776944738541	
1241000000	-29.9544366816477	103.889093836713	-97.5674036871	108.553471286413	-82.3371643251461	-148.126266660877	-41.1464162349165	31.1624638593715	
1241100000	-29.980130228242	104.016138710567	-94.3442735182515	-160.202016391088	-90.5353914522481	125.114462682613	-41.1668575962125	31.1353805564342	
1241200000	-29.9167366714173	103.989415856285	-84.1346930256771	130.852573449551	-87.5643563837084	64.6987146094123	-41.0743571258168	31.6021230310436	
1241300000	-29.9215182548395	104.002385920291	-85.8178308842316	-113.646625211485	-87.7670451915575	-176.265025385855	-41.0386285658533	31.6722918068335	
1241400000	-29.8687869390202	104.353050027442	-85.0153249445361	-88.2773801451871	-93.7649793146103	129.787212631749	-41.1339081295369	32.3222062454109	
1241500000	-29.8549063426171	104.459189228121	-85.7967656917185	-55.9566586223859	-91.8862428585551	89.4225350112317	-41.1019430047703	32.6202221387901	
1241600000	-29.8410348920139	104.341531058478	-108.108658128339	-31.1734754719774	-79.4928845427663	-168.127520299101	-41.1446048081661	32.979990371402	
1241700000	-29.8240813739113	104.448116602827	-79.6628787864609	-20.6296341108893	-95.8827060347174	156.135249573554	-41.1413948056996	34.0052995490254	
1241800000	-29.7863025886259	104.419450348763	-82.433218544385	-64.9721148374244	-96.1633794836469	-97.1565006618724	-41.2030862430942	33.0885698368292	
1241900000	-29.7926566914437	104.374902002986	-86.0053197183497	-32.1434167704077	-80.9695641252768	-108.079981080958	-41.1870973723761	34.0855342324545	
1242000000	-29.7659748045035	104.350576429186	-90.1069284840937	-125.27710128878	-101.927872474531	134.148968621601	-41.2035828737078	34.7791965884659	
1242100000	-29.7152480091587	104.433868624422	-86.0463102453504	-28.554187217603	-86.4756212030465	163.486716190153	-41.1505468505079	34.9303815678645	
1242200000	-29.7138148673255	104.362568018079	-96.3147473403481	-65.4576859853985	-90.218266509705	132.602878202875	-41.2529722082584	35.4120305562874	
1242300000	-29.6935552903397	104.526769695665	-94.8297381875667	-78.6703568685235	-100.396855249809	99.7276459620284	-41.2224167598791	35.6743445280511	
1242400000	-29.6551018729771	104.80279350828	-85.9344644147123	19.3303516391588	-85.6023810895648	170.073536004817	-41.1763650408608	36.0022852355345	
1242500000	-29.648604499258	104.700386004082	-86.9397350079548	42.9494516186654	-91.7091102928934	29.7547066594886	-41.2602502023076	36.2431881828389	
1242600000	-29.6216983116715	104.935856773768	-95.8258897767903	138.110333373556	-93.2846716939001	-149.455376407344	-41.3021602450507	36.1944668821824	
1242700000	-29.6207468180301	104.601776927349	-90.5830915088697	-6.6973981334618	-83.9243851159837	173.14246078695	-41.190370734149	36.5605313068368	
1242800000	-29.5817668116068	104.81845805102	-89.7795941580565	-95.2120091359198	-84.6179511074986	-178.247867427694	-41.3441101268475	37.0813140416183	
1242900000	-29.5546996048847	104.95253530431	-90.220700931912	-0.462389242059807	-86.4599720710995	-160.104208281186	-41.2821961817365	37.5769241382015	
1243000000	-29.5574286996647	104.958320226574	-91.2004624869498	35.9089334043845	-80.6227532123048	134.953959331939	-41.3302159823837	37.9706093341457	
1243100000	-29.5129672115252	105.008579969955	-87.3585234087228	-32.6135476441443	-89.822201323493	-179.769384912556	-41.3155432423408	38.9780990357341	
1243200000	-29.5211422138074	105.172172558062	-87.8162419711108	-148.239413384042	-102.56280999442	-149.660120717178	-41.4210303132023	38.6109761247642	
1243300000	-29.4950262159982	105.068792196283	-86.615122546894	-118.304757235688	-81.3686718607208	131.069255765084	-41.2969217097664	38.5377347820913	
1243400000	-29.4654939115715	105.065678900853	-89.9080943525087	-12.1709339740661	-90.1349325879344	-166.517354543311	-41.332181557864	39.2386983586172	
1243500000	-29.467283789371	105.208000611826	-84.3740064975226	-6.83024865618841	-89.7651788319655	146.713454551781	-41.387501063836	39.5122217666387	
1243600000	-29.4283102699041	105.225087984183	-84.7145211798906	107.786156927926	-89.2439021767082	73.2058764401045	-41.3618374396133	39.8766255442007	
1243700000	-29.4329407315481	105.118477059819	-82.9778179417959	-18.7189283123256	-82.9510589724578	161.860291665742	-41.4340102583108	40.6204983407394	
1243800000	-29.4006607501643	105.423232353497	-97.9545632180885	-172.606421205326	-90.8843240552695	147.749325958277	-41.2655102891114	41.2699274373741	
1243900000	-29.3782378545658	105.429324349268	-83.9815222905847	-57.5388525127016	-84.5822826614005	157.063740629755	-41.3594379210461	40.9913385237572	
1244000000	-29.3739407448818	105.623585525685	-81.6514813602357	-24.4483829711998	-77.8478295411756	119.673506762077	-41.4355548827033	41.2461293272332	
1244100000	-29.3528105082113	105.667753490595	-86.3312309216005	-37.3999766845096	-83.0995079224237	-175.97729820282	-41.4349331438015	41.8732963975916	
1244200000	-29.3117021163887	105.627744372205	-84.4243188158963	-29.717925180143	-97.5994860954119	-121.377142205216	-41.4616146910121	42.4923228724254	
1244300000	-29.3029929717347	105.687657668581	-89.3528512958055	-78.2289366895961	-91.1736683472507	-161.478706166428	-41.4352036751385	42.7372961615257	
1244400000	-29.3025839231199	105.903133986332	-89.5365025257932	157.18695612946	-81.2871691507101	-173.933117090114	-41.4950864157787	42.9874497872331	
1244500000	-29.2810845480147	105.990964089946	-81.8767190373719	-49.0826477906733	-84.3763215632715	-175.98897979334	-41.6210765796054	42.8192737511729	
1244600000	-29.2627637976812	105.945030419377	-84.7787095644226	-67.6276832471917	-90.7730322854499	144.620574547157	-41.6283838520193	42.9804598077859	
1244700000	-29.2226048185298	106.096555818107	-92.243228561961	18.9002243687143	-80.1607433343707	-171.075492678883	-41.4203783554018	44.6262087702324	
1244800000	-29.2093421416689	106.058038723044	-95.8871477762908	-23.9592499706582	-108.075777070151	56.3314618225061	-41.4513272753685	44.3039654914943	
1244900000	-29.2110352481995	106.111564237411	-95.7657555920892	-86.5223375598732	-82.6107046172346	172.608255016616	-41.5753171106923	45.1350125525005	
1245000000	-29.1597303379563	106.307826622506	-90.8926732009463	29.2039782274714	-87.5395909909148	168.321692256751	-41.5447400661286	44.7603015016192	
1245100000	-29.1947954218907	106.322127050818	-94.0622840587684	25.6040392307258	-85.9530998276732	-127.041548181691	-41.5390747298157	45.518673299509	
1245200000	-29.1594700591011	106.267397633066	-85.3462647078518	-60.6216710859017	-90.9855999645364	166.283745956245	-41.590487776635	46.0834202164147	
1245300000	-29.1567160372659	106.396439871503	-88.6283783930051	-178.333180751215	-90.4907165117336	134.484561624495	-41.6159144105091	45.6944184926538	
1245400000	-29.145735221318	106.426768345002	-89.7726228836762	47.7343319849707	-91.6223302243298	-27.1682079720219	-41.7461683973205	46.2906784790868	
1245500000	-29.1098075840003	106.678842527491	-84.5374986887392	-103.002545129444	-92.1242938840508	165.135880571475	-41.6575479587962	46.9210303581434	
1245600000	-29.1190984895436	106.547218171589	-93.6758051291429	92.5148992568906	-85.3349368869515	141.583240296607	-41.5934939716167	46.6643883359551	
1245700000	-29.0950592449223	106.685932091645	-88.2013449576682	-48.3267531323967	-85.5510512802847	104.617261216062	-41.6249999321768	47.8971348365111	
1245800000	-29.0628524903846	106.838862264705	-85.1996297310376	-59.0577806218209	-91.5900789751397	31.9317286899564	-41.7795930998989	48.3394992686786	
1245900000	-29.0501200416699	106.804492932305	-87.9606182817712	-22.7674322210718	-89.5105976312223	68.9804511514547	-41.7150669280361	48.7885850749214	
1246000000	-29.0220107002161	106.927910030822	-94.1750885403614	45.7353583669358	-91.4104466248466	127.735657149848	-41.844121613315	48.6421980306541	
1246100000	-28.9996445585606	106.929691387157	-86.2123673775509	117.027448031627	-90.1574258292548	155.874321693088	-41.7256307483385	49.0531998313071	
1246200000	-28.9873169245197	107.212260514856	-86.5824760630779	-171.121605519331	-84.1912308760892	130.899641900744	-41.9706300969258	49.9669287363976	
1246300000	-29.0174786262597	107.225195003494	-85.5272104790579	-139.866003655114	-82.229452661333	-126.866878709726	-41.8212558114612	49.6246280147254	
1246400000	-28.9778300542306	107.287430333929	-86.8817467572952	-177.413614627677	-83.9526379850611	-133.403421701732	-41.7706292744455	49.73095525972	
1246500000	-28.9603835092434	107.278555418912	-88.0917733172744	-28.4418704767304	-83.8686221188831	163.055332334772	-41.927712600311	50.2523924592248	
1246600000	-28.946161933905	107.460841251237	-83.2859612504988	93.0638870792224	-93.1591043677004	154.448048905641	-41.9967468797484	50.256664854305	
1246700000	-28.9333588139178	107.525625786905	-88.4164965180013	-19.3121186577054	-88.1563070523058	46.1310318902247	-41.9685763721875	50.9335462482016	
1246800000	-28.9209982113745	107.608807164307	-84.5268507941285	20.6364485583769	-88.7339046800602	136.602140486205	-41.8997736662022	51.5600797475619	
1246900000	-28.9173135786846	107.549071048894	-90.6553961151091	-73.3276597526868	-84.3946901783008	-170.160430863859	-41.924681917211	52.2177454044262	
1247000000	-28.895471496924	107.776175493005	-85.5924287638906	-18.0743217745427	-87.892216201543	115.317372900642	-42.0142489009554	52.5134140579066	
1247100000	-28.8674985382981	107.813570500685	-83.3970855465601	70.2729254444818	-82.2503955411773	115.408194346483	-41.984692018906	53.5534376065021	
1247200000	-28.8615821770801	107.747137406282	-89.9185686607318	5.02027956582556	-85.192810102476	-173.717232339533	-41.9711208538397	53.1749839552648	
1247300000	-28.8579363861239	108.051274940033	-95.2174972294648	28.6933782906496	-87.7910420749053	-137.64179915811	-42.1030027525683	53.2734034859399	
1247400000	-28.8380866380657	108.065136444105	-92.4802729908218	-115.752911429317	-81.8382144452208	79.883805277094	-42.0639120370724	53.3444395556854	
1247500000	-28.8451731096727	108.171731526816	-96.4856697916674	-42.674396461642	-84.7985510119504	145.314502212556	-42.1329548545876	53.7770760990214	
1247600000	-28.8155705791324	108.273541926492	-86.3434838397077	-0.331684285941658	-82.3016928091926	130.992406525647	-42.0974002658069	54.049217693895	
1247700000	-28.7896726653883	108.316310192284	-83.50542258689	110.972087374607	-100.614430383823	106.723365436442	-42.1403700184978	55.0512608855066	
