!Agilent N9923A: A.07.32
!Date: Wednesday, 01 June 2016 23:54:57
!Model: N9923A
!Serial: MY52412257
!GPS Latitude: 
!GPS Longitude: 
!GPS TimeStamp: 0001-01-01 00:00:00Z
!GPS Seconds Since Last Read: 0
!CHECKSUM:0138795874
!Correction: S11(ON U)S21(ON U)S12(ON U)S22(ON U)
!S2P File: Measurements:S11,S21,S12,S22:
# Hz S DB R 50
1950000000	-6.25760077743787	-2.46939019910747	11.886769636817	-150.023058362991	-23.1991876552709	173.360102917619	-12.2139108959709	73.1940132154823	
1953333333.33333	-6.21736802367392	-1.75531771941668	11.8295290051375	-150.262413892397	-23.2271595814169	172.550032652872	-12.2027167079265	71.9565007471673	
1956666666.66667	-6.100264687417	-0.51750792787219	11.7478271516158	-150.272676937341	-23.2610081806397	171.772963678826	-12.2155401634265	70.6454317063963	
1960000000	-5.94647802939409	0.951665432333892	11.7175634206992	-150.548613580613	-23.3108539142602	171.082734228098	-12.2754955148175	69.3254149399759	
1963333333.33333	-5.77715451796521	2.37068595027083	11.6233816358336	-150.682135748058	-23.3659488409845	170.381810646443	-12.3507649726948	68.0140145363319	
1966666666.66667	-5.61281179837536	3.40452454306727	11.5144637321831	-150.725481671874	-23.4279013495283	169.871362896172	-12.4482846244098	66.7285341620049	
1970000000	-5.44986898613634	4.14025504961617	11.4101971701941	-150.78660900791	-23.4815886410929	169.440302558678	-12.5689641129286	65.5795336573046	
1973333333.33333	-5.33148549205486	4.51609323111298	11.3108102450799	-150.951521421857	-23.5344278035468	169.205661060927	-12.7020565773246	64.6130650891567	
1976666666.66667	-5.25675878271179	4.4876233831001	11.227988509902	-151.227396846385	-23.5699368712397	169.060243176305	-12.8443396517515	63.9021803704722	
1980000000	-5.19722754011409	3.84104160651872	11.1856051002	-151.470333393218	-23.5949112867744	168.999654154125	-12.9886906121558	63.5319429821226	
1983333333.33333	-5.14108537248806	2.3999200128803	11.1960536810818	-151.669894160567	-23.5952667814211	169.117386054429	-13.1273415348562	63.4475393445151	
1986666666.66667	-5.23102466681333	0.0313962733802608	11.282784267081	-152.611631950882	-23.5533046320384	169.163340786222	-13.2334174801089	63.7811697196937	
1990000000	-5.43061954353358	-2.68590435900502	11.4112558489113	-154.255215983152	-23.4778628888068	169.140833421612	-13.2893376592994	64.3906664396211	
1993333333.33333	-5.73271937421195	-5.90868246629174	11.5269740932333	-155.910794262921	-23.3889650435645	169.011318084359	-13.3050771424134	65.038552500838	
1996666666.66667	-5.95253576407557	-8.44171326070301	11.6958759223602	-157.547502549772	-23.2990968318471	168.615097995776	-13.2880844308692	65.965518081985	
2000000000	-6.11050782662387	-10.0453784595172	11.7945157197967	-158.959877926945	-23.2116098626506	168.13010200627	-13.2418756878475	66.6690415674864	
2003333333.33333	-6.3716423006689	-11.5357224167672	11.8637903382869	-160.223140682869	-23.1307750140402	167.527913949122	-13.1840876468402	67.3278958190025	
2006666666.66667	-6.50333148541967	-11.6713972954877	11.9119112151754	-161.131291517625	-23.0700817909981	166.900597614185	-13.1065851647626	67.8358105951712	
2010000000	-6.48544891630149	-11.1169068891266	11.9599069373027	-161.523436290959	-23.0074325280396	166.194318637058	-13.009210418569	68.2437230553773	
2013333333.33333	-6.34458872815094	-10.1874311353778	12.0048754736007	-161.78294824118	-22.9429376619557	165.535484021747	-12.8991228672909	68.4131713778258	
2016666666.66667	-6.28517189486842	-10.2090332590336	12.0404132343814	-162.203370801335	-22.8798541151172	164.682920369748	-12.7569246225889	68.2804663472736	
2020000000	-6.31154119922611	-10.9465947512827	12.0134875899182	-162.602908714114	-22.8303952367788	163.7860261852	-12.6349939864308	67.9865091707607	
2023333333.33333	-6.3094739910485	-11.7341398347326	12.1044786257152	-163.411719955141	-22.7861768015885	162.897166773824	-12.5046493432453	67.3770899276339	
2026666666.66666	-6.26875153937198	-12.4133411039949	12.1304476540409	-164.088805885314	-22.7532930590015	161.938743884401	-12.3795240751757	66.6326399757939	
2030000000	-6.38264263586403	-14.3717541173842	12.1058196315235	-164.726285862321	-22.7397294398737	160.93027342196	-12.2562759807662	65.6537788023407	
2033333333.33333	-6.44159652699201	-16.4119179644649	12.1824416803425	-165.773929521923	-22.7316929774765	159.927635974658	-12.1527699264698	64.6231758881139	
2036666666.66666	-6.5415060610837	-18.8200588797885	12.2015571751869	-166.870000762253	-22.7540624290004	159.00007431417	-12.0651012346057	63.5286273732874	
2040000000	-6.74849011963108	-21.033697449662	12.193188051981	-168.254360271234	-22.7758777982919	158.136058084563	-11.991558134267	62.3813161251546	
2043333333.33333	-6.94894465859029	-22.1950669243688	12.1640587048372	-169.624013506616	-22.809267409872	157.368307717389	-11.9408495699232	61.3284977682085	
2046666666.66666	-7.0112805721242	-22.0068423226745	12.0904129833695	-170.34546277984	-22.8345911376417	156.614001402942	-11.8932453270957	60.2470489909036	
2050000000	-6.84822163915992	-20.6299330168842	12.0053110955674	-170.4587469371	-22.8637731287006	155.893917610564	-11.8695283690744	59.0553729305545	
2053333333.33333	-6.75788612465167	-19.6295476651638	11.8568228222336	-170.137676654939	-22.9058798323703	155.227679229426	-11.8721761605016	57.8777416560708	
2056666666.66666	-6.59397711895266	-17.8285084769989	11.8010574347606	-170.20840853044	-22.936109816952	154.573846162291	-11.928802355667	56.7982769809836	
2060000000	-6.36461229749941	-15.5895791434236	11.691712968585	-170.019523702526	-22.9827810085128	153.863739331891	-11.9957812366598	55.7057899239793	
2063333333.33333	-6.10688138294805	-13.643968040935	11.5800013239224	-169.57524226228	-23.0323941369564	153.294786599162	-12.1060753491448	54.7324330279704	
2066666666.66666	-5.79812951839321	-11.9384117207494	11.4276410818718	-168.946978813679	-23.0940592131525	152.826366356491	-12.2353162206412	53.7646798662547	
2070000000	-5.53504540579193	-10.8902766692467	11.3335486391237	-168.659183484608	-23.1408956026324	152.467170969338	-12.3842360157782	53.0901206588305	
2073333333.33333	-5.34191172326375	-10.4892743444489	11.1929438375524	-168.232787669161	-23.1838533129538	152.276617258412	-12.5393982507673	52.513509104598	
2076666666.66666	-5.23745216435844	-10.7421581567148	11.1947709759494	-168.547331681608	-23.2000312295246	152.221829060927	-12.6948511434375	52.3122249565311	
2080000000	-5.18656249218069	-11.4105621545844	11.1931782397178	-168.984151228311	-23.1938367878446	152.178368960806	-12.8275217647737	52.3555828798946	
2083333333.33333	-5.25364916482705	-13.1166370011954	11.2510688078921	-169.752046141007	-23.1646016585939	152.186359958848	-12.9257908386463	52.6442724198043	
2086666666.66666	-5.37370313274284	-15.5434408715182	11.3609638943228	-170.94963656971	-23.1114079150741	152.16110319534	-12.973936049683	53.104229153656	
2090000000	-5.60651235164057	-18.6386269001082	11.4914199596553	-172.566138718216	-23.0108527740453	152.067768513057	-12.9714759061171	53.6480816842816	
2093333333.33333	-5.97221323526636	-22.0656050271162	11.685141077497	-174.784020819943	-22.9121810468187	151.687429170634	-12.9111124045874	54.1511237846656	
2096666666.66666	-6.32497799456087	-25.0758070476673	11.84923266931	-176.949654392667	-22.8129136058553	151.18664224962	-12.8200286865609	54.5513060281073	
2100000000	-6.65889787939923	-27.7905028190073	11.9797671456833	-178.658184926773	-22.7253865787659	150.518915957626	-12.7136784011344	54.8202436211266	
2103333333.33333	-6.89632045005557	-29.6112190603697	12.0956094937464	179.945482957896	-22.6457429938645	149.836143249587	-12.5975482196377	54.9132675788074	
2106666666.66666	-7.06932666571154	-30.5987119853792	12.1710510181331	178.881707879525	-22.5906745292318	149.089121397706	-12.479507821406	55.0099143417858	
2110000000	-7.15540480783813	-30.6689487534806	12.2094221081991	178.167780468135	-22.53970607304	148.337046895259	-12.367252443617	55.0124119113142	
2113333333.33333	-7.13729857895342	-30.2075028976464	12.1864431871804	178.069241171117	-22.4875020701858	147.51689146289	-12.254518169853	54.8735041413615	
2116666666.66666	-7.06219747377007	-29.8918007320016	12.2802940228406	177.642261027385	-22.4523699447563	146.720564581509	-12.1414909548322	54.440121372978	
2120000000	-7.00298571199039	-29.9248960635562	12.3150618456523	177.236763618182	-22.4157876140153	145.874086664328	-12.0340179879338	53.9200126597128	
2123333333.33333	-7.00993829417434	-30.3963634415953	12.2990369117489	176.764880544465	-22.3984873972437	144.93896293179	-11.9456278679197	53.2188498340941	
2126666666.66666	-7.02088266948461	-31.0848588664409	12.3461277165945	175.955517341859	-22.3811614101848	144.020758550125	-11.8698082030726	52.2960583199872	
2130000000	-7.01274456104602	-32.0698483454977	12.3514736254257	175.271586133646	-22.3750801628885	143.126464335722	-11.8106234053725	51.2750527913821	
2133333333.33333	-7.05665060751774	-33.7474450460659	12.3440990011959	174.454473355029	-22.3955968280537	142.256398536461	-11.76311159415	50.2063702458635	
2136666666.66666	-7.13293394433342	-35.8373366200828	12.3260188838734	173.354585754871	-22.4204343862817	141.412471802029	-11.732889400035	49.0889801687144	
2140000000	-7.24220886865409	-38.1072154715578	12.2766892122895	172.167488494262	-22.4627766640831	140.709945242141	-11.7154935073242	48.0025493490984	
2143333333.33333	-7.39207503264041	-40.0794301859366	12.2133457114851	171.006031103884	-22.5020726930453	140.036420382941	-11.7073398454669	46.8904129075134	
2146666666.66666	-7.54457765186242	-41.3017724781417	12.1328334215676	170.085285747717	-22.5338391476951	139.462902343578	-11.712663291527	45.8114240825037	
2150000000	-7.59868044436882	-41.4627731512944	12.0905394886086	169.383830731396	-22.5659636158197	138.894807111404	-11.7275467086853	44.7915656304116	
2153333333.33333	-7.47564559556217	-40.4247880670571	12.0309948910816	169.23093509936	-22.5927888377947	138.344829350357	-11.7692028299524	43.7032928951425	
2156666666.66666	-7.36574895508498	-38.9483311349264	11.9650436811461	169.316297352433	-22.6149896988774	137.797025732451	-11.8268477788038	42.8425369946337	
2160000000	-7.18847758904291	-36.5241822087539	11.8848070455036	169.501865032668	-22.6409362774126	137.275706502172	-11.9077917664527	42.0823513096651	
2163333333.33333	-6.92116652840757	-33.8201340925492	11.7956275216961	169.984834183424	-22.6686208298012	136.780032339418	-12.0102172305322	41.4416330386704	
2166666666.66666	-6.56689110915632	-31.5278750945784	11.7149934356303	170.754989372819	-22.6989301694209	136.328139149955	-12.1342011217178	40.8980157640427	
2170000000	-6.19861101765468	-30.0526720535724	11.6210095474862	171.684102890674	-22.7322742431588	136.031804148699	-12.2670662434535	40.5932251930408	
2173333333.33333	-5.91961536330054	-29.3584957257452	11.5732554705377	172.078300161784	-22.7441480344619	135.786083696877	-12.3921606040658	40.4810052582512	
2176666666.66666	-5.70636928695558	-29.0333230746074	11.5187821613403	172.136616090071	-22.7405059920448	135.659972233799	-12.4928694424463	40.5619948628261	
2180000000	-5.67824565213932	-29.7419536470938	11.5134811206565	171.899567713914	-22.7097462997045	135.526053331801	-12.5697003653372	40.8233110636947	
2183333333.33333	-5.66267180881636	-30.9311217524824	11.5640309439321	171.430131084615	-22.6559784076772	135.420346980977	-12.6067119895184	41.180639535826	
2186666666.66666	-5.7679281548092	-33.1978612928367	11.6874628842486	170.381460287345	-22.5860443541213	135.232377919124	-12.5932497189998	41.5696794909139	
2190000000	-6.05308469631231	-36.5580543569692	11.8759987650436	168.344591592054	-22.4900259132523	134.87059307561	-12.5229115974236	41.8551694977019	
2193333333.33333	-6.57892155664659	-41.0231464786047	12.0376944513596	165.774721074641	-22.3962810627313	134.304586516083	-12.4300573172519	41.9213914676207	
2196666666.66666	-7.2447772648904	-45.5910659955281	12.2786658768508	162.364767298354	-22.30576698167	133.490670818527	-12.3074517919396	41.7001333308701	
2200000000	-7.8497213156667	-49.5230804703502	12.4133455376022	159.664152844649	-22.2461152979441	132.712786634972	-12.2007649138372	41.37617203462	
2203333333.33333	-8.23463430641385	-52.4317561964974	12.5046760772986	157.743286926647	-22.1867747131731	131.868265779348	-12.1017196595761	40.9356654778863	
2206666666.66666	-8.54147525016826	-54.9623513264663	12.5538138844221	156.513912603075	-22.1583682346934	131.049720060989	-12.0070578512781	40.52862346134	
2210000000	-8.7263179739583	-56.2822250953378	12.6112946297698	155.444079836467	-22.1298449278817	130.177044720949	-11.9159328929675	40.0145418738676	
2213333333.33333	-8.78943060426866	-55.8827385993405	12.6133569219974	154.828176068047	-22.1076150596462	129.440599100514	-11.8294505359156	39.5250087667339	
2216666666.66667	-8.76244013828174	-54.5212311663511	12.5915034100953	154.715962606083	-22.0924734900335	128.660392540947	-11.75476721757	38.9791010031052	
2220000000	-8.54966812007271	-52.956524288765	12.5733373484873	154.944022357655	-22.0753613539181	127.876954609231	-11.6830118847123	38.2038046268407	
2223333333.33333	-8.31222431303553	-52.173598172831	12.5611238970327	155.123227225299	-22.069469881789	127.057391632844	-11.6244055205005	37.4534857452966	
2226666666.66667	-8.10398165106681	-51.808060415544	12.5445667969181	154.989776791226	-22.0643500393914	126.220185838269	-11.5832983510712	36.5271533684348	
2230000000	-8.09240857511405	-52.1378691007979	12.5036269026495	154.560804163208	-22.0696548968556	125.405183403433	-11.5646262072044	35.5645037039779	
2233333333.33333	-8.04332481769569	-52.3393079824604	12.4497532604709	154.082725930867	-22.0961718549377	124.671895180442	-11.5546865361147	34.5288994926243	
2236666666.66667	-7.95598091691406	-53.0765811105524	12.4076420531259	153.53011262789	-22.1187870765441	123.930713215705	-11.5663148748386	33.4926505345276	
2240000000	-7.80227300076479	-54.3009957952019	12.359300073241	152.779749477917	-22.1523533616619	123.272760539835	-11.5907068874054	32.5037309765311	
2243333333.33333	-7.94322579497544	-57.3710365393882	12.3072164043946	151.645982590769	-22.1916459700155	122.801105345552	-11.6255360660451	31.6162928852624	
2246666666.66667	-8.13676560055785	-60.6616489719024	12.2568086277038	150.087593541636	-22.225974374636	122.427430358949	-11.6709140459344	30.7679002903686	
2250000000	-8.50131368919455	-63.8684102758774	12.2222889936278	148.279590931872	-22.2444444388069	122.100384096664	-11.7146269177947	30.0787536163567	
2253333333.33333	-8.83635735131954	-66.1341919476356	12.2026270565614	146.744985329911	-22.2440383319696	121.84563924058	-11.7644355011701	29.4159909969852	
2256666666.66667	-9.00790494072332	-67.1113779609091	12.1815260488025	145.972495171079	-22.2316438305458	121.432102537977	-11.8252374785763	28.8312139223686	
2260000000	-9.07735805973835	-67.0246819616855	12.2109101254281	145.417042586004	-22.2332535690251	121.083331966209	-11.8956538363345	28.261760071142	
2263333333.33333	-9.05707306325413	-65.5351672191859	12.2244819676302	145.143861344316	-22.2210210836793	120.693856809671	-11.9681284311935	27.968527760415	
2266666666.66667	-9.02278406418104	-62.916767225552	12.1929917154783	145.436227606501	-22.2077491071015	120.240500140832	-12.0508898876455	27.7445341786924	
2270000000	-8.72937453277573	-59.5099654200187	12.2067559430455	145.890204388043	-22.2080923189706	119.8253039268	-12.1253563086767	27.6750502606616	
2273333333.33333	-8.33679946017818	-56.8636251522246	12.2005024164385	146.605652539544	-22.2065918823828	119.449295794571	-12.1964808817853	27.7435096952127	
2276666666.66667	-7.9926232369718	-55.3741199337573	12.1917170567616	147.102986221304	-22.1927510137369	119.115166698365	-12.2455090346942	27.9333972420279	
2280000000	-7.76690348418713	-54.9384711063112	12.1815429952781	147.294774102198	-22.1504681159305	118.791908339933	-12.2659781293985	28.0719871228666	
2283333333.33333	-7.70053049341533	-55.2297596045132	12.2145086737874	146.929350666765	-22.1109378509041	118.358583829192	-12.2484441896918	28.2496506040123	
2286666666.66667	-7.70744947352199	-56.1150754633703	12.2623876408947	146.411327466283	-22.0373783560122	117.88594322053	-12.2014255792467	28.3037613897709	
2290000000	-7.75911565441006	-58.0101225167606	12.3616408215748	145.606372425344	-21.9719036897128	117.325973350491	-12.1212088172336	28.2432369540011	
2293333333.33334	-8.07405085699161	-61.5037445051166	12.4633347711569	144.258932972753	-21.9026341423599	116.576051124738	-12.033404301062	27.9760508044972	
2296666666.66667	-8.59151807273497	-65.874215978591	12.6486030198834	141.635287461203	-21.8360136617339	115.746434101536	-11.9316334478759	27.418702720899	
2300000000	-9.29398119601603	-70.4150694113133	12.7514154298115	138.869077023118	-21.7988741204939	114.84156456867	-11.8482256627813	26.7440161221682	
2303333333.33334	-9.98778163899039	-74.3007905360122	12.8056430696235	136.346388180158	-21.7795381808649	113.953849552949	-11.7877920198883	26.0478641799014	
2306666666.66667	-10.4355453057122	-77.3395714294098	12.8250901966638	134.55036128115	-21.7590812234855	113.104429545088	-11.7323031428859	25.3557181512366	
2310000000	-10.7032286920241	-79.9246796973208	12.8348711308996	133.24635634469	-21.7447747635852	112.34779374755	-11.6798113431455	24.6293837784962	
2313333333.33334	-10.7810221480374	-81.3693207023257	12.8336254657742	132.22291427659	-21.7451948054029	111.54548817864	-11.6344269571796	23.9881302950853	
2316666666.66667	-10.9937459672376	-82.1244754361127	12.8066818360142	131.535561203975	-21.7452142686261	110.797916868342	-11.5872404621448	23.2554247944947	
2320000000	-10.8791291387765	-80.4140073232848	12.7449510114465	131.583143850308	-21.7484253506703	110.097629398526	-11.5426034236477	22.4584993567891	
2323333333.33334	-10.5408129566046	-78.0163807993067	12.7188380465195	131.994234642271	-21.7417685782601	109.394170168961	-11.5163793606073	21.5197120647221	
2326666666.66667	-10.1399219853686	-76.4394474627292	12.6949447663197	132.456783318612	-21.7528028568772	108.661841087442	-11.4982668560822	20.5808218255881	
2330000000	-9.8096420504591	-75.5721240168907	12.6665550361139	132.667777636528	-21.7586218497413	107.884017298468	-11.5042921829721	19.5592323335186	
2333333333.33334	-9.63319245222266	-75.2380437387621	12.6096344469656	132.652696124113	-21.7870226109256	107.261000970935	-11.5315936144407	18.4588144237906	
2336666666.66667	-9.52942764846734	-74.808399088418	12.5643149320163	132.12186080936	-21.8121903814948	106.634843143625	-11.5658394417926	17.5402199948948	
2340000000	-9.25568765730304	-74.2344499854438	12.4784908224747	131.902952479324	-21.8353715894792	106.027677611718	-11.613288361864	16.5675223883313	
2343333333.33334	-9.1296630928083	-75.6279710765646	12.4171693121906	131.582732477436	-21.8718257089411	105.654634725953	-11.6691796258768	15.7098305162771	
2346666666.66667	-9.15822608419034	-78.4838273897532	12.3606344420483	130.56294192091	-21.9031124555803	105.29123514643	-11.7327941961126	14.9523595955569	
2350000000	-9.49098413238861	-82.5348582759819	12.3639571493265	128.440546360823	-21.9074963848575	105.077714737465	-11.7819672324117	14.5388068962493	
2353333333.33334	-10.0158324719965	-86.9533392493117	12.3635020277849	126.189464392171	-21.8915907614157	104.871967148402	-11.8198809028981	14.1262861096458	
2356666666.66667	-10.6254004934303	-91.4459297304854	12.3530913197795	124.508002388845	-21.8464718221821	104.615365718138	-11.8617108184484	13.7325498311985	
2360000000.00001	-11.1931263225976	-95.7847616783367	12.4676613678171	122.435547320698	-21.7944959267078	104.269192327373	-11.8959860263507	13.4465182205681	
2363333333.33334	-11.7978366057777	-99.8369324890461	12.5627560736056	120.732135975996	-21.7312078074774	103.764716391129	-11.9122594138734	13.2724493098804	
