!Agilent N9923A: A.07.32
!Date: Wednesday, 01 June 2016 22:36:09
!Model: N9923A
!Serial: MY52412257
!GPS Latitude: 
!GPS Longitude: 
!GPS TimeStamp: 0001-01-01 00:00:00Z
!GPS Seconds Since Last Read: 0
!CHECKSUM:1758563269
!Correction: S11(ON U)S21(ON U)S12(ON U)S22(ON U)
!S2P File: Measurements:S11,S21,S12,S22:
# Hz S DB R 50
1950000000	-9.10675213739192	-101.146360928383	-2.20683747769104	159.761122720379	-2.19141228103228	160.107296931392	-20.8881216985903	168.034703789584	
1953333333.33333	-9.11213571387371	-101.896498758593	-2.19901965191774	159.314335651926	-2.18511923545011	159.681469404422	-20.6685873588185	169.139166723029	
1956666666.66667	-9.13396615982668	-102.545104082799	-2.1914593115499	158.875144411478	-2.17573951857289	159.212107628885	-20.6124183796013	170.756065419155	
1960000000	-9.17757770332685	-103.151945072053	-2.18476722435579	158.415977727233	-2.17025516019371	158.75459542209	-20.731384268149	172.63478019745	
1963333333.33333	-9.23582579152031	-103.743725206169	-2.18042387412487	157.944571255354	-2.16470786635252	158.289334664328	-21.0102571950353	174.418237301525	
1966666666.66667	-9.30612323473627	-104.299130388104	-2.17568921781813	157.480847081176	-2.16107860819368	157.814028018752	-21.4567916175619	175.851599728769	
1970000000	-9.38394872859484	-104.897703423948	-2.1719619614699	157.005247771075	-2.15673627407874	157.337308544251	-22.0530766371548	176.537859044269	
1973333333.33333	-9.46909292250785	-105.531656621015	-2.16890090642753	156.524595259052	-2.1538604177672	156.853966260184	-22.7310369632765	176.07208148036	
1976666666.66667	-9.55128555708222	-106.297369297432	-2.16623909814949	156.040119073053	-2.15088766221745	156.363793375885	-23.4265474410693	174.05857025436	
1980000000	-9.63787790611525	-107.138332817055	-2.16349435617032	155.561984679046	-2.1457817544071	155.875840719894	-23.9783154359988	170.634471533953	
1983333333.33333	-9.73002344451413	-108.108743942139	-2.15833593072511	155.075101613734	-2.14237192008604	155.398879800129	-24.3060958666358	166.047942603619	
1986666666.66667	-9.80958451523722	-109.237653210864	-2.15252669860661	154.61929188908	-2.13689959139859	154.927393441009	-24.2917218343178	161.366608359217	
1990000000	-9.89628298382745	-110.502509807211	-2.1478595864025	154.169497751701	-2.13348083793075	154.480530207585	-23.9697825974989	157.447052013676	
1993333333.33333	-9.96988750851769	-111.892353469281	-2.14050780708929	153.727462136074	-2.12645664624456	154.024848223445	-23.4780259539565	155.176181913439	
1996666666.66667	-10.0422376822572	-113.363664630508	-2.13378785337337	153.284793796198	-2.12233296182848	153.600351359523	-22.9499514250925	154.630353011163	
2000000000	-10.1062492173853	-114.924579240659	-2.1316208621135	152.851356412576	-2.11929275060736	153.168524141209	-22.4430954525642	155.47929252886	
2003333333.33333	-10.1631237192948	-116.589654758825	-2.12975982324849	152.419868330887	-2.11619369533393	152.719029429116	-22.0499783948998	157.408579690488	
2006666666.66667	-10.2113599854329	-118.246780923558	-2.12797646155172	151.97317496688	-2.11388626959261	152.288884221258	-21.8245293236364	159.863837205273	
2010000000	-10.2556143019005	-119.911469179161	-2.12421794843329	151.533653642325	-2.111741589852	151.850990053034	-21.7218616573533	162.517721435624	
2013333333.33333	-10.2828345012488	-121.492855720262	-2.12344124694322	151.09476047918	-2.10745117938403	151.419392164325	-21.8007632957221	165.24554060239	
2016666666.66667	-10.2920250105715	-122.993597029088	-2.11845114157763	150.665682840277	-2.1084626141092	150.998744692816	-22.0409391626212	167.351898605924	
2020000000	-10.2894866339774	-124.377636696577	-2.11641179283113	150.237225188793	-2.10504336268801	150.565706422574	-22.4438436726921	168.774099814912	
2023333333.33333	-10.2619015052679	-125.658593182111	-2.11353657319939	149.796455188841	-2.10024071105478	150.130812545519	-22.9676986732337	168.893449793622	
2026666666.66666	-10.2291834199699	-126.830719590659	-2.11151394468332	149.362906204657	-2.09745578326445	149.705339104495	-23.574725845663	167.45625641037	
2030000000	-10.1728035030055	-127.884670538365	-2.10632968999294	148.916700805774	-2.09350693252718	149.255829263792	-24.1491036041028	164.119972341936	
2033333333.33333	-10.1182578215374	-128.838071226591	-2.10239129855437	148.464365783856	-2.08874082358444	148.80854693724	-24.5423878733711	158.804269537932	
2036666666.66666	-10.0552416423909	-129.742986736948	-2.09506575763523	148.025298741444	-2.08080905292964	148.365991029603	-24.650087573281	152.821977993936	
2040000000	-9.99646674041536	-130.584109763767	-2.08840155294457	147.574278937633	-2.07319094109397	147.915575299322	-24.4073002310322	146.963780387781	
2043333333.33333	-9.94575304818267	-131.392808015224	-2.08141953361637	147.144213897588	-2.06403581460642	147.475686556394	-23.9585946700097	142.503055392799	
2046666666.66666	-9.91072860392003	-132.17223292307	-2.07210457085953	146.703610493486	-2.05804907063454	147.038308926205	-23.4019411462669	139.966215101438	
2050000000	-9.89719287988257	-132.952245733279	-2.06543582473847	146.259548370952	-2.05018025298799	146.584460142818	-22.8935426207259	139.120161783881	
2053333333.33333	-9.90417526138721	-133.742533745496	-2.05986553825336	145.804973084292	-2.04555571874167	146.12763799197	-22.5081590063254	139.742831046212	
2056666666.66666	-9.93973865539033	-134.518120770027	-2.05730736256876	145.344383434334	-2.04227279007389	145.67015768378	-22.3009500758183	141.191059946508	
2060000000	-10.0024124862237	-135.368310745439	-2.05453198134685	144.880559258832	-2.03825355573747	145.188918989388	-22.2828168060991	143.353146715264	
2063333333.33333	-10.0899655536265	-136.248703483468	-2.0556038819426	144.401493317527	-2.03839537806765	144.71408860984	-22.4609884636641	145.745842742358	
2066666666.66666	-10.1943162327992	-137.150313363236	-2.0557255353682	143.923949985391	-2.03884999796509	144.231688673699	-22.8585484442631	148.078441022652	
2070000000	-10.320190290788	-138.113968703568	-2.05803218853626	143.444499399721	-2.04180594727088	143.753693082183	-23.4244337592174	149.793106656501	
2073333333.33333	-10.4408631426762	-139.135190842704	-2.06084392057092	142.971832468024	-2.04592214299702	143.262174451632	-24.1640173433237	150.775235627076	
2076666666.66666	-10.5633071181463	-140.24186679378	-2.0631008809311	142.493981870201	-2.04924234645203	142.792693294482	-25.0081229337963	150.177721026201	
2080000000	-10.6716692230245	-141.431592227979	-2.0650630924605	142.025525936013	-2.04995958683151	142.31752750174	-25.8508775742049	147.561857221614	
2083333333.33333	-10.7653289274857	-142.732198029385	-2.06738987998122	141.56024536435	-2.05468482964395	141.855356572967	-26.5285268525584	143.064562117782	
2086666666.66666	-10.8383070522982	-144.157894797904	-2.0677214553412	141.089700875761	-2.05300812378414	141.372892849471	-26.8197259277457	137.085393593983	
2090000000	-10.8857030017251	-145.68755326987	-2.06618877982647	140.62750401535	-2.05312707530169	140.915443148511	-26.6648978031761	131.146947627713	
2093333333.33333	-10.9032498553485	-147.298750382652	-2.06423997570127	140.187795858355	-2.05076840052231	140.481338796877	-26.1390251875855	126.994668787006	
2096666666.66666	-10.899086160254	-148.993345245919	-2.05983959967765	139.752837726519	-2.04971363081225	140.03923961011	-25.4433119138457	124.920212282775	
2100000000	-10.874578696011	-150.750763231847	-2.0573073164891	139.327382253414	-2.04648341142318	139.611993934543	-24.7107080697367	125.145082647537	
2103333333.33333	-10.8379059485845	-152.510848939218	-2.05517358683966	138.89720447783	-2.04281684980177	139.192941279351	-24.1002017519827	126.660985568787	
2106666666.66666	-10.790563062856	-154.266011186367	-2.0531997572717	138.480769970676	-2.04188759690599	138.777371431947	-23.6466331708635	129.436747138535	
2110000000	-10.7414835563517	-155.978553214651	-2.05193579611995	138.048378040375	-2.03954927683456	138.350443952027	-23.359045166404	132.550567315642	
2113333333.33333	-10.6907426176236	-157.597425189491	-2.05136130009964	137.612615853402	-2.03926401993761	137.924121714768	-23.2755823700021	135.991291176848	
2116666666.66666	-10.6398947783817	-159.118424048864	-2.05054804144741	137.185379798338	-2.03634547105774	137.486101888933	-23.3953292537649	138.964538687802	
2120000000	-10.5931207499771	-160.469784497702	-2.04901420549973	136.748534834634	-2.0372062102654	137.061606936502	-23.7190630764246	141.567572790162	
2123333333.33333	-10.5573215435766	-161.690189225392	-2.04748682872279	136.304639179081	-2.03567606470012	136.618519269554	-24.2411243644812	142.946771153999	
2126666666.66666	-10.5209402267547	-162.723968428281	-2.04708241629468	135.870362038188	-2.03317271483972	136.173483391868	-24.9392969065565	142.841018785173	
2130000000	-10.4829875702652	-163.621175209594	-2.04732829860218	135.424209868399	-2.03149956607486	135.741693607196	-25.7609735414596	140.490061746521	
2133333333.33333	-10.4528409700278	-164.403370625024	-2.04738499986794	134.969415460174	-2.03181749873574	135.277582638548	-26.4827955707	135.135018042207	
2136666666.66666	-10.424134007021	-165.08854636141	-2.04914736330148	134.502159743205	-2.03203894550919	134.818225327972	-26.9261483858777	127.598533614425	
2140000000	-10.4035475289495	-165.718672352129	-2.04559961854359	134.027284427365	-2.02801522376076	134.348499692103	-26.8711599971164	119.101638135966	
2143333333.33333	-10.3825561905992	-166.331128309923	-2.04373870316376	133.574688907493	-2.02749071712495	133.882721132933	-26.3404247897639	111.831469861834	
2146666666.66666	-10.3719532100068	-166.943785087239	-2.04148293973356	133.121929028124	-2.02534466630658	133.421724299202	-25.5992990515527	107.315925006058	
2150000000	-10.3714779762922	-167.646184568818	-2.03877228044	132.667074672538	-2.02296557540675	132.962546465517	-24.8348923515115	105.257452299557	
2153333333.33333	-10.389956502774	-168.466218477179	-2.03707501742592	132.206732210458	-2.02133327096859	132.511293881256	-24.1917410317178	105.371505873799	
2156666666.66666	-10.42221441153	-169.402856395348	-2.03720940224677	131.752958743944	-2.02264148392548	132.040230768469	-23.7462927203988	107.110491065614	
2160000000	-10.4765073586507	-170.497459628938	-2.04036813998881	131.289322671511	-2.02230633775249	131.589615878385	-23.5550769446846	109.681571792848	
2163333333.33333	-10.5534318662957	-171.737339205058	-2.04428073308873	130.831704008253	-2.0264912709275	131.125732014937	-23.5976947403743	112.895796935633	
2166666666.66666	-10.630582853829	-173.141724460458	-2.04860872002343	130.350405146729	-2.03415697282572	130.642246289766	-23.8661466740551	116.308467394984	
2170000000	-10.7257037605417	-174.71243495022	-2.05339355288165	129.85731677057	-2.03712751825392	130.162561990706	-24.3940975622304	119.294760608833	
2173333333.33333	-10.8226095539525	-176.310167031271	-2.05947420374474	129.390827436112	-2.0440845479611	129.67604346242	-25.1831681600247	121.805121770136	
2176666666.66666	-10.9139787649091	-178.001718066091	-2.0651635858017	128.926256509337	-2.05213005643624	129.217412511891	-26.1643250613174	122.968556080205	
2180000000	-10.9988143560412	-179.706171336516	-2.07457071178417	128.476083845346	-2.05922455011791	128.764895492682	-27.3265707993649	121.979573389046	
2183333333.33333	-11.0498577736614	178.563570804326	-2.07872891539006	128.022836831222	-2.06482490619266	128.32543387283	-28.4542717097041	118.13010087793	
2186666666.66666	-11.0775833866077	176.883993880107	-2.08337579122216	127.574207070139	-2.07154448910364	127.880647756634	-29.3180323809644	110.674342870511	
2190000000	-11.080320138535	175.257598447595	-2.08770079094981	127.120914500404	-2.07557332436952	127.439881099078	-29.4832438601662	101.460021172076	
2193333333.33333	-11.046751645567	173.642913270866	-2.09161040726465	126.673967278161	-2.08021515379661	126.997546655834	-28.9348098520744	93.4271350464387	
2196666666.66666	-10.9822899407733	172.141216611559	-2.09259432099097	126.221153187806	-2.08174821243948	126.562352725262	-27.9747793941604	88.7337434078358	
2200000000	-10.8888167386335	170.705466703567	-2.09280502030921	125.801405726637	-2.07905806936057	126.134971706119	-26.9063719919276	87.5842551895902	
2203333333.33333	-10.7809952986512	169.340837668712	-2.08948554968054	125.362358207422	-2.07622709126213	125.724938586898	-25.9574471570784	88.890287830626	
2206666666.66666	-10.6654183133433	168.063113984905	-2.08773823199261	124.953187536509	-2.07594328910338	125.322557159381	-25.1801539325178	91.9118865311072	
2210000000	-10.536873825757	166.835419550498	-2.08801084221074	124.550732921311	-2.07275334880911	124.916543571115	-24.6381530598251	95.9156228342772	
2213333333.33333	-10.4269056407447	165.668793756456	-2.085967564581	124.136831579223	-2.0722435017566	124.512087394644	-24.3253321951547	100.190573807705	
2216666666.66667	-10.326117811526	164.529435856701	-2.08740458082239	123.701762141886	-2.07098175305056	124.099689725588	-24.2414643754778	104.453396930804	
2220000000	-10.2392196713075	163.416291383888	-2.08692911902332	123.272568617089	-2.0712263209606	123.658453298488	-24.4132882708803	108.519858849565	
2223333333.33333	-10.1797874816996	162.380284747083	-2.089860990399	122.828799432677	-2.072368505694	123.225247058301	-24.8348907650651	111.592443104321	
2226666666.66667	-10.1389861383041	161.408471278142	-2.09115095001332	122.358125117592	-2.07442477092425	122.767629252281	-25.5351919207508	113.228295032594	
2230000000	-10.1248624238409	160.49014494923	-2.09399980904274	121.904562262219	-2.07935965230353	122.308004447402	-26.4639165134951	112.822270813747	
2233333333.33333	-10.1187216859102	159.632264332515	-2.0963090759899	121.447877161577	-2.07992917440558	121.874740187644	-27.5536569979945	109.264484722291	
2236666666.66667	-10.1306838205583	158.839061611447	-2.10167208716818	120.991367929619	-2.08537563311551	121.397573790297	-28.529862458896	101.818923464504	
2240000000	-10.1570192351091	158.098923724171	-2.1079963174585	120.540472418526	-2.09437704975745	120.933192300147	-28.9590267383163	90.768377874748	
2243333333.33333	-10.1957974178382	157.364898590579	-2.11466102777348	120.065281769273	-2.09757794096357	120.454818777432	-28.5930259331574	79.6442245015986	
2246666666.66667	-10.239649535065	156.619743025499	-2.12047435331883	119.589165949574	-2.10385825021067	119.981920594783	-27.650443345041	71.666852958768	
2250000000	-10.2800023053718	155.786421669307	-2.1245871474364	119.134038330965	-2.11036353349741	119.509136309059	-26.5287899646779	67.7135636472301	
2253333333.33333	-10.3239564034121	154.885829006928	-2.1288354611286	118.674915988166	-2.11475733819268	119.032263612765	-25.502602862889	67.0107262092536	
2256666666.66667	-10.3572211861313	153.838009300959	-2.13435151035243	118.227243005273	-2.11958723676665	118.569579983369	-24.7521160909672	68.4274765604403	
2260000000	-10.3950205436456	152.648782593093	-2.14039209838527	117.777357783137	-2.12517623886249	118.113306111439	-24.2566791721961	71.3459517214356	
2263333333.33333	-10.4251012312698	151.280943747805	-2.14266192232896	117.342692255625	-2.13072819767276	117.664556888088	-24.0365562459221	75.1109004490697	
2266666666.66667	-10.4458966740449	149.740926723494	-2.15197037700184	116.890236464205	-2.13889099564192	117.203722413873	-24.0938814824265	79.2379229822468	
2270000000	-10.4577866024706	148.076817138634	-2.15738302812263	116.45712764031	-2.14724859023908	116.773305738349	-24.4313198377178	83.6429111863547	
2273333333.33333	-10.4626990408055	146.225293898957	-2.16850986092324	115.997062835572	-2.15451294460582	116.3059838402	-25.0639473007627	87.5263092352481	
2276666666.66667	-10.4534191600412	144.366234755049	-2.17720338417077	115.554829951979	-2.16464138669225	115.861302354276	-25.9555578051699	90.7933102571744	
2280000000	-10.4341896893953	142.510897064443	-2.18580248737947	115.100185314498	-2.17313644047966	115.424094459317	-27.13464386287	92.4283160363646	
2283333333.33333	-10.4089614606795	140.682389003597	-2.19493000679489	114.670237492249	-2.18289763661191	114.974591633755	-28.5357083763513	91.418180305544	
2286666666.66667	-10.3590149864165	138.960655798372	-2.2035626477302	114.243001454625	-2.19119462446393	114.55678896762	-29.9448691613334	86.6741522452628	
2290000000	-10.2971288301499	137.37703904653	-2.21117971329965	113.818299275413	-2.19869992992513	114.135650861353	-30.9617419686073	76.8436566540773	
2293333333.33334	-10.2199553957364	135.963647993884	-2.21600633883693	113.395187290072	-2.20636529122352	113.720022906606	-31.0175176649598	64.7186775487301	
2296666666.66667	-10.1354885505247	134.723861562275	-2.2240195174486	112.971598397421	-2.20811161380125	113.297845917041	-30.0850353718256	55.2178963012002	
2300000000	-10.0373890020363	133.659543068745	-2.22622284575882	112.547294116878	-2.21190135263935	112.886076739545	-28.7267587378521	50.8118283429934	
2303333333.33334	-9.93404770521218	132.753820541114	-2.22748455091548	112.122787336116	-2.21285190845992	112.458062647022	-27.3975129568543	50.3036279836288	
2306666666.66667	-9.83078167989033	131.961217545839	-2.22853353918446	111.709303442583	-2.21305264344234	112.04109607868	-26.2731384786521	52.6179292961698	
2310000000	-9.72566352105403	131.269910982018	-2.22856610632978	111.282264966862	-2.20974443201381	111.619857509511	-25.4060308355931	56.4982310724525	
2313333333.33334	-9.62713208194599	130.621522149158	-2.22737347088323	110.880582401894	-2.2121032069058	111.203734531589	-24.800627059707	61.1256243522172	
2316666666.66667	-9.54217980227721	129.996353306426	-2.22612021316147	110.471016950974	-2.21135532144499	110.786835447289	-24.4472222048233	66.1578788540566	
2320000000	-9.46578918814106	129.337016405551	-2.23012167544607	110.057871641692	-2.21156527816644	110.371180287481	-24.3822501368421	71.1266975276324	
2323333333.33334	-9.41558160928361	128.572174941738	-2.23198507498558	109.624341079713	-2.21638617223268	109.952813128683	-24.5736867391704	75.5894764626579	
2326666666.66667	-9.38415520687319	127.812480586021	-2.23731959758094	109.198613749513	-2.22137445113818	109.510789412123	-25.0749435054264	79.1421539379467	
2330000000	-9.37535996789578	126.970308458799	-2.24374205922866	108.748584832806	-2.22733611892833	109.066717936282	-25.8657008305526	81.2682821313006	
2333333333.33334	-9.38880323134669	126.078652029161	-2.25365681734009	108.296421164014	-2.23491198501595	108.616491610844	-26.8776017923389	80.8534035929012	
2336666666.66667	-9.41891879201712	125.139561963563	-2.26218214522745	107.861423957997	-2.24685772014575	108.162391473649	-28.1072438083663	77.1772960403403	
2340000000	-9.46004759366531	124.133503075443	-2.2732587247063	107.401510650048	-2.25532076079599	107.714181005648	-29.2095782745381	68.917261041423	
2343333333.33334	-9.51164880544656	123.071789757943	-2.28602730687735	106.956650229277	-2.26870164275899	107.263459332916	-29.6113465547897	56.3532122885267	
2346666666.66667	-9.56588241035269	121.974132400521	-2.29863272096131	106.503479118676	-2.28224619130193	106.815080140113	-29.0495419887337	44.0291802686064	
2350000000	-9.623326998264	120.793765791308	-2.31041190475539	106.054080638956	-2.29553596833679	106.343114216647	-27.8568560290171	35.7603566189791	
2353333333.33334	-9.67263457878383	119.588741729014	-2.32234003177873	105.605016032385	-2.30855285738175	105.880479711773	-26.6144331845037	32.4475223622769	
2356666666.66667	-9.70318647770793	118.310028826251	-2.33349916629162	105.145495630518	-2.32071012013083	105.435117535431	-25.4852521858491	32.2976544710636	
2360000000.00001	-9.71979912535535	116.992431293715	-2.34167241567733	104.692731459717	-2.32883606296845	104.975758023462	-24.6794080342729	34.2926871722617	
2363333333.33334	-9.71675586293442	115.613248027658	-2.35204566796393	104.26869831325	-2.34104211304312	104.547507436159	-24.1433063002544	37.7697054693933	
