!Agilent N9923A: A.07.32
!Date: Wednesday, 01 June 2016 23:38:43
!Model: N9923A
!Serial: MY52412257
!GPS Latitude: 
!GPS Longitude: 
!GPS TimeStamp: 0001-01-01 00:00:00Z
!GPS Seconds Since Last Read: 0
!CHECKSUM:1103016180
!Correction: S11(ON U)S21(ON U)S12(ON U)S22(ON U)
!S2P File: Measurements:S11,S21,S12,S22:
# Hz S DB R 50
1950000000	-14.8398815422468	109.604629535656	-9.39036952434713	-85.3000013291725	-7.06901245283445	-79.3754380517247	-4.54270540993427	-97.5858976850444	
1953333333.33333	-14.3680045240913	107.932638212281	-9.24568391146714	-86.8494536408252	-7.05374020048555	-80.801387046693	-4.64694868103456	-99.1405347288062	
1956666666.66667	-13.9089483904438	106.004047370296	-9.10481405068955	-88.4341128530603	-7.01943935268542	-82.1204158451553	-4.78219608765674	-100.785635170301	
1960000000	-13.5425576622512	104.06535503171	-8.96646848335929	-90.0277430166298	-6.965253041689	-83.4181629605894	-4.94352432468136	-102.583607227784	
1963333333.33333	-13.2740936957357	102.077253382302	-8.83982896439754	-91.5732890942692	-6.89481374247736	-84.7064008160082	-5.11694597355568	-104.639552717306	
1966666666.66667	-13.0930907845306	99.8661136770691	-8.72505518907814	-93.1405206454331	-6.81066176794098	-86.0172784333906	-5.28492424159176	-106.988896481293	
1970000000	-12.994934782648	97.3540239594643	-8.624589057834	-94.7834733133215	-6.71285225226799	-87.3619897584734	-5.4359961557498	-109.647495560525	
1973333333.33333	-12.9558479548906	94.5394929569765	-8.53388731765185	-96.4953756337656	-6.60585079682502	-88.7765907606678	-5.55687570161305	-112.563377593154	
1976666666.66667	-12.948838188988	91.3360403892054	-8.45986665965463	-98.325180172085	-6.48641299339027	-90.2501146133074	-5.64523550648023	-115.663922606705	
1980000000	-12.9641869604428	87.8764875666214	-8.39937401016843	-100.24857541418	-6.36487993389047	-91.7861742424189	-5.68931203533275	-118.824426473479	
1983333333.33333	-12.9878358519017	84.4755945389333	-8.34739814298183	-102.193863958783	-6.23326276468944	-93.4070995227214	-5.70120018616381	-121.913928376305	
1986666666.66667	-13.0054256467454	81.3504968398939	-8.30624348439592	-104.155428481515	-6.09051597038039	-95.121161819686	-5.69892850014111	-124.8441965682	
1990000000	-13.0057235140906	78.6561911833923	-8.26617636682889	-106.043945088476	-5.94750409967478	-96.9476947799305	-5.69231392520597	-127.487011539812	
1993333333.33333	-12.9909389431897	76.7033484264898	-8.22414813046865	-107.801649879317	-5.81272731941751	-98.9218305783688	-5.69268272280397	-129.783031452538	
1996666666.66667	-12.9456075774517	75.515377025725	-8.17381637213727	-109.433988581663	-5.68876204842807	-101.013948240551	-5.71690217424833	-131.776572396184	
2000000000	-12.8345724668872	74.9758896209805	-8.10984493924525	-110.994438686441	-5.58524281941983	-103.216442356092	-5.77143921711518	-133.487451105419	
2003333333.33333	-12.6245196353435	74.6550309173163	-8.02808172529959	-112.52774557996	-5.50618438538484	-105.465844904634	-5.85825391041489	-135.038518689504	
2006666666.66667	-12.3390068277042	74.2616701813947	-7.93460082639935	-114.123387854606	-5.4400739656267	-107.739405134268	-5.98018016889254	-136.566461135521	
2010000000	-12.0242834636174	73.5578155147493	-7.83426334552807	-115.76229303126	-5.38663446434877	-109.97010424074	-6.12873549343585	-138.17645002557	
2013333333.33333	-11.7203485610329	72.5685535679472	-7.73359942002135	-117.438191224989	-5.34313053616609	-112.165167140911	-6.2950793404577	-139.999722090358	
2016666666.66667	-11.4643343390197	71.3409650353524	-7.64180798025971	-119.134678519677	-5.30821189609587	-114.332603710518	-6.46758508238607	-142.133925800497	
2020000000	-11.2776850097757	70.0045959104593	-7.55858153693678	-120.826810983544	-5.2824383536055	-116.476019086808	-6.62680646372606	-144.609610287251	
2023333333.33333	-11.1558161640798	68.8045121074343	-7.47510642594894	-122.458920732083	-5.26459561211285	-118.56805017146	-6.75567386511515	-147.491867560194	
2026666666.66666	-11.0712288818182	67.7599932317874	-7.39443076903568	-124.111352706721	-5.25931653302855	-120.630076063223	-6.83627328339897	-150.675481184387	
2030000000	-10.9770034490028	66.9446648030913	-7.31012720873562	-125.760376950726	-5.2621882902989	-122.616728531692	-6.86310737424487	-154.099138690941	
2033333333.33333	-10.8461229881743	66.3433875715148	-7.21688078204794	-127.469513718491	-5.27326033247854	-124.517789061528	-6.83619489595931	-157.645291613897	
2036666666.66666	-10.6669525620561	65.8974904350455	-7.11840270033547	-129.23993201327	-5.28552228186995	-126.325562610131	-6.76559657648992	-161.116455752526	
2040000000	-10.4428227688962	65.5494701172397	-7.01800800126671	-131.044485769872	-5.29700734595889	-128.087683287338	-6.6676572843161	-164.404735987833	
2043333333.33333	-10.18749272661	65.2329152768765	-6.91743170345563	-132.851604950296	-5.3096903861234	-129.789105751271	-6.56121619094146	-167.367111008126	
2046666666.66666	-9.9287411919038	64.8936034210814	-6.83314474827337	-134.641126944863	-5.32527614245628	-131.447319351171	-6.47234569142567	-170.020938030185	
2050000000	-9.68474603974785	64.3888317164123	-6.76137110849187	-136.390188090986	-5.34235473903898	-133.050614588296	-6.41222883533485	-172.363068748835	
2053333333.33333	-9.46898004818907	63.6500870203914	-6.70779999060631	-138.118443747153	-5.35996152992718	-134.607453917983	-6.39801130163891	-174.495838663618	
2056666666.66666	-9.2960906365848	62.5946342021815	-6.67501735000774	-139.821681495389	-5.37649433519982	-136.11408273583	-6.42811285424392	-176.54762402784	
2060000000	-9.16755456512707	61.146741880574	-6.65829438552478	-141.528948830423	-5.38413020040473	-137.582712193333	-6.50173566899063	-178.639747472901	
2063333333.33333	-9.08765233041017	59.2325289710635	-6.66238236798683	-143.262008908408	-5.38594330318739	-138.990228319814	-6.61012736469513	179.136987666125	
2066666666.66666	-9.0546274436331	56.882985522151	-6.68733307348675	-145.056497411923	-5.37565730066353	-140.39600475256	-6.74008015093352	176.6358506723	
2070000000	-9.07063571648621	54.2342719776206	-6.72690610482655	-146.87336168677	-5.35185174094507	-141.808360545759	-6.87360916881762	173.774049278781	
2073333333.33333	-9.11799475115066	51.4802374497908	-6.77396262008825	-148.705175108492	-5.31512110562236	-143.25093418421	-6.99016431395379	170.579988502639	
2076666666.66666	-9.19309386474841	48.781632872724	-6.82759392146646	-150.521997079661	-5.26742587635377	-144.75943690185	-7.07751999103354	167.09690567565	
2080000000	-9.28051921984883	46.3568863557641	-6.88047028219066	-152.285501829404	-5.20876110952019	-146.374227759022	-7.11209499289154	163.37523324752	
2083333333.33333	-9.37581054257396	44.371004545248	-6.9217589589271	-154.008919212476	-5.14459427471658	-148.089303244782	-7.08772760428079	159.63530159782	
2086666666.66666	-9.44900528514206	42.9403443594181	-6.94667621357567	-155.685830766932	-5.07708037746811	-149.914452747671	-7.00498534340558	156.028943908191	
2090000000	-9.47123441552487	42.0677611968624	-6.95576620185494	-157.350751171004	-5.01933149978391	-151.869385065844	-6.87435040681978	152.703883980445	
2093333333.33333	-9.41883133857009	41.6571857325971	-6.94405557274557	-159.029826026183	-4.97399940645511	-153.927601247669	-6.7204938471761	149.792440339049	
2096666666.66666	-9.29446338023818	41.5239096432541	-6.91844190155174	-160.718839128694	-4.94922672514635	-156.04561253492	-6.55862359253278	147.312144585569	
2100000000	-9.1186184761186	41.5479870657171	-6.88253654105637	-162.367319856353	-4.94275894258223	-158.168666580637	-6.41247022741661	145.245845228174	
2103333333.33333	-8.90697854962214	41.6104637050672	-6.84719310681675	-164.001256992459	-4.95706500859325	-160.252044790703	-6.29763591361339	143.497819108184	
2106666666.66666	-8.69025352532163	41.5419730758059	-6.81152909960434	-165.584082484133	-4.98827367910864	-162.285218778599	-6.21856432344551	141.900806849059	
2110000000	-8.48641145752987	41.314307393961	-6.78896005382225	-167.13205093949	-5.03206744396017	-164.229378213369	-6.18781764149596	140.387326086143	
2113333333.33333	-8.3032386195848	40.8384448806863	-6.76979360040966	-168.653014764383	-5.08201510865423	-166.062558802024	-6.1910018647104	138.771697976031	
2116666666.66666	-8.1448389759371	40.2100972826014	-6.75604448750381	-170.142678502445	-5.13491129583737	-167.828165357393	-6.22557209130807	136.973173068565	
2120000000	-8.00385146076318	39.4895842682987	-6.74000473368517	-171.616305644562	-5.18716711520053	-169.509345726519	-6.26369021711865	134.848118899993	
2123333333.33333	-7.87023150430217	38.8555833531285	-6.72171213967192	-173.083692009621	-5.24013292909766	-171.138601237601	-6.30215611647274	132.431692682859	
2126666666.66666	-7.73000813294598	38.3100162172901	-6.69245617055659	-174.544282913961	-5.2932344545519	-172.726569171085	-6.32682685580891	129.663786294432	
2130000000	-7.57832154655349	37.8792158927898	-6.65390382071504	-176.038746432394	-5.34211832675269	-174.273619190262	-6.308290358958	126.62288251352	
2133333333.33333	-7.42564679225832	37.5246725253652	-6.61469520965203	-177.577578195029	-5.3881738174958	-175.827240525521	-6.24610320222726	123.416177659289	
2136666666.66666	-7.27108834901616	37.1772123552692	-6.57758868646387	-179.16731758211	-5.4346102635532	-177.386913665107	-6.1313740924683	120.16888998497	
2140000000	-7.12002441871013	36.7955431100177	-6.55144844618667	179.217637919907	-5.48114354190328	-178.93919930552	-5.97386896669595	117.050965391414	
2143333333.33333	-6.97724490638239	36.3205365390722	-6.53806565019317	177.563654028733	-5.52742696012772	179.513751721866	-5.78832137690335	114.168583740364	
2146666666.66666	-6.84915511180852	35.6936078350495	-6.54455343372427	175.883241394357	-5.58177397113114	177.970997825254	-5.59327174571309	111.621889669383	
2150000000	-6.74669095574707	34.8546687684485	-6.57395741409449	174.241965145858	-5.6357073365632	176.459328930982	-5.40977625325721	109.452516831617	
2153333333.33333	-6.67097819327235	33.7999040402754	-6.62288457218058	172.631900418269	-5.69381190116295	174.991699741705	-5.25742556731914	107.606251038319	
2156666666.66666	-6.62744404499132	32.4439344585231	-6.6969910186498	171.069658676614	-5.75010424476811	173.582600968673	-5.14247165716499	106.017342252657	
2160000000	-6.61414466900454	30.8268764104186	-6.79375770582084	169.551102672128	-5.80616018381632	172.24248844573	-5.07419355187816	104.584890883677	
2163333333.33333	-6.63040431192374	28.9242328921898	-6.90534816445663	168.048757238464	-5.85394182353296	170.969139149093	-5.04429438042718	103.201945641027	
2166666666.66666	-6.67484529305902	26.7897051548896	-7.03060643823106	166.584489818787	-5.88998260962252	169.725488626391	-5.04615237575864	101.72069016735	
2170000000	-6.74246177969108	24.5892300887406	-7.15931726198893	165.180183861422	-5.91004488418004	168.512348354162	-5.07567631400332	100.110879077175	
2173333333.33333	-6.81855451830127	22.4572136378105	-7.28640930205369	163.831887848617	-5.91737933358457	167.26457236947	-5.1143625651514	98.29722935837	
2176666666.66666	-6.89461178063892	20.5453145543906	-7.39312940187571	162.516561684169	-5.91222742043962	165.938217688705	-5.15315207603122	96.2017774551803	
2180000000	-6.9484313499684	18.9546439141468	-7.47957703007679	161.230149903512	-5.90138631576116	164.490949306438	-5.16966791826727	93.894947676701	
2183333333.33333	-6.97107912517183	17.7169408215914	-7.54420827472856	159.936230230826	-5.89022207906551	162.931521224795	-5.1490982039078	91.3866990486108	
2186666666.66666	-6.95545969369052	16.8579081818189	-7.5827559773443	158.607074062653	-5.88805815001524	161.246640346191	-5.08233270610144	88.7910534484523	
2190000000	-6.89105113254939	16.367979472144	-7.5991185085316	157.219832761976	-5.90207947098595	159.466396665435	-4.96706487392423	86.1976109361768	
2193333333.33333	-6.76982548915062	16.1632956863862	-7.59254224290313	155.75474282593	-5.93358459950505	157.614407492387	-4.81204440582154	83.738072383006	
2196666666.66666	-6.60263938251244	16.1656506873494	-7.57644720144738	154.225616802518	-5.98828377467815	155.752640294825	-4.63435603463221	81.4832144531756	
2200000000	-6.39805990334674	16.1919959188094	-7.55244493203971	152.674929784463	-6.05956435610416	153.914315786762	-4.44960715591711	79.5262690061263	
2203333333.33333	-6.17636505629796	16.2384874529012	-7.53100689109176	151.103960298857	-6.14555862747895	152.151976757276	-4.27718103223625	77.8843540416566	
2206666666.66666	-5.95854834055757	16.1691031711981	-7.52001226073963	149.577294851057	-6.24177344921255	150.48107140645	-4.12818131467029	76.5211581767716	
2210000000	-5.76065141544368	15.9360622353585	-7.51754370074756	148.131770988842	-6.34553825610616	148.894328744913	-4.01662524307861	75.3821366427646	
2213333333.33333	-5.58328896059382	15.5542328416561	-7.52623174054554	146.769215820124	-6.446233176526	147.454111426345	-3.94167961159567	74.3903666996486	
2216666666.66667	-5.42458153295589	14.9870339528021	-7.54552826075629	145.459703455286	-6.5426775016415	146.101011478924	-3.90278243408389	73.4558931135615	
2220000000	-5.28767168442268	14.3359831449672	-7.56954931017343	144.204805046968	-6.6353563484732	144.835858054302	-3.89611530184725	72.4726728376255	
2223333333.33333	-5.15989001533839	13.5921780433129	-7.59227866639282	143.002404001857	-6.71952591745859	143.643747870409	-3.91432411681474	71.3891229232291	
2226666666.66667	-5.04635364943518	12.7952908105579	-7.61280977403336	141.804208279349	-6.79456344808508	142.494345491856	-3.94040379118562	70.0938022716198	
2230000000	-4.94606094213927	11.9081348284161	-7.63715324582385	140.624381126583	-6.86303595031946	141.359876116743	-3.96844706123743	68.5655153786572	
2233333333.33333	-4.86028585124057	10.9488444870699	-7.66099329701445	139.399678547655	-6.91864764182722	140.240376706872	-3.98243536675897	66.8044710516944	
2236666666.66667	-4.79236354827549	9.90838591243155	-7.69348702248624	138.165623781078	-6.97043658237485	139.080067930636	-3.96680407383732	64.8241316503337	
2240000000	-4.73740492393554	8.87421711130119	-7.73185578688106	136.922938014911	-7.02452716424951	137.905531677546	-3.9189166764723	62.7023069428956	
2243333333.33333	-4.69512236889753	7.84034535647841	-7.78122415463651	135.632878849549	-7.07730202841186	136.699592406676	-3.83736203323979	60.53503400881	
2246666666.66667	-4.66356850739074	6.77212451263403	-7.84325464166763	134.297530590708	-7.13536978340247	135.459130606654	-3.72551110547165	58.4376272988245	
2250000000	-4.64125610275437	5.64973350967028	-7.92090397906428	132.943182875923	-7.20054460881306	134.191032907322	-3.60046305308077	56.4867753463841	
2253333333.33333	-4.6299029078413	4.45962639719985	-8.01321174349717	131.584613008943	-7.26740364621715	132.917701883984	-3.46918684375811	54.7612094094086	
2256666666.66667	-4.63054577237298	3.18343376302189	-8.12274321263046	130.244735900086	-7.33602707036805	131.670382942397	-3.34478739702521	53.2984559313344	
2260000000	-4.64559857571117	1.76467734372739	-8.24854441131721	128.948490134513	-7.40755537778788	130.445140883547	-3.24109418532536	52.0814513051146	
2263333333.33333	-4.67339576885269	0.278216031954472	-8.38838754081039	127.717309203328	-7.47273443388139	129.277907993808	-3.16320988409578	51.0747692273813	
2266666666.66667	-4.71272511707105	-1.25771312724482	-8.53564660659786	126.572729442611	-7.53488097799871	128.145737755553	-3.1164437293249	50.2491266057454	
2270000000	-4.75636764339159	-2.78830281006721	-8.67707125453684	125.486695112458	-7.5907357138962	127.013490591897	-3.09850016080675	49.4853282957416	
2273333333.33333	-4.78797669131094	-4.2370588409652	-8.8067212967036	124.450093741525	-7.63998627926662	125.866274966113	-3.10716047364155	48.7367504150515	
2276666666.66667	-4.79630184981044	-5.54835124251936	-8.91351976419128	123.428491216944	-7.68267746075053	124.694483854553	-3.13607046344921	47.8924721052814	
2280000000	-4.77579195506897	-6.70664664192358	-8.99214134991927	122.396078508744	-7.72673577190925	123.4802216753	-3.17231906618751	46.9046251033884	
2283333333.33333	-4.71451761776521	-7.61841329352117	-9.03937145266547	121.335710997571	-7.77063478242696	122.215618272083	-3.20472979461599	45.7029599774866	
2286666666.66667	-4.61320444879401	-8.28370201696387	-9.04829626223324	120.208297151499	-7.8190307141667	120.916806195725	-3.22003543343234	44.2758174401144	
2290000000	-4.48011117333962	-8.71960519687831	-9.03098179177688	119.027250339739	-7.87699048678709	119.574855998953	-3.21218670543553	42.6390965168415	
2293333333.33334	-4.32116754215894	-8.9871733380348	-8.99693892802779	117.778724268727	-7.94027406869189	118.226412739464	-3.17566061814277	40.848798483111	
2296666666.66667	-4.14759150399212	-9.19644966487034	-8.95824620220712	116.479925783178	-8.00848747615094	116.863770764274	-3.10510200913454	38.9501569435941	
2300000000	-3.97516278570323	-9.38612497041628	-8.92127197151321	115.121714514266	-8.08728663511369	115.518240783132	-3.00928020132056	37.0949017895045	
2303333333.33334	-3.81509402522348	-9.65922778299309	-8.89604537276714	113.739311629122	-8.17318146111344	114.166399597421	-2.89793726322576	35.339169423152	
2306666666.66667	-3.6673631204363	-10.02814126127	-8.89360065523108	112.352149677335	-8.26677259335967	112.845528420609	-2.77876245521848	33.7549427313574	
2310000000	-3.5385901126988	-10.5402265414036	-8.91153629772366	111.009630448676	-8.3631344524001	111.556045484747	-2.6666726647977	32.3995793360076	
2313333333.33334	-3.43216038600361	-11.1796858968427	-8.95311184970238	109.707477879986	-8.46354432092703	110.318059534538	-2.56654106291887	31.2919384530483	
2316666666.66667	-3.35041144892275	-11.9586287087248	-9.01412486682994	108.472388642839	-8.56851033741115	109.143242591936	-2.48748268243182	30.3854967555033	
2320000000	-3.28411970854423	-12.8716230582324	-9.08942762172534	107.327170772956	-8.67252306792371	108.044778030799	-2.43477809257357	29.7005217455395	
2323333333.33334	-3.23654626880576	-13.8601987890613	-9.17804558948386	106.250166590194	-8.77876449643141	107.002948194171	-2.41267361591887	29.123381897863	
2326666666.66667	-3.20491828798089	-14.9394231086291	-9.27074759680768	105.257222493976	-8.87578475184404	106.05761630985	-2.42100943159625	28.5801601163389	
2330000000	-3.18543337311389	-16.052200056167	-9.36253073261528	104.33058488873	-8.9671269326659	105.160440315511	-2.44476503806788	28.0127205281114	
2333333333.33334	-3.17209565131207	-17.1902289926882	-9.45113368983756	103.446902638261	-9.0506822014128	104.309631474435	-2.48649593379424	27.3443511118675	
2336666666.66667	-3.17129831123143	-18.3363094497199	-9.53632422475199	102.582473646804	-9.12351220709157	103.457224776556	-2.5291579198254	26.5070048087193	
2340000000	-3.18373322560839	-19.5161908262283	-9.61957784748049	101.737954740242	-9.186359113016	102.635564833059	-2.56283530388783	25.4630804720097	
2343333333.33334	-3.20583419360658	-20.7065686317077	-9.70461061153154	100.872781639953	-9.23891664079844	101.81482580479	-2.58296725953145	24.2336407642514	
2346666666.66667	-3.23765628843436	-21.910225336319	-9.79377724940445	99.9896739288674	-9.28717734586112	100.926528432283	-2.57928634128302	22.8217498711672	
2350000000	-3.28166641457289	-23.1416774863603	-9.88837091567136	99.0699329626569	-9.33183181057536	100.008051777335	-2.5544444585895	21.3061141366919	
2353333333.33334	-3.32910488129161	-24.376708749919	-9.98797560220983	98.1075643867394	-9.374445800607	99.0416187035633	-2.50317574810711	19.7310961856874	
2356666666.66667	-3.37449760236376	-25.611958422188	-10.0948242846374	97.1128916363784	-9.41866968040447	97.989558449854	-2.43584841701075	18.183045987702	
2360000000.00001	-3.42100750487274	-26.810669238159	-10.2084594617351	96.0821252659036	-9.46508953254	96.9184093965253	-2.35556451574024	16.734171591512	
