!Agilent N9923A: A.07.32
!Date: Thursday, 02 June 2016 03:32:18
!Model: N9923A
!Serial: MY52412257
!GPS Latitude: 
!GPS Longitude: 
!GPS TimeStamp: 0001-01-01 00:00:00Z
!GPS Seconds Since Last Read: 0
!CHECKSUM:0909678926
!Correction: S11(ON U)S21()S12()S22()
!S2P File: Measurements:S11,S21,S12,S22:
# Hz S DB R 50
1950000000	-1.92653517593465	30.1033552673072	0	0	0	0	0	0	
1953333333.33333	-1.95137423940601	26.3828019891285	0	0	0	0	0	0	
1956666666.66667	-1.97687374112216	22.6481822339578	0	0	0	0	0	0	
1960000000	-2.01834899738509	19.0607280831136	0	0	0	0	0	0	
1963333333.33333	-2.04020267696681	15.632917362854	0	0	0	0	0	0	
1966666666.66667	-2.04291175321289	12.1849253712833	0	0	0	0	0	0	
1970000000	-2.05038768917055	8.66115721356036	0	0	0	0	0	0	
1973333333.33333	-2.07324267712686	5.18470670368042	0	0	0	0	0	0	
1976666666.66667	-2.09424993492384	1.85351504011198	0	0	0	0	0	0	
1980000000	-2.10247296322018	-1.39949550612885	0	0	0	0	0	0	
1983333333.33333	-2.11412644059157	-4.66370230046476	0	0	0	0	0	0	
1986666666.66667	-2.12991072418485	-7.77062897566344	0	0	0	0	0	0	
1990000000	-2.13297619782855	-10.8102212514971	0	0	0	0	0	0	
1993333333.33333	-2.14873293726626	-13.9229777540452	0	0	0	0	0	0	
1996666666.66667	-2.1710492689392	-16.8958241362679	0	0	0	0	0	0	
2000000000	-2.18739473006188	-19.8097226861257	0	0	0	0	0	0	
2003333333.33333	-2.20017534539078	-22.6323013488044	0	0	0	0	0	0	
2006666666.66667	-2.19742280817562	-25.4512235730616	0	0	0	0	0	0	
2010000000	-2.20007585660735	-28.3005411521288	0	0	0	0	0	0	
2013333333.33333	-2.21481385399268	-31.0938917241396	0	0	0	0	0	0	
2016666666.66667	-2.24070520203084	-33.8491426506237	0	0	0	0	0	0	
2020000000	-2.26908890949458	-36.4931348675357	0	0	0	0	0	0	
2023333333.33333	-2.29802236464847	-39.1603418428788	0	0	0	0	0	0	
2026666666.66666	-2.33784555181047	-41.8516162816047	0	0	0	0	0	0	
2030000000	-2.38469091407671	-44.4898223696476	0	0	0	0	0	0	
2033333333.33333	-2.42859218471282	-47.093649003093	0	0	0	0	0	0	
2036666666.66666	-2.48224938986389	-49.7536988521816	0	0	0	0	0	0	
2040000000	-2.55013371033973	-52.3791108036447	0	0	0	0	0	0	
2043333333.33333	-2.62479866841846	-54.9632549236235	0	0	0	0	0	0	
2046666666.66666	-2.71977863491156	-57.5175522074457	0	0	0	0	0	0	
2050000000	-2.8136568029305	-60.0362159895818	0	0	0	0	0	0	
2053333333.33333	-2.90240114498611	-62.6500770560403	0	0	0	0	0	0	
2056666666.66666	-3.01089497288881	-65.486401078787	0	0	0	0	0	0	
2060000000	-3.16236581223475	-68.4976724627031	0	0	0	0	0	0	
2063333333.33333	-3.36005849422478	-71.480714963181	0	0	0	0	0	0	
2066666666.66666	-3.59386163376529	-74.4188072070102	0	0	0	0	0	0	
2070000000	-3.87391133388716	-77.3860160037539	0	0	0	0	0	0	
2073333333.33333	-4.21490630895526	-80.2978346636515	0	0	0	0	0	0	
2076666666.66666	-4.62416605875605	-83.2060203832036	0	0	0	0	0	0	
2080000000	-5.12901550479328	-85.8976473002112	0	0	0	0	0	0	
2083333333.33333	-5.70601933422563	-88.1749342633572	0	0	0	0	0	0	
2086666666.66666	-6.34673927471076	-90.1200211595325	0	0	0	0	0	0	
2090000000	-7.08298006087751	-92.0338645941698	0	0	0	0	0	0	
2093333333.33333	-8.06204683755708	-93.2792284553514	0	0	0	0	0	0	
2096666666.66666	-9.24492632967944	-92.7357243123958	0	0	0	0	0	0	
2100000000	-10.5693690134213	-89.3262915973756	0	0	0	0	0	0	
2103333333.33333	-11.6971412291465	-81.6922441575268	0	0	0	0	0	0	
2106666666.66666	-12.336267928366	-72.2918582473658	0	0	0	0	0	0	
2110000000	-12.501695993849	-61.1895690741351	0	0	0	0	0	0	
2113333333.33333	-11.9420666709767	-50.5655256103678	0	0	0	0	0	0	
2116666666.66666	-10.8636644573444	-43.0005513902691	0	0	0	0	0	0	
2120000000	-9.62021602506919	-39.5713659345435	0	0	0	0	0	0	
2123333333.33333	-8.63903123352659	-39.129238236836	0	0	0	0	0	0	
2126666666.66666	-7.87320954080008	-39.1410210970746	0	0	0	0	0	0	
2130000000	-7.1829702562098	-39.8065505093762	0	0	0	0	0	0	
2133333333.33333	-6.60444033810612	-40.7777986160809	0	0	0	0	0	0	
2136666666.66666	-6.08324498330775	-41.9352807019534	0	0	0	0	0	0	
2140000000	-5.59820253052818	-43.3379682268538	0	0	0	0	0	0	
2143333333.33333	-5.19765123421506	-45.2059226558091	0	0	0	0	0	0	
2146666666.66666	-4.87933062379054	-46.9577837361569	0	0	0	0	0	0	
2150000000	-4.59310059990244	-48.7012918229189	0	0	0	0	0	0	
2153333333.33333	-4.33166552898997	-50.4764342151269	0	0	0	0	0	0	
2156666666.66666	-4.10550517363795	-52.3477141928261	0	0	0	0	0	0	
2160000000	-3.92143506022969	-54.1467058234697	0	0	0	0	0	0	
2163333333.33333	-3.76624226108058	-55.9302088342559	0	0	0	0	0	0	
2166666666.66666	-3.6503892243121	-57.5523011510783	0	0	0	0	0	0	
2170000000	-3.54415308303809	-59.0022580685891	0	0	0	0	0	0	
2173333333.33333	-3.45035343304637	-60.3949097562257	0	0	0	0	0	0	
2176666666.66666	-3.36910914940913	-61.7239225595846	0	0	0	0	0	0	
2180000000	-3.29010163856474	-62.9345040605637	0	0	0	0	0	0	
2183333333.33333	-3.19315160209274	-64.2133205924776	0	0	0	0	0	0	
2186666666.66666	-3.12358947176754	-65.7007673234303	0	0	0	0	0	0	
2190000000	-3.08382531470923	-67.0061234833199	0	0	0	0	0	0	
2193333333.33333	-3.03512402891736	-68.1641746539275	0	0	0	0	0	0	
2196666666.66666	-2.97549966342325	-69.2461487678488	0	0	0	0	0	0	
2200000000	-2.91300525238849	-70.4700464843888	0	0	0	0	0	0	
2203333333.33333	-2.88056988737189	-71.7701085921975	0	0	0	0	0	0	
2206666666.66666	-2.8804091239258	-72.9371141401119	0	0	0	0	0	0	
2210000000	-2.87156811228384	-73.950815099878	0	0	0	0	0	0	
2213333333.33333	-2.85039028792452	-74.8224684528246	0	0	0	0	0	0	
2216666666.66667	-2.81554186477772	-75.8166548489331	0	0	0	0	0	0	
2220000000	-2.78971653496279	-76.8354553648249	0	0	0	0	0	0	
2223333333.33333	-2.77573492327901	-77.812362613382	0	0	0	0	0	0	
2226666666.66667	-2.75515978043583	-78.6547011680363	0	0	0	0	0	0	
2230000000	-2.72995790219615	-79.5098051943099	0	0	0	0	0	0	
2233333333.33333	-2.71051242602066	-80.3424117244524	0	0	0	0	0	0	
2236666666.66667	-2.68109308180887	-81.1439920250824	0	0	0	0	0	0	
2240000000	-2.66128068412096	-82.1412572847627	0	0	0	0	0	0	
2243333333.33333	-2.6747553779384	-83.1278118152811	0	0	0	0	0	0	
2246666666.66667	-2.69959238198248	-83.9881873580508	0	0	0	0	0	0	
2250000000	-2.71104361284816	-84.7375116871034	0	0	0	0	0	0	
2253333333.33333	-2.70795016074243	-85.4947394516561	0	0	0	0	0	0	
2256666666.66667	-2.71514632597275	-86.3008407237615	0	0	0	0	0	0	
2260000000	-2.71335364543318	-87.0651914261471	0	0	0	0	0	0	
2263333333.33333	-2.71959219983872	-87.9028608991715	0	0	0	0	0	0	
2266666666.66667	-2.74321049504861	-88.6666898910242	0	0	0	0	0	0	
2270000000	-2.75167135732681	-89.2437195148798	0	0	0	0	0	0	
2273333333.33333	-2.73536093164936	-89.9382016910673	0	0	0	0	0	0	
2276666666.66667	-2.72842946653481	-90.7603154797178	0	0	0	0	0	0	
2280000000	-2.72931581500787	-91.5938246294781	0	0	0	0	0	0	
2283333333.33333	-2.74606910844766	-92.3921665147605	0	0	0	0	0	0	
2286666666.66667	-2.75525508809327	-93.0630448413466	0	0	0	0	0	0	
2290000000	-2.75586409503141	-93.7441089210392	0	0	0	0	0	0	
2293333333.33334	-2.75971505272691	-94.4578281238628	0	0	0	0	0	0	
2296666666.66667	-2.77415797156257	-95.1401363746928	0	0	0	0	0	0	
2300000000	-2.79427163957206	-95.782949803212	0	0	0	0	0	0	
2303333333.33334	-2.81415464973571	-96.390745815331	0	0	0	0	0	0	
2306666666.66667	-2.84639226126648	-97.0429286035516	0	0	0	0	0	0	
2310000000	-2.87644423080075	-97.5207098321834	0	0	0	0	0	0	
2313333333.33334	-2.87961695186346	-98.0840399724354	0	0	0	0	0	0	
2316666666.66667	-2.89213329259573	-98.7387016120955	0	0	0	0	0	0	
2320000000	-2.91204314518457	-99.4010703349035	0	0	0	0	0	0	
2323333333.33334	-2.93751099697333	-100.066197249927	0	0	0	0	0	0	
2326666666.66667	-2.96668379711565	-100.690563789257	0	0	0	0	0	0	
2330000000	-2.99017883279871	-101.314333120426	0	0	0	0	0	0	
2333333333.33334	-3.01994318825738	-101.90912686906	0	0	0	0	0	0	
2336666666.66667	-3.0305734206935	-102.494757526198	0	0	0	0	0	0	
2340000000	-3.04224431138034	-103.184615218921	0	0	0	0	0	0	
2343333333.33334	-3.06940217596008	-103.931590780301	0	0	0	0	0	0	
2346666666.66667	-3.11338556605093	-104.660454611501	0	0	0	0	0	0	
2350000000	-3.16847430618204	-105.192168225149	0	0	0	0	0	0	
2353333333.33334	-3.19576395828236	-105.529299979326	0	0	0	0	0	0	
2356666666.66667	-3.18803732296349	-106.082837321157	0	0	0	0	0	0	
2360000000.00001	-3.22699751424801	-106.822748703635	0	0	0	0	0	0	
2363333333.33334	-3.28857283026858	-107.276334795626	0	0	0	0	0	0	
2366666666.66667	-3.31721047316314	-107.580178274378	0	0	0	0	0	0	
2370000000.00001	-3.33072611505812	-108.095634423145	0	0	0	0	0	0	
2373333333.33334	-3.37021602998624	-108.726195051505	0	0	0	0	0	0	
2376666666.66667	-3.42907270063269	-109.192795648244	0	0	0	0	0	0	
2380000000.00001	-3.45302773695305	-109.590157899949	0	0	0	0	0	0	
2383333333.33334	-3.4804566407373	-110.144379157227	0	0	0	0	0	0	
2386666666.66667	-3.51027992263641	-110.798572088633	0	0	0	0	0	0	
2390000000.00001	-3.5738010710716	-111.486023426283	0	0	0	0	0	0	
2393333333.33334	-3.64785725477689	-112.018868116031	0	0	0	0	0	0	
2396666666.66667	-3.71100488518409	-112.3922372326	0	0	0	0	0	0	
2400000000.00001	-3.73955781582699	-112.824129539864	0	0	0	0	0	0	
2403333333.33334	-3.77297829861285	-113.408467127775	0	0	0	0	0	0	
2406666666.66667	-3.82937263259026	-114.039271059136	0	0	0	0	0	0	
2410000000.00001	-3.90772982602296	-114.54573785021	0	0	0	0	0	0	
2413333333.33334	-3.97800193689913	-114.756174517284	0	0	0	0	0	0	
2416666666.66667	-3.9917442942851	-114.96492121786	0	0	0	0	0	0	
2420000000.00001	-4.00737994578531	-115.509406812204	0	0	0	0	0	0	
2423333333.33334	-4.0614471112842	-116.070798416544	0	0	0	0	0	0	
2426666666.66668	-4.12218549167666	-116.607103893072	0	0	0	0	0	0	
2430000000.00001	-4.22858961168986	-117.055872361874	0	0	0	0	0	0	
2433333333.33334	-4.33275181465967	-117.064488506	0	0	0	0	0	0	
2436666666.66668	-4.37235438044917	-117.000458515227	0	0	0	0	0	0	
2440000000.00001	-4.39569205258142	-117.217752315752	0	0	0	0	0	0	
2443333333.33334	-4.4328607664819	-117.502027214033	0	0	0	0	0	0	
2446666666.66668	-4.46705043398054	-117.994046041562	0	0	0	0	0	0	
2450000000.00001	-4.55575678146076	-118.474509802563	0	0	0	0	0	0	
2453333333.33334	-4.64633974490785	-118.624272671838	0	0	0	0	0	0	
2456666666.66668	-4.68099929468341	-118.740978889121	0	0	0	0	0	0	
2460000000.00001	-4.71609095010551	-119.238308728906	0	0	0	0	0	0	
2463333333.33334	-4.78715646747593	-119.806953645344	0	0	0	0	0	0	
2466666666.66668	-4.89693363803654	-120.227316323497	0	0	0	0	0	0	
2470000000.00001	-4.99467506406617	-120.41221495754	0	0	0	0	0	0	
2473333333.33334	-5.08950547676108	-120.444867253829	0	0	0	0	0	0	
2476666666.66668	-5.13970644531206	-120.365788740295	0	0	0	0	0	0	
2480000000.00001	-5.16039596124278	-120.419525544122	0	0	0	0	0	0	
2483333333.33334	-5.18239081380876	-120.840564132328	0	0	0	0	0	0	
2486666666.66668	-5.26610448151879	-121.235738294207	0	0	0	0	0	0	
2490000000.00001	-5.36266814234337	-121.247571279767	0	0	0	0	0	0	
2493333333.33334	-5.40887679934159	-121.135651516803	0	0	0	0	0	0	
2496666666.66668	-5.44060287497291	-121.236330497642	0	0	0	0	0	0	
2500000000.00001	-5.49082706361769	-121.47850148143	0	0	0	0	0	0	
2503333333.33335	-5.56813993377655	-121.728420568043	0	0	0	0	0	0	
2506666666.66668	-5.66733169337193	-121.78719423788	0	0	0	0	0	0	
2510000000.00001	-5.7628106744781	-121.718298415683	0	0	0	0	0	0	
2513333333.33335	-5.84652543093928	-121.403480354916	0	0	0	0	0	0	
2516666666.66668	-5.87999559289941	-121.123141472777	0	0	0	0	0	0	
2520000000.00001	-5.89599812501308	-121.088205585021	0	0	0	0	0	0	
2523333333.33335	-5.93375312013368	-121.257868896788	0	0	0	0	0	0	
2526666666.66668	-5.98804454488642	-121.246934361432	0	0	0	0	0	0	
2530000000.00001	-6.01975035072588	-121.360953607691	0	0	0	0	0	0	
2533333333.33335	-6.07572468922939	-121.493228859611	0	0	0	0	0	0	
2536666666.66668	-6.12777848443529	-121.757263112725	0	0	0	0	0	0	
2540000000.00001	-6.21824613824516	-121.794451553076	0	0	0	0	0	0	
2543333333.33335	-6.28064325641259	-121.747147617182	0	0	0	0	0	0	
2546666666.66668	-6.3615644947784	-121.738700247595	0	0	0	0	0	0	
2550000000.00001	-6.43783379065128	-121.288862428955	0	0	0	0	0	0	
2553333333.33335	-6.44214560466106	-120.944522457681	0	0	0	0	0	0	
2556666666.66668	-6.4621994946384	-120.818955325385	0	0	0	0	0	0	
2560000000.00001	-6.46545486429229	-120.630705619331	0	0	0	0	0	0	
2563333333.33335	-6.47854596813067	-120.727507732307	0	0	0	0	0	0	
2566666666.66668	-6.53225806534904	-120.745565901124	0	0	0	0	0	0	
2570000000.00002	-6.57843974868451	-120.461533673266	0	0	0	0	0	0	
2573333333.33335	-6.59533349377015	-120.328371416701	0	0	0	0	0	0	
2576666666.66668	-6.63121417006961	-120.196980926421	0	0	0	0	0	0	
2580000000.00002	-6.65326074544122	-120.044363691246	0	0	0	0	0	0	
2583333333.33335	-6.67297042742928	-119.950419848097	0	0	0	0	0	0	
2586666666.66668	-6.69200714573261	-119.984350862033	0	0	0	0	0	0	
2590000000.00002	-6.75909986787061	-120.073130720545	0	0	0	0	0	0	
2593333333.33335	-6.8353462097631	-119.68346486299	0	0	0	0	0	0	
2596666666.66668	-6.83356891889607	-119.242002164844	0	0	0	0	0	0	
2600000000.00002	-6.83840670106948	-119.133763380087	0	0	0	0	0	0	
2603333333.33335	-6.82543983011215	-118.867550466196	0	0	0	0	0	0	
2606666666.66668	-6.79049226021696	-119.070391139872	0	0	0	0	0	0	
2610000000.00002	-6.84441997055232	-119.492009936944	0	0	0	0	0	0	
2613333333.33335	-6.95762040009738	-119.230703459917	0	0	0	0	0	0	
2616666666.66668	-6.97337740790164	-118.549733556018	0	0	0	0	0	0	
2620000000.00002	-6.96122755539043	-118.217002717788	0	0	0	0	0	0	
2623333333.33335	-6.91370510968966	-117.673763295819	0	0	0	0	0	0	
2626666666.66668	-6.83627254252896	-117.93645593682	0	0	0	0	0	0	
2630000000.00002	-6.86862643917459	-118.270219713221	0	0	0	0	0	0	
2633333333.33335	-6.92491285335212	-118.119740279968	0	0	0	0	0	0	
2636666666.66669	-6.95186172473858	-117.700227712096	0	0	0	0	0	0	
2640000000.00002	-6.91606471157628	-117.19428231941	0	0	0	0	0	0	
2643333333.33335	-6.85330952602249	-117.347109280363	0	0	0	0	0	0	
2646666666.66669	-6.8837187833468	-117.513594660768	0	0	0	0	0	0	
2650000000.00002	-6.91203993547047	-117.468967363929	0	0	0	0	0	0	
2653333333.33335	-6.93051145952506	-117.2913881543	0	0	0	0	0	0	
2656666666.66669	-6.96763028894361	-117.088930894714	0	0	0	0	0	0	
2660000000.00002	-6.94994209281737	-116.613775270848	0	0	0	0	0	0	
2663333333.33335	-6.90420198035466	-116.611134364218	0	0	0	0	0	0	
2666666666.66669	-6.89952293956495	-116.767874572319	0	0	0	0	0	0	
2670000000.00002	-6.91217136885707	-116.826719336002	0	0	0	0	0	0	
2673333333.33335	-6.9509412596338	-116.816546724441	0	0	0	0	0	0	
2676666666.66669	-6.97292938106552	-116.392161716464	0	0	0	0	0	0	
2680000000.00002	-6.92321604543512	-116.156617679601	0	0	0	0	0	0	
2683333333.33335	-6.9010818147882	-116.206308679685	0	0	0	0	0	0	
2686666666.66669	-6.86410477944252	-116.10268125817	0	0	0	0	0	0	
2690000000.00002	-6.83025496510904	-116.416914446954	0	0	0	0	0	0	
2693333333.33335	-6.88193542528918	-116.552350411689	0	0	0	0	0	0	
2696666666.66669	-6.8729927937771	-116.257988060419	0	0	0	0	0	0	
2700000000.00002	-6.85105233584727	-116.339122430551	0	0	0	0	0	0	
2703333333.33335	-6.85762420420293	-116.187927641274	0	0	0	0	0	0	
2706666666.66669	-6.81537106510719	-116.250806188594	0	0	0	0	0	0	
2710000000.00002	-6.84804139930453	-116.402214441666	0	0	0	0	0	0	
2713333333.33336	-6.85270179342773	-116.119095079821	0	0	0	0	0	0	
2716666666.66669	-6.83695632421796	-116.070753502075	0	0	0	0	0	0	
2720000000.00002	-6.83035967405726	-115.951377229827	0	0	0	0	0	0	
2723333333.33336	-6.82783528344952	-115.859233141857	0	0	0	0	0	0	
2726666666.66669	-6.82198932619765	-115.855333029936	0	0	0	0	0	0	
2730000000.00002	-6.83703974700617	-115.61790545691	0	0	0	0	0	0	
2733333333.33336	-6.80581797936387	-115.478677099254	0	0	0	0	0	0	
2736666666.66669	-6.79547492654008	-115.411320272033	0	0	0	0	0	0	
2740000000.00002	-6.78061173555833	-115.29725329527	0	0	0	0	0	0	
2743333333.33336	-6.74698195097569	-115.142599782112	0	0	0	0	0	0	
2746666666.66669	-6.69692818424943	-115.293106309099	0	0	0	0	0	0	
2750000000.00002	-6.70790898664141	-115.656919572831	0	0	0	0	0	0	
2753333333.33336	-6.74714053260979	-115.536600561508	0	0	0	0	0	0	
2756666666.66669	-6.74377148487047	-115.194276989933	0	0	0	0	0	0	
2760000000.00002	-6.69275039804276	-115.129994580739	0	0	0	0	0	0	
2763333333.33336	-6.68640145436576	-115.242181447208	0	0	0	0	0	0	
2766666666.66669	-6.68835628297823	-115.101247248712	0	0	0	0	0	0	
2770000000.00002	-6.68374354494256	-114.94572675861	0	0	0	0	0	0	
2773333333.33336	-6.68106132778176	-114.599184449364	0	0	0	0	0	0	
2776666666.66669	-6.64034708203767	-113.961025316901	0	0	0	0	0	0	
2780000000.00003	-6.5400678935044	-113.497903352657	0	0	0	0	0	0	
2783333333.33336	-6.41661690982492	-113.141471021937	0	0	0	0	0	0	
2786666666.66669	-6.2780148931947	-112.946031137385	0	0	0	0	0	0	
2790000000.00003	-6.09846249005884	-112.782325522872	0	0	0	0	0	0	
2793333333.33336	-5.81742450412604	-112.834474588559	0	0	0	0	0	0	
2796666666.66669	-5.43756103236332	-114.420295117995	0	0	0	0	0	0	
2800000000.00003	-5.25469204998755	-118.108159403958	0	0	0	0	0	0	
2803333333.33336	-5.52708033708227	-121.733175787856	0	0	0	0	0	0	
2806666666.66669	-5.99065910997646	-123.05368303371	0	0	0	0	0	0	
2810000000.00003	-6.36563387471944	-122.676656106236	0	0	0	0	0	0	
2813333333.33336	-6.5534273826505	-121.571572176959	0	0	0	0	0	0	
2816666666.66669	-6.61605962021802	-120.834960398608	0	0	0	0	0	0	
2820000000.00003	-6.66287125919103	-120.313387770198	0	0	0	0	0	0	
2823333333.33336	-6.64591034762465	-119.924466235621	0	0	0	0	0	0	
2826666666.66669	-6.65435509925458	-120.071066631339	0	0	0	0	0	0	
2830000000.00003	-6.70385174605893	-119.981038284031	0	0	0	0	0	0	
2833333333.33336	-6.721771354822	-119.88223537712	0	0	0	0	0	0	
2836666666.66669	-6.745568462102	-119.820784060623	0	0	0	0	0	0	
2840000000.00003	-6.77667891699476	-119.835049818266	0	0	0	0	0	0	
2843333333.33336	-6.84586276489835	-119.757643649623	0	0	0	0	0	0	
2846666666.6667	-6.90623935220838	-119.228434882353	0	0	0	0	0	0	
2850000000.00003	-6.92093771648795	-118.527902324443	0	0	0	0	0	0	
2853333333.33336	-6.86892732973456	-117.887465394175	0	0	0	0	0	0	
2856666666.6667	-6.7876336808143	-117.664062103993	0	0	0	0	0	0	
2860000000.00003	-6.70792865852658	-117.863372156272	0	0	0	0	0	0	
2863333333.33336	-6.72943527799085	-118.367982844388	0	0	0	0	0	0	
2866666666.6667	-6.80691076773821	-118.306111596978	0	0	0	0	0	0	
2870000000.00003	-6.82630216989305	-117.908151157622	0	0	0	0	0	0	
2873333333.33336	-6.82176002419187	-117.846985251941	0	0	0	0	0	0	
2876666666.6667	-6.83671676329432	-117.674379709365	0	0	0	0	0	0	
2880000000.00003	-6.84330957424154	-117.646349176892	0	0	0	0	0	0	
2883333333.33336	-6.89070882280054	-117.566101317609	0	0	0	0	0	0	
2886666666.6667	-6.90553690345285	-117.209688474668	0	0	0	0	0	0	
2890000000.00003	-6.90457477738839	-116.928530884426	0	0	0	0	0	0	
2893333333.33336	-6.86824753165946	-116.636302151076	0	0	0	0	0	0	
2896666666.6667	-6.83411672819846	-116.778801025475	0	0	0	0	0	0	
2900000000.00003	-6.86101149713848	-116.748953175272	0	0	0	0	0	0	
2903333333.33336	-6.86071215490995	-116.53444608166	0	0	0	0	0	0	
2906666666.6667	-6.87020821302499	-116.315639155944	0	0	0	0	0	0	
2910000000.00003	-6.8576287448825	-115.882289749946	0	0	0	0	0	0	
2913333333.33336	-6.80366347913601	-115.627693823168	0	0	0	0	0	0	
2916666666.6667	-6.78909900964757	-115.676325842313	0	0	0	0	0	0	
2920000000.00003	-6.81344030580735	-115.459604860538	0	0	0	0	0	0	
2923333333.33337	-6.82160026631899	-114.977669704568	0	0	0	0	0	0	
2926666666.6667	-6.79846997017025	-114.431395430557	0	0	0	0	0	0	
2930000000.00003	-6.74470316296545	-114.04693011768	0	0	0	0	0	0	
2933333333.33337	-6.7027838613284	-113.845343112313	0	0	0	0	0	0	
2936666666.6667	-6.69961598367615	-113.692100495487	0	0	0	0	0	0	
2940000000.00003	-6.69226446439498	-113.233580681765	0	0	0	0	0	0	
