!Agilent N9923A: A.07.32
!Date: Wednesday, 01 June 2016 23:09:38
!Model: N9923A
!Serial: MY52412257
!GPS Latitude: 
!GPS Longitude: 
!GPS TimeStamp: 0001-01-01 00:00:00Z
!GPS Seconds Since Last Read: 0
!CHECKSUM:0575744058
!Correction: S11(ON U)S21(ON U)S12(ON U)S22(ON U)
!S2P File: Measurements:S11,S21,S12,S22:
# Hz S DB R 50
1950000000	-3.06327529160757	75.4218450581054	-13.1832648368983	128.969366979909	-11.5811368484404	118.585541989627	-2.229493468972	1.1327089577627	
1953333333.33333	-3.01288300271971	74.9324582918589	-13.1338591672134	128.815910147219	-11.7307643882396	117.388773138382	-2.16918610508913	0.478276870585998	
1956666666.66667	-2.99238051841136	74.3104913024901	-13.0950425458504	128.524653752323	-11.8877382098797	116.408323358155	-2.11632189660781	-0.223509744937827	
1960000000	-2.99133057620863	73.6725488402983	-13.0692556878317	128.154036035859	-12.0570494142176	115.632758782033	-2.06864587727966	-0.962195287072593	
1963333333.33333	-3.00570408763647	73.038168546691	-13.058465676524	127.649293104229	-12.2241395808215	115.071329428367	-2.02938565606807	-1.74192612654867	
1966666666.66667	-3.03747675826414	72.3984245972613	-13.0565821118052	126.982317969521	-12.3811291834496	114.822534337993	-2.0035058258637	-2.51539182921697	
1970000000	-3.0867465718033	71.7372037931084	-13.0585620573719	126.206256605194	-12.5071980726937	114.663550688918	-1.9933498062599	-3.23298791726293	
1973333333.33333	-3.15329385951205	71.027444879029	-13.0700417725137	125.320977177333	-12.5905178899417	114.429963673403	-1.9977622218516	-3.90800175386215	
1976666666.66667	-3.24412256130553	70.2539495807164	-13.0945282113996	124.40643243682	-12.6419817834898	114.001635096119	-2.01079513685115	-4.49995532351092	
1980000000	-3.3615338805067	69.3811074423227	-13.129756208041	123.442863756316	-12.6369563789507	113.345478521332	-2.03146727129403	-5.00201535410819	
1983333333.33333	-3.50086161286792	68.4109797757753	-13.1779941186821	122.429775683758	-12.5772669986212	112.383188081543	-2.04586446983619	-5.45619558920562	
1986666666.66667	-3.65116407517591	67.3591452977033	-13.2261081075494	121.445573955966	-12.4788782945484	111.044516116624	-2.04902206467133	-5.8696695866868	
1990000000	-3.78550446695368	66.2884385754241	-13.2674477705241	120.460527443546	-12.4009360531144	109.456415144945	-2.03289170949521	-6.3258536692598	
1993333333.33333	-3.89489296800945	65.2221522144613	-13.3072454386258	119.458609509764	-12.3790373686316	107.967159071865	-1.99765370538403	-6.85137538803745	
1996666666.66667	-3.97449227723448	64.2003458086259	-13.33114470798	118.485158823284	-12.4387996367857	106.66668639605	-1.94574328378226	-7.49362409178008	
2000000000	-4.03242967662146	63.2590072221359	-13.3535328445315	117.568131252008	-12.5483554511776	105.634723214787	-1.89118837096173	-8.24484845814113	
2003333333.33333	-4.06404340918697	62.4553565224127	-13.3693382581923	116.743991762553	-12.6772077021758	105.019012361647	-1.84637302901044	-9.0753216459332	
2006666666.66667	-4.07168664947382	61.8201945253957	-13.374740133374	116.000199385689	-12.7750375539988	104.818957124463	-1.81628022155364	-9.95785790267145	
2010000000	-4.04821085023339	61.3492321905196	-13.370086904203	115.420485539055	-12.7898086578571	104.960613602055	-1.80355318861712	-10.8691313980903	
2013333333.33333	-3.9933801282445	61.0957895547948	-13.357407678544	114.985375231209	-12.715315776078	105.278823850571	-1.81535643882672	-11.7589314331757	
2016666666.66667	-3.89934483984445	61.003989438925	-13.3358102057285	114.703152950458	-12.5503590615488	105.72398081237	-1.84977700616127	-12.6155977838623	
2020000000	-3.77862287935813	61.0463425004514	-13.2994539216385	114.563197883373	-12.3082836618554	106.156590877115	-1.90546557250792	-13.3828284598957	
2023333333.33333	-3.63261250804305	61.117875368001	-13.2520726560074	114.441554674608	-12.0181811876907	106.339255915453	-1.97280264803585	-14.049158424445	
2026666666.66666	-3.46735954873628	61.2051819072755	-13.1869055171922	114.392427248876	-11.7298960071012	106.200066225279	-2.05640790001394	-14.5841870091173	
2030000000	-3.30044682040402	61.2261990125626	-13.1126013718264	114.424837730117	-11.4838613602283	105.731365683611	-2.13686771629611	-14.9779915414236	
2033333333.33333	-3.15573279245831	61.0751072414408	-13.0342781433413	114.428604213906	-11.3063684271544	104.835926513538	-2.20096798012783	-15.2744985330798	
2036666666.66666	-3.05929404771398	60.6924790247657	-12.9587008707187	114.380488100016	-11.2103105728684	103.600797592425	-2.22869527585255	-15.5477286714077	
2040000000	-3.0060021688643	60.1362461408326	-12.8809373203156	114.227419476373	-11.1894265880651	102.158347769532	-2.22175646069989	-15.8900486979807	
2043333333.33333	-2.98106438104285	59.4764039201734	-12.8061142636841	114.015194338012	-11.2209015157759	100.660422166153	-2.18097864221675	-16.3398577133598	
2046666666.66666	-2.97117762374164	58.7753534924564	-12.7438343582869	113.718612654858	-11.2807835576821	99.213322693263	-2.12371638663362	-16.8920718379051	
2050000000	-2.96081086409946	58.1482966600474	-12.6996127290988	113.361183479646	-11.37360107011	97.8733670867641	-2.05724719534355	-17.5326606683901	
2053333333.33333	-2.95434742974763	57.5798537919458	-12.6724032648732	112.944187584947	-11.5310937195984	96.6740947555917	-1.98674285254845	-18.2173414818471	
2056666666.66666	-2.95125608632799	57.0627561065771	-12.6547838397205	112.378081522796	-11.7440294708528	95.6099914619481	-1.92158595413103	-18.9659629290627	
2060000000	-2.96299899071369	56.5205521289423	-12.635335449394	111.657795753506	-11.9739638702071	94.8677270990879	-1.86148858321448	-19.7289482871542	
2063333333.33333	-2.99186651901659	55.9361445427317	-12.6230663831419	110.767994582277	-12.1848893765039	94.3556964538657	-1.81918306934666	-20.499064857279	
2066666666.66666	-3.04527447850608	55.258257582765	-12.621765599307	109.740300280097	-12.3369945866136	93.9763638551804	-1.79082686051092	-21.2240719603521	
2070000000	-3.1238877023787	54.5073869305318	-12.6332498084861	108.571622488643	-12.4004805925202	93.6934103393271	-1.78644979831468	-21.9216764424089	
2073333333.33333	-3.23300576265632	53.6593557292831	-12.669473532632	107.353557103091	-12.3885706405436	93.4015986440836	-1.80846809445249	-22.5647567338345	
2076666666.66666	-3.37015239528802	52.7386809133453	-12.7268134444837	106.110085639747	-12.3132303987239	93.0390569897441	-1.84708216973651	-23.1318613667787	
2080000000	-3.52724119462487	51.7370489640193	-12.7940892579409	104.899247860115	-12.2103463753174	92.4805567851994	-1.89376002148188	-23.6521107161365	
2083333333.33333	-3.68564010185269	50.6912430984752	-12.8685168518734	103.739598690682	-12.1360997851789	91.6176783789061	-1.94086228694551	-24.1324053222084	
2086666666.66666	-3.84016764761194	49.5975792719232	-12.945891194898	102.625412096494	-12.1126075456753	90.633184225996	-1.97888794096873	-24.6313794981147	
2090000000	-3.97673100666375	48.518986737667	-13.0132667319469	101.643979992452	-12.1482755399662	89.6766342906015	-1.99490493844491	-25.1536319850705	
2093333333.33333	-4.08262683731946	47.5144065705239	-13.0662471384685	100.748679099598	-12.2313173448927	88.8327787409659	-1.99208348470522	-25.7454397935171	
2096666666.66666	-4.15290509085232	46.637768165676	-13.0984359040382	99.9627483729841	-12.3255987774146	88.1014365362106	-1.97692245289769	-26.4198193900459	
2100000000	-4.17543178747246	45.9573017760527	-13.1128350462774	99.2819511269297	-12.3965937585393	87.5732991465719	-1.96028744740009	-27.1715956608486	
2103333333.33333	-4.14396072829888	45.5074440405304	-13.1066581348529	98.7971262730652	-12.3987240350642	87.2668215448867	-1.94596754604512	-27.9551538234959	
2106666666.66666	-4.06675735593992	45.2942608552254	-13.0885285945983	98.4925679372979	-12.3027700853382	86.9952745522885	-1.94483195024045	-28.7393138083492	
2110000000	-3.94800945105003	45.247126551878	-13.0599089190148	98.378495941996	-12.155541575185	86.796585830983	-1.95610075362602	-29.5175754465228	
2113333333.33333	-3.80267984232875	45.2804625324062	-13.0180921397576	98.3600575117039	-11.9752163448906	86.7266192837268	-1.97467496374493	-30.2698135182801	
2116666666.66666	-3.65118503753953	45.2761331319016	-12.9708920101501	98.4031204584876	-11.7835871690692	86.5973927386237	-2.0047141055947	-30.9919436258914	
2120000000	-3.50179635031453	45.2107753883577	-12.9114606204383	98.4948747988924	-11.6099047082538	86.2498587365309	-2.03833159852913	-31.672739454817	
2123333333.33333	-3.36716240657626	45.0320235363652	-12.8392609471344	98.5700269490019	-11.4725037631255	85.681904159722	-2.073023618468	-32.3193327155813	
2126666666.66666	-3.25451723644467	44.7330073298868	-12.7543203827622	98.6068569162878	-11.3811972223542	84.8720246231295	-2.10519120508032	-32.913939001526	
2130000000	-3.17950438005853	44.2888071181272	-12.6653390335757	98.5871836560967	-11.3489444079256	83.8115644628631	-2.12538216857084	-33.468432667583	
2133333333.33333	-3.13718955899083	43.7033690787083	-12.5712941445857	98.4156114829975	-11.3731715541745	82.5580619271647	-2.12249352717451	-34.0211002030995	
2136666666.66666	-3.11730701386958	43.0622134232945	-12.4772597958198	98.1515482674792	-11.4324149879105	81.3084682406403	-2.09645513097928	-34.5940742954428	
2140000000	-3.10570069944022	42.4338715471186	-12.3881425079357	97.8008518034113	-11.5073524584993	80.1206358892681	-2.05443692300415	-35.2011934671636	
2143333333.33333	-3.09801803729086	41.8392436457573	-12.3068447518638	97.372851518906	-11.6006631874547	79.0732634723596	-2.00228247666579	-35.8230921449981	
2146666666.66666	-3.09245128898746	41.2677259006779	-12.2360178578299	96.8180730939632	-11.7056340976584	78.2177958576418	-1.94472791447151	-36.5100340701465	
2150000000	-3.09032941890795	40.7305916595225	-12.1755293534298	96.1080031670864	-11.8293345720079	77.5609749872758	-1.89765725449101	-37.2244174420066	
2153333333.33333	-3.09586155643152	40.2100250245856	-12.1351509633226	95.2796388886954	-11.9439743300434	77.0865956050708	-1.85807211366243	-37.8975487826139	
2156666666.66666	-3.11010676808405	39.6802941593425	-12.1087220609382	94.3452899061374	-12.0136553721167	76.7294932811394	-1.83286473935024	-38.5765629752489	
2160000000	-3.1332792720277	39.1453534610457	-12.0991673871016	93.3074332396426	-12.0355906036885	76.2529832713591	-1.82108662327641	-39.2015154157172	
2163333333.33333	-3.16676829922471	38.5959121041907	-12.1074854380076	92.1995945390056	-12.0118902766123	75.5829769138928	-1.81877424813122	-39.7995208020039	
2166666666.66666	-3.21246115145393	37.9944925283244	-12.13704506422	91.0993754407577	-11.9615339147427	74.7038714057086	-1.82934651020082	-40.3659488961487	
2170000000	-3.2751053626646	37.3652235324603	-12.1848158528943	89.956460130405	-11.9140521772068	73.7997524167018	-1.85672519384133	-40.9168342704981	
2173333333.33333	-3.36125020269246	36.6475325863656	-12.2494607065319	88.7875112466599	-11.8804929181676	72.8366074408451	-1.88976034899547	-41.459334012776	
2176666666.66666	-3.47746780474603	35.82641581864	-12.3256332344905	87.6077312064276	-11.8751267649042	71.8394486640232	-1.93162428291827	-41.9728433385477	
2180000000	-3.62677090335336	34.8623388705056	-12.4100602817341	86.4425474974376	-11.905554909164	70.8400730904643	-1.9683099550198	-42.4945672284683	
2183333333.33333	-3.78389794121834	33.8081355471326	-12.4953501982318	85.33525286453	-11.9741104857331	69.9197243074814	-1.9960605426428	-43.0087560596847	
2186666666.66666	-3.92338412256478	32.7646205244929	-12.5670779868569	84.3338213343315	-12.0808963408866	69.1805982251736	-2.0024722693444	-43.5566913374199	
2190000000	-4.01759555398011	31.8591155608758	-12.6198677271129	83.4685341782386	-12.2036790702656	68.6805759309456	-1.99870766370246	-44.1860056277842	
2193333333.33333	-4.05240109949452	31.1759086478781	-12.6517623801941	82.7986074405884	-12.2906454468629	68.5274975005265	-1.99186078932859	-44.859954692151	
2196666666.66666	-4.03473925988629	30.7430761237625	-12.6659503520374	82.3172378458377	-12.3126272550354	68.6543076198176	-1.99078570080556	-45.5691158855867	
2200000000	-3.97007773622689	30.4687700179499	-12.6710430591109	82.022122422403	-12.2314891781585	68.8907344680608	-1.99959689411491	-46.3201096222962	
2203333333.33333	-3.8738556122721	30.3190487335259	-12.6649093673503	81.8559868400513	-12.0691253799539	69.081012778381	-2.01523404073199	-47.0810149532659	
2206666666.66666	-3.75736860271215	30.1917577878906	-12.6520271959624	81.8338798210086	-11.8695371655989	69.1434909641743	-2.03137181931225	-47.8481373913689	
2210000000	-3.63519121939291	30.0521071287823	-12.6296176594238	81.8605113632463	-11.6429614513091	68.9278935402981	-2.05514525145402	-48.6165721716695	
2213333333.33333	-3.51259040670611	29.8752919164492	-12.5940690781438	81.9728085568717	-11.4296491247766	68.3192882145852	-2.0806021933469	-49.3797004486272	
2216666666.66667	-3.40378490985083	29.5442057945025	-12.5487491408097	82.1331658940638	-11.26017647061	67.3470210217005	-2.10353594984716	-50.1493845887059	
2220000000	-3.31082336255728	29.1122299485948	-12.4843277016076	82.2971977844014	-11.157939707092	66.1397357276459	-2.11773935779118	-50.8694286190421	
2223333333.33333	-3.24055177576042	28.5682480610043	-12.4061647652167	82.4347500611741	-11.1272637518715	64.6925420300089	-2.12125026911507	-51.5873261175321	
2226666666.66667	-3.19123031894192	27.9504349465299	-12.311913286216	82.5083891422972	-11.1601355330855	63.133767356254	-2.10705219572929	-52.2856394838097	
2230000000	-3.15767309284925	27.3064520372427	-12.2076546050802	82.4515578655352	-11.2300476017543	61.6029935478783	-2.0792825634897	-52.9552247459782	
2233333333.33333	-3.14235625817418	26.6337360468891	-12.1004634476258	82.2444684766148	-11.3311693415901	60.1570671571339	-2.04378065649742	-53.6274102193685	
2236666666.66667	-3.13893959321786	25.9725428857676	-11.9921745930371	81.8613085808918	-11.4640501916797	58.8691752537216	-2.00039853356195	-54.3145104815261	
2240000000	-3.14845738696697	25.3299681954333	-11.8904168971588	81.2982263120568	-11.6496716831259	57.8167513349594	-1.95316250119413	-55.0255271966361	
2243333333.33333	-3.1677897885537	24.7266396497508	-11.7984270179198	80.5391863098084	-11.8832680801755	57.1354912235782	-1.90432190972774	-55.7866561884833	
2246666666.66667	-3.19523569733303	24.137117546636	-11.7201934854112	79.6234936968882	-12.1131722293059	56.9158941683475	-1.87232421258724	-56.5885268990039	
2250000000	-3.22746024007197	23.572286596264	-11.6593812395201	78.5365434680249	-12.2544836020159	57.0315267880032	-1.8534701575684	-57.3639454408834	
2253333333.33333	-3.26509322202557	23.0150041052744	-11.6224596208159	77.3528426093774	-12.2788815307946	57.2291614176183	-1.85992532853068	-58.0681834477659	
2256666666.66667	-3.30361231186525	22.4940215752747	-11.6149809722243	76.1238589284939	-12.1777683016269	57.2769602428331	-1.88543523577751	-58.689460498505	
2260000000	-3.34603947487436	21.9650957125377	-11.6337880983607	74.8741969083375	-11.9913628248168	56.9161137688443	-1.92939545553554	-59.2233069263631	
2263333333.33333	-3.38683589314747	21.4414852782415	-11.6729110242396	73.675977207765	-11.7911062988237	56.2979178793465	-1.98659385009952	-59.654705788324	
2266666666.66667	-3.42571820755539	20.9236371347744	-11.7338776583845	72.5945364357519	-11.6164125086201	55.4849591765546	-2.0500534861981	-60.0011151169481	
2270000000	-3.4766276859829	20.361042860673	-11.8049037198582	71.5608667338572	-11.487074155902	54.4272707243251	-2.11193029535016	-60.2611850423638	
2273333333.33333	-3.54072690717088	19.710651297555	-11.8795320946419	70.5752397548651	-11.4245449367107	53.2041811196142	-2.15363350517792	-60.4815297317736	
2276666666.66667	-3.62912840137054	18.9404806437052	-11.9512601643449	69.5752743709838	-11.433623555475	51.9251596631632	-2.16834640897965	-60.7432716125159	
2280000000	-3.7205340195798	18.1144477075608	-12.0104939155346	68.6031109661267	-11.4974842141531	50.76913139526	-2.15835337829279	-61.0848184980186	
2283333333.33333	-3.78221387550954	17.3418314606841	-12.0652929520035	67.725418814713	-11.6181440206758	49.8061723857447	-2.13101539778353	-61.5708255164274	
2286666666.66667	-3.81610991923417	16.6411844881637	-12.0941342775552	66.9634500509439	-11.7548129731114	49.1468112266868	-2.1027822350177	-62.1932886778428	
2290000000	-3.81145887157511	16.0718903181979	-12.1109497789867	66.3697886875733	-11.8524585160572	48.8046708071324	-2.08135904958106	-62.9290551807379	
2293333333.33334	-3.76882408845306	15.6187000372906	-12.1216166758685	65.9287676366995	-11.8961419475421	48.7288457285367	-2.07134205491049	-63.7528176228275	
2296666666.66667	-3.69793306278958	15.2687216595911	-12.1331841872197	65.632168276463	-11.8727319084705	48.9509812404514	-2.0716941005884	-64.6346834142089	
2300000000	-3.61748281540211	14.9499434920047	-12.1387712212674	65.468973064381	-11.7839083488761	49.3128838638503	-2.08127183357081	-65.5802701504387	
2303333333.33334	-3.53051801401946	14.6286779155111	-12.1467052541841	65.3790755679568	-11.6195777902154	49.7076772751258	-2.10299645342546	-66.5397201708503	
2306666666.66667	-3.44566116372878	14.3140600518502	-12.1440093066343	65.3843554864235	-11.3992786194172	49.8874837421995	-2.13816931178604	-67.4908090169302	
2310000000	-3.36079161743504	13.9554476106527	-12.1340926672908	65.51665771793	-11.1572005081979	49.6048872398008	-2.17809064050594	-68.3883178550848	
2313333333.33334	-3.2865036882046	13.5181958754583	-12.1069918042091	65.7039803816155	-10.9430628190432	48.823532190648	-2.22105640270836	-69.2223319386279	
2316666666.66667	-3.22876012648268	12.9499717542998	-12.056578001234	65.9326371907667	-10.7989939494826	47.5957678484021	-2.25511822575224	-69.9787482540853	
2320000000	-3.18318681158011	12.3195560445966	-11.9843721136228	66.1194469715313	-10.7300963678983	46.0637498264431	-2.27024714708285	-70.6813197822084	
2323333333.33334	-3.15557323003457	11.6206931104582	-11.8929082005267	66.2372137252662	-10.7329436283243	44.3741736636735	-2.26197642907924	-71.365878255146	
2326666666.66667	-3.14418436245476	10.9084483459156	-11.7928891367096	66.2178919248118	-10.7806116213817	42.7405815789133	-2.23951825681055	-72.0524260814166	
2330000000	-3.14593509752769	10.2119235539927	-11.6898027152525	65.9848853108478	-10.8587558630943	41.2123287905423	-2.20827480923924	-72.7676183397093	
2333333333.33334	-3.15714277357587	9.51105892881062	-11.5873360872439	65.5924294661579	-10.9819594675313	39.7889353272283	-2.170234866821	-73.4911798641934	
2336666666.66667	-3.17913866388054	8.85918653203705	-11.4906083857982	64.9866302962554	-11.1689579531987	38.5542122014381	-2.12619038818082	-74.2547525689594	
2340000000	-3.21043781876347	8.24014514400946	-11.399811976888	64.1955999376674	-11.3968980601032	37.6429061870205	-2.08525255758924	-75.0474223202212	
2343333333.33334	-3.24553647387511	7.64804651300368	-11.320069035951	63.2592226950786	-11.6302708019969	37.1279769673355	-2.0573849504529	-75.8270763967976	
2346666666.66667	-3.2869232758062	7.08875125241784	-11.2579949254609	62.1263884500331	-11.8211570405533	37.0559630629936	-2.04337605605166	-76.5798435941679	
2350000000	-3.33088962019071	6.54516052553091	-11.2158295751273	60.9036660858845	-11.9252842341035	37.280339675306	-2.04900809823742	-77.2504911906141	
2353333333.33334	-3.38223368722126	5.99912943640078	-11.203851293106	59.5850566939807	-11.9119856576752	37.5278782970088	-2.07425513811314	-77.8310726388695	
2356666666.66667	-3.43040647331209	5.48155400527115	-11.213554371181	58.2901225693026	-11.7965664831564	37.597542767803	-2.12254314077557	-78.290552177549	
2360000000.00001	-3.47714363672101	4.97531746767697	-11.2518958265517	57.0634699766704	-11.6195156908928	37.3606834702218	-2.18556411960022	-78.6045273704869	
2363333333.33334	-3.5170867260661	4.46136475844265	-11.3011251424758	55.9310543586483	-11.4307836162973	36.7695336085	-2.26008981074778	-78.801322524373	
