!Agilent N9923A: A.07.32
!Date: Thursday, 02 June 2016 03:37:35
!Model: N9923A
!Serial: MY52412257
!GPS Latitude: 
!GPS Longitude: 
!GPS TimeStamp: 0001-01-01 00:00:00Z
!GPS Seconds Since Last Read: 0
!CHECKSUM:1479734416
!Correction: S11(ON U)S21()S12()S22()
!S2P File: Measurements:S11,S21,S12,S22:
# Hz S DB R 50
1950000000	-1.64161264823076	30.9044844729693	0	0	0	0	0	0	
1953333333.33333	-1.66198461128435	27.7981135259711	0	0	0	0	0	0	
1956666666.66667	-1.68502969855617	24.8227800338973	0	0	0	0	0	0	
1960000000	-1.688934781266	21.936798484701	0	0	0	0	0	0	
1963333333.33333	-1.69273573610363	18.9992384101616	0	0	0	0	0	0	
1966666666.66667	-1.70206798977892	16.0762669978907	0	0	0	0	0	0	
1970000000	-1.71969064400583	13.1982199354127	0	0	0	0	0	0	
1973333333.33333	-1.74607584728457	10.415630313032	0	0	0	0	0	0	
1976666666.66667	-1.76147930631368	7.75297571102229	0	0	0	0	0	0	
1980000000	-1.76364208720834	5.1257327695856	0	0	0	0	0	0	
1983333333.33333	-1.77031378882618	2.54925059648099	0	0	0	0	0	0	
1986666666.66667	-1.76526126657613	0.0356573407857542	0	0	0	0	0	0	
1990000000	-1.7635859939213	-2.40376504789113	0	0	0	0	0	0	
1993333333.33333	-1.76493996017881	-4.88587819940911	0	0	0	0	0	0	
1996666666.66667	-1.76654989760209	-7.28143271319131	0	0	0	0	0	0	
2000000000	-1.76935890848016	-9.59988945879882	0	0	0	0	0	0	
2003333333.33333	-1.77520607244532	-11.8801217983526	0	0	0	0	0	0	
2006666666.66667	-1.77200711732178	-14.0474951285575	0	0	0	0	0	0	
2010000000	-1.76804540619853	-16.1954744125307	0	0	0	0	0	0	
2013333333.33333	-1.76567190718204	-18.2247409713745	0	0	0	0	0	0	
2016666666.66667	-1.75552714648122	-20.2299554244665	0	0	0	0	0	0	
2020000000	-1.7520025557061	-22.2291065497748	0	0	0	0	0	0	
2023333333.33333	-1.75936589158094	-24.1995874188713	0	0	0	0	0	0	
2026666666.66666	-1.77157350654403	-26.0929580705479	0	0	0	0	0	0	
2030000000	-1.77352308282941	-27.9444864576819	0	0	0	0	0	0	
2033333333.33333	-1.77882533425226	-29.7946045435273	0	0	0	0	0	0	
2036666666.66666	-1.78621795938589	-31.6034631818845	0	0	0	0	0	0	
2040000000	-1.79175293658724	-33.3571578173418	0	0	0	0	0	0	
2043333333.33333	-1.80021665559798	-35.0302331156885	0	0	0	0	0	0	
2046666666.66666	-1.80255975480293	-36.5882452421954	0	0	0	0	0	0	
2050000000	-1.79312327884132	-38.1606650223178	0	0	0	0	0	0	
2053333333.33333	-1.78173519086445	-39.804504345419	0	0	0	0	0	0	
2056666666.66666	-1.78575008402274	-41.4519999759012	0	0	0	0	0	0	
2060000000	-1.7945060175021	-43.0818138994587	0	0	0	0	0	0	
2063333333.33333	-1.80040218863598	-44.6688902450149	0	0	0	0	0	0	
2066666666.66666	-1.80344537800897	-46.2388404261263	0	0	0	0	0	0	
2070000000	-1.81385703348055	-47.8009194625137	0	0	0	0	0	0	
2073333333.33333	-1.83403251909614	-49.2508170325977	0	0	0	0	0	0	
2076666666.66666	-1.84863173715848	-50.7025756076293	0	0	0	0	0	0	
2080000000	-1.86948100548698	-52.1297090688789	0	0	0	0	0	0	
2083333333.33333	-1.89543865147536	-53.5458332478111	0	0	0	0	0	0	
2086666666.66666	-1.92074705770821	-54.9114104743277	0	0	0	0	0	0	
2090000000	-1.93941147449789	-56.2901116134129	0	0	0	0	0	0	
2093333333.33333	-1.96470379835609	-57.7169840222411	0	0	0	0	0	0	
2096666666.66666	-1.99897909501976	-59.1084855630312	0	0	0	0	0	0	
2100000000	-2.03598321104906	-60.4402720340263	0	0	0	0	0	0	
2103333333.33333	-2.06906730034275	-61.7317282655821	0	0	0	0	0	0	
2106666666.66666	-2.1071626429395	-63.0731030499107	0	0	0	0	0	0	
2110000000	-2.15961276866659	-64.3737148813415	0	0	0	0	0	0	
2113333333.33333	-2.22087998503498	-65.6942695304988	0	0	0	0	0	0	
2116666666.66666	-2.29897159123402	-67.0714329493756	0	0	0	0	0	0	
2120000000	-2.40552348752504	-68.3566594625523	0	0	0	0	0	0	
2123333333.33333	-2.5198846810995	-69.5067954148569	0	0	0	0	0	0	
2126666666.66666	-2.63526958240765	-70.5896811353807	0	0	0	0	0	0	
2130000000	-2.76085605610075	-71.5759294426981	0	0	0	0	0	0	
2133333333.33333	-2.90129334742233	-72.5130038868143	0	0	0	0	0	0	
2136666666.66666	-3.06268791828832	-73.2511117261137	0	0	0	0	0	0	
2140000000	-3.22966585984414	-73.8076374154541	0	0	0	0	0	0	
2143333333.33333	-3.39777691424942	-74.1925495906958	0	0	0	0	0	0	
2146666666.66666	-3.56769965449391	-74.4357714260343	0	0	0	0	0	0	
2150000000	-3.74709879806974	-74.3151034678476	0	0	0	0	0	0	
2153333333.33333	-3.87810898380909	-73.7365589114712	0	0	0	0	0	0	
2156666666.66666	-3.94008776221037	-73.1904637906515	0	0	0	0	0	0	
2160000000	-3.98052290626356	-72.5450160373554	0	0	0	0	0	0	
2163333333.33333	-3.97210937308525	-71.8203252425781	0	0	0	0	0	0	
2166666666.66666	-3.91038823144712	-71.124729357114	0	0	0	0	0	0	
2170000000	-3.7956710380448	-70.7505896015854	0	0	0	0	0	0	
2173333333.33333	-3.69319190293196	-70.6888362996688	0	0	0	0	0	0	
2176666666.66666	-3.59771587659257	-70.7235568810198	0	0	0	0	0	0	
2180000000	-3.50506564450312	-70.8126526845251	0	0	0	0	0	0	
2183333333.33333	-3.39835831390297	-71.0068495437548	0	0	0	0	0	0	
2186666666.66666	-3.28776547532436	-71.3920789174506	0	0	0	0	0	0	
2190000000	-3.18715640919788	-71.8947637689158	0	0	0	0	0	0	
2193333333.33333	-3.0935658337102	-72.3811810487153	0	0	0	0	0	0	
2196666666.66666	-2.9789193308242	-73.0020435119284	0	0	0	0	0	0	
2200000000	-2.88840324614342	-73.9016922179306	0	0	0	0	0	0	
2203333333.33333	-2.84683948422921	-74.799361014785	0	0	0	0	0	0	
2206666666.66666	-2.82018605824267	-75.5542871091124	0	0	0	0	0	0	
2210000000	-2.77680911292831	-76.241478008776	0	0	0	0	0	0	
2213333333.33333	-2.73595316712312	-76.9777291224159	0	0	0	0	0	0	
2216666666.66667	-2.70210940472328	-77.7542381965968	0	0	0	0	0	0	
2220000000	-2.66460267739149	-78.4643198480254	0	0	0	0	0	0	
2223333333.33333	-2.62547138585723	-79.2112128257186	0	0	0	0	0	0	
2226666666.66667	-2.59170226047532	-79.9229823737743	0	0	0	0	0	0	
2230000000	-2.55816368317691	-80.5897024889707	0	0	0	0	0	0	
2233333333.33333	-2.52003910627903	-81.2851941168241	0	0	0	0	0	0	
2236666666.66667	-2.49733110778815	-82.0377204852859	0	0	0	0	0	0	
2240000000	-2.49114532216103	-82.7579369400879	0	0	0	0	0	0	
2243333333.33333	-2.48643089092466	-83.4845746862777	0	0	0	0	0	0	
2246666666.66667	-2.49660811421407	-84.1955573173694	0	0	0	0	0	0	
2250000000	-2.50142746258815	-84.8285310348281	0	0	0	0	0	0	
2253333333.33333	-2.49224377718501	-85.473031840367	0	0	0	0	0	0	
2256666666.66667	-2.48394399038824	-86.1798842368253	0	0	0	0	0	0	
2260000000	-2.48337098528371	-86.9501179958113	0	0	0	0	0	0	
2263333333.33333	-2.50715067116203	-87.7250856422646	0	0	0	0	0	0	
2266666666.66667	-2.53695874889262	-88.3263356920008	0	0	0	0	0	0	
2270000000	-2.54427542124282	-88.8730490743448	0	0	0	0	0	0	
2273333333.33333	-2.54075043006448	-89.4152579359639	0	0	0	0	0	0	
2276666666.66667	-2.5144056167901	-90.0539241686547	0	0	0	0	0	0	
2280000000	-2.50053581427743	-90.8877848609649	0	0	0	0	0	0	
2283333333.33333	-2.50932548450891	-91.741361320203	0	0	0	0	0	0	
2286666666.66667	-2.53332859734122	-92.4580793822197	0	0	0	0	0	0	
2290000000	-2.55406079554406	-93.0181416929076	0	0	0	0	0	0	
2293333333.33334	-2.55269845699982	-93.5192983640398	0	0	0	0	0	0	
2296666666.66667	-2.5577895866935	-94.1087843347336	0	0	0	0	0	0	
2300000000	-2.56945367535788	-94.6568669293196	0	0	0	0	0	0	
2303333333.33334	-2.59263684876429	-95.2333620146443	0	0	0	0	0	0	
2306666666.66667	-2.62782824767541	-95.7056368868168	0	0	0	0	0	0	
2310000000	-2.64090784401195	-96.1400347605304	0	0	0	0	0	0	
2313333333.33334	-2.65834947528572	-96.6982925336904	0	0	0	0	0	0	
2316666666.66667	-2.68036900957734	-97.2425937203523	0	0	0	0	0	0	
2320000000	-2.70207273804538	-97.815402743852	0	0	0	0	0	0	
2323333333.33334	-2.73645568654626	-98.4165504794483	0	0	0	0	0	0	
2326666666.66667	-2.77261062164032	-98.9493949197496	0	0	0	0	0	0	
2330000000	-2.79603995194846	-99.4808978893635	0	0	0	0	0	0	
2333333333.33334	-2.81989209078894	-100.093143524618	0	0	0	0	0	0	
2336666666.66667	-2.84658911914357	-100.676538318202	0	0	0	0	0	0	
2340000000	-2.87365779046604	-101.33997888209	0	0	0	0	0	0	
2343333333.33334	-2.91284188369114	-101.910658283622	0	0	0	0	0	0	
2346666666.66667	-2.94280956549714	-102.440473364308	0	0	0	0	0	0	
2350000000	-2.96969232782543	-102.934403254763	0	0	0	0	0	0	
2353333333.33334	-2.98784029035819	-103.438303735027	0	0	0	0	0	0	
2356666666.66667	-3.01255848221849	-103.93227451858	0	0	0	0	0	0	
2360000000.00001	-3.03655395411349	-104.416266235607	0	0	0	0	0	0	
2363333333.33334	-3.06860061324741	-104.876529019114	0	0	0	0	0	0	
2366666666.66667	-3.1018914624492	-105.304459199535	0	0	0	0	0	0	
2370000000.00001	-3.14014295477943	-105.806928010975	0	0	0	0	0	0	
2373333333.33334	-3.2001788618515	-106.253798668866	0	0	0	0	0	0	
2376666666.66667	-3.24885386098949	-106.518475850551	0	0	0	0	0	0	
2380000000.00001	-3.27141336777778	-106.911402938015	0	0	0	0	0	0	
2383333333.33334	-3.31077851192786	-107.422151814335	0	0	0	0	0	0	
2386666666.66667	-3.36667324877739	-107.927086117132	0	0	0	0	0	0	
2390000000.00001	-3.41831333000422	-108.38606388919	0	0	0	0	0	0	
2393333333.33334	-3.47373401758133	-108.851236993806	0	0	0	0	0	0	
2396666666.66667	-3.52797859971181	-109.277201796651	0	0	0	0	0	0	
2400000000.00001	-3.56676149184022	-109.667531656356	0	0	0	0	0	0	
2403333333.33334	-3.6034233044933	-110.175419805429	0	0	0	0	0	0	
2406666666.66667	-3.65503351770213	-110.680959408411	0	0	0	0	0	0	
2410000000.00001	-3.70325033003809	-111.036080813169	0	0	0	0	0	0	
2413333333.33334	-3.73892657935539	-111.404019632666	0	0	0	0	0	0	
2416666666.66667	-3.76919888215458	-111.8020777153	0	0	0	0	0	0	
2420000000.00001	-3.80893425972125	-112.1845797916	0	0	0	0	0	0	
2423333333.33334	-3.84384042095239	-112.624346302454	0	0	0	0	0	0	
2426666666.66668	-3.91724447032633	-113.103220302764	0	0	0	0	0	0	
2430000000.00001	-4.01191741307664	-113.335691331079	0	0	0	0	0	0	
2433333333.33334	-4.08543779954482	-113.305927998237	0	0	0	0	0	0	
2436666666.66668	-4.12624890320839	-113.375763403767	0	0	0	0	0	0	
2440000000.00001	-4.16684712271157	-113.563761009701	0	0	0	0	0	0	
2443333333.33334	-4.21265738182628	-113.871745846481	0	0	0	0	0	0	
2446666666.66668	-4.27798827820436	-114.203373190966	0	0	0	0	0	0	
2450000000.00001	-4.36092876101027	-114.534703308974	0	0	0	0	0	0	
2453333333.33334	-4.45094244614698	-114.642935328914	0	0	0	0	0	0	
2456666666.66668	-4.49590753861384	-114.723831585524	0	0	0	0	0	0	
2460000000.00001	-4.52591580298724	-115.03175884998	0	0	0	0	0	0	
2463333333.33334	-4.56973274243834	-115.536196995625	0	0	0	0	0	0	
2466666666.66668	-4.64643626107635	-116.072329114157	0	0	0	0	0	0	
2470000000.00001	-4.74350290267819	-116.414419901099	0	0	0	0	0	0	
2473333333.33334	-4.83115881014989	-116.593890029145	0	0	0	0	0	0	
2476666666.66668	-4.90589023995429	-116.660514443341	0	0	0	0	0	0	
2480000000.00001	-4.94859279053524	-116.590314195551	0	0	0	0	0	0	
2483333333.33334	-4.97495294040205	-116.789536435474	0	0	0	0	0	0	
2486666666.66668	-5.0317272551208	-116.957188691733	0	0	0	0	0	0	
2490000000.00001	-5.08178137897315	-116.996876461902	0	0	0	0	0	0	
2493333333.33334	-5.13847642618802	-117.070995330169	0	0	0	0	0	0	
2496666666.66668	-5.19112565576721	-117.045265780471	0	0	0	0	0	0	
2500000000.00001	-5.24490784973665	-117.012793637855	0	0	0	0	0	0	
2503333333.33335	-5.27749051412478	-117.035409154382	0	0	0	0	0	0	
2506666666.66668	-5.32537616789166	-117.216367924758	0	0	0	0	0	0	
2510000000.00001	-5.40609100464517	-117.434522367352	0	0	0	0	0	0	
2513333333.33335	-5.51195473529042	-117.556039868838	0	0	0	0	0	0	
2516666666.66668	-5.62907611100097	-117.480429300346	0	0	0	0	0	0	
2520000000.00001	-5.72548121846995	-117.132543675127	0	0	0	0	0	0	
2523333333.33335	-5.77073260049346	-116.77526965908	0	0	0	0	0	0	
2526666666.66668	-5.80101598932322	-116.735306974984	0	0	0	0	0	0	
2530000000.00001	-5.84951731907967	-116.640827104569	0	0	0	0	0	0	
2533333333.33335	-5.87731456211648	-116.527539125412	0	0	0	0	0	0	
2536666666.66668	-5.89326487578323	-116.578615880317	0	0	0	0	0	0	
2540000000.00001	-5.91322312345334	-116.704103845801	0	0	0	0	0	0	
2543333333.33335	-5.94745489929923	-116.991241648444	0	0	0	0	0	0	
2546666666.66668	-6.0385464740057	-117.158755223756	0	0	0	0	0	0	
2550000000.00001	-6.11056237368254	-116.849633739924	0	0	0	0	0	0	
2553333333.33335	-6.14395223392778	-116.697395083634	0	0	0	0	0	0	
2556666666.66668	-6.20175552013146	-116.477947009754	0	0	0	0	0	0	
2560000000.00001	-6.23308007458933	-116.17848920017	0	0	0	0	0	0	
2563333333.33335	-6.26922692294638	-115.99378723234	0	0	0	0	0	0	
2566666666.66668	-6.32861013676211	-115.663821101027	0	0	0	0	0	0	
2570000000.00002	-6.34567192305629	-115.150760200143	0	0	0	0	0	0	
2573333333.33335	-6.35954588801679	-114.866653757874	0	0	0	0	0	0	
2576666666.66668	-6.36543094864261	-114.464590035056	0	0	0	0	0	0	
2580000000.00002	-6.31912190979861	-114.283869754769	0	0	0	0	0	0	
2583333333.33335	-6.30632325288317	-114.592567620319	0	0	0	0	0	0	
2586666666.66668	-6.35811679415944	-114.948577508036	0	0	0	0	0	0	
2590000000.00002	-6.44125819232878	-114.99216023993	0	0	0	0	0	0	
2593333333.33335	-6.51641024240054	-114.833946603857	0	0	0	0	0	0	
2596666666.66668	-6.57445565044167	-114.519616557458	0	0	0	0	0	0	
2600000000.00002	-6.61819482944463	-114.143232130053	0	0	0	0	0	0	
2603333333.33335	-6.62519115963893	-113.603096562312	0	0	0	0	0	0	
2606666666.66668	-6.5828606359629	-113.301678719526	0	0	0	0	0	0	
2610000000.00002	-6.55072009336603	-113.171742264177	0	0	0	0	0	0	
2613333333.33335	-6.52142328137557	-113.070794875167	0	0	0	0	0	0	
2616666666.66668	-6.49833581410202	-113.141442742977	0	0	0	0	0	0	
2620000000.00002	-6.49538104718761	-113.170547075165	0	0	0	0	0	0	
2623333333.33335	-6.48954837419758	-113.024591685107	0	0	0	0	0	0	
2626666666.66668	-6.47547244554402	-113.266492068264	0	0	0	0	0	0	
2630000000.00002	-6.54411166312811	-113.384766451057	0	0	0	0	0	0	
2633333333.33335	-6.62722466736354	-113.027951540427	0	0	0	0	0	0	
2636666666.66669	-6.6557605518632	-112.366322144855	0	0	0	0	0	0	
2640000000.00002	-6.63173240384029	-111.753216274211	0	0	0	0	0	0	
2643333333.33335	-6.60005944501972	-111.415599642925	0	0	0	0	0	0	
2646666666.66669	-6.55576024062633	-111.155897298947	0	0	0	0	0	0	
2650000000.00002	-6.52122042642028	-110.989299586934	0	0	0	0	0	0	
2653333333.33335	-6.45320174130285	-110.99733196144	0	0	0	0	0	0	
2656666666.66669	-6.43590164277966	-111.343584255449	0	0	0	0	0	0	
2660000000.00002	-6.45274226047018	-111.44826979924	0	0	0	0	0	0	
2663333333.33335	-6.46334677653306	-111.671963224659	0	0	0	0	0	0	
2666666666.66669	-6.51149640852591	-111.722126851606	0	0	0	0	0	0	
2670000000.00002	-6.53326000365677	-111.497009107495	0	0	0	0	0	0	
2673333333.33335	-6.52753059629689	-111.568338373073	0	0	0	0	0	0	
2676666666.66669	-6.58706544672626	-111.443706285561	0	0	0	0	0	0	
2680000000.00002	-6.6032753170599	-111.08593714791	0	0	0	0	0	0	
2683333333.33335	-6.60180960154185	-110.595772853954	0	0	0	0	0	0	
2686666666.66669	-6.5328314332429	-110.03284661975	0	0	0	0	0	0	
2690000000.00002	-6.41284451407704	-110.090371712722	0	0	0	0	0	0	
2693333333.33335	-6.36630026108105	-110.483535757661	0	0	0	0	0	0	
2696666666.66669	-6.35924699583527	-110.836721951633	0	0	0	0	0	0	
2700000000.00002	-6.37268156570635	-111.037752894162	0	0	0	0	0	0	
2703333333.33335	-6.38013893994488	-111.074346581943	0	0	0	0	0	0	
2706666666.66669	-6.3981491002358	-111.259779869394	0	0	0	0	0	0	
2710000000.00002	-6.44467549988689	-111.15869210482	0	0	0	0	0	0	
2713333333.33336	-6.46588948318191	-110.912035232587	0	0	0	0	0	0	
2716666666.66669	-6.4626316257521	-110.571786901206	0	0	0	0	0	0	
2720000000.00002	-6.42116413092449	-110.221748920726	0	0	0	0	0	0	
2723333333.33336	-6.37317718767546	-110.169915703207	0	0	0	0	0	0	
2726666666.66669	-6.33146316262761	-110.240300436163	0	0	0	0	0	0	
2730000000.00002	-6.31944015249072	-110.292094016025	0	0	0	0	0	0	
2733333333.33336	-6.29473773687143	-110.337056081812	0	0	0	0	0	0	
2736666666.66669	-6.27246731244995	-110.483857933268	0	0	0	0	0	0	
2740000000.00002	-6.29091164664384	-110.768743036022	0	0	0	0	0	0	
2743333333.33336	-6.33360027080178	-110.610227337943	0	0	0	0	0	0	
2746666666.66669	-6.31332693397088	-110.450414005077	0	0	0	0	0	0	
2750000000.00002	-6.29950384975247	-110.629824098888	0	0	0	0	0	0	
2753333333.33336	-6.32602376185305	-110.761695383047	0	0	0	0	0	0	
2756666666.66669	-6.36231852625054	-110.659737042632	0	0	0	0	0	0	
2760000000.00002	-6.37382230765121	-110.428216007677	0	0	0	0	0	0	
2763333333.33336	-6.36349615122815	-110.238161985688	0	0	0	0	0	0	
2766666666.66669	-6.34390706596416	-110.14328457724	0	0	0	0	0	0	
2770000000.00002	-6.32625313898681	-110.070697252896	0	0	0	0	0	0	
2773333333.33336	-6.30274389013015	-110.081042475284	0	0	0	0	0	0	
2776666666.66669	-6.31061110129782	-110.029070051386	0	0	0	0	0	0	
2780000000.00003	-6.29342859272675	-109.836261935972	0	0	0	0	0	0	
2783333333.33336	-6.27276672114466	-109.560413720171	0	0	0	0	0	0	
2786666666.66669	-6.21527008699734	-109.344160613488	0	0	0	0	0	0	
2790000000.00003	-6.17262338980086	-109.111985161744	0	0	0	0	0	0	
2793333333.33336	-6.08933647064629	-108.788553083678	0	0	0	0	0	0	
2796666666.66669	-5.90815462563318	-108.882293256718	0	0	0	0	0	0	
2800000000.00003	-5.81813515308647	-110.01812845934	0	0	0	0	0	0	
2803333333.33336	-5.86390510797388	-110.902949777526	0	0	0	0	0	0	
2806666666.66669	-5.92851058329289	-111.323032250654	0	0	0	0	0	0	
2810000000.00003	-6.02058255924396	-111.550806062269	0	0	0	0	0	0	
2813333333.33336	-6.07890861427017	-111.333758255287	0	0	0	0	0	0	
2816666666.66669	-6.08931170296918	-111.179349455274	0	0	0	0	0	0	
2820000000.00003	-6.0831938512832	-111.22626873822	0	0	0	0	0	0	
2823333333.33336	-6.11577528930392	-111.38030891547	0	0	0	0	0	0	
2826666666.66669	-6.13036131747648	-111.428519618914	0	0	0	0	0	0	
2830000000.00003	-6.17326134415367	-111.42687432866	0	0	0	0	0	0	
2833333333.33336	-6.18379616391302	-111.263147489687	0	0	0	0	0	0	
2836666666.66669	-6.1712367203166	-111.17284612675	0	0	0	0	0	0	
2840000000.00003	-6.15625143389532	-111.166423818626	0	0	0	0	0	0	
2843333333.33336	-6.12547490821465	-111.234821468185	0	0	0	0	0	0	
2846666666.6667	-6.13173571679019	-111.549239530911	0	0	0	0	0	0	
2850000000.00003	-6.18763805315225	-111.432678995452	0	0	0	0	0	0	
2853333333.33336	-6.17704579852965	-111.068889565326	0	0	0	0	0	0	
2856666666.6667	-6.1413109108367	-110.95040102065	0	0	0	0	0	0	
2860000000.00003	-6.11819088211095	-111.004864491877	0	0	0	0	0	0	
2863333333.33336	-6.14277149642946	-111.107607415442	0	0	0	0	0	0	
2866666666.6667	-6.17327247979087	-110.791976372	0	0	0	0	0	0	
2870000000.00003	-6.1597561699558	-110.524060045716	0	0	0	0	0	0	
2873333333.33336	-6.15676995228279	-110.370693455279	0	0	0	0	0	0	
2876666666.6667	-6.14952601098211	-110.141490602141	0	0	0	0	0	0	
2880000000.00003	-6.12302790522762	-110.097808764226	0	0	0	0	0	0	
2883333333.33336	-6.13061802753669	-110.133156642151	0	0	0	0	0	0	
2886666666.6667	-6.15202297316336	-110.081222089883	0	0	0	0	0	0	
2890000000.00003	-6.15701965606846	-109.879757399163	0	0	0	0	0	0	
2893333333.33336	-6.13658542342525	-109.824559071291	0	0	0	0	0	0	
2896666666.6667	-6.12766199125787	-109.880433531432	0	0	0	0	0	0	
2900000000.00003	-6.14299047587395	-109.925731615946	0	0	0	0	0	0	
2903333333.33336	-6.16053881862452	-109.767317829989	0	0	0	0	0	0	
2906666666.6667	-6.16594181389217	-109.573231338659	0	0	0	0	0	0	
2910000000.00003	-6.16577203033774	-109.173596258285	0	0	0	0	0	0	
2913333333.33336	-6.11748969260373	-108.822511289889	0	0	0	0	0	0	
2916666666.6667	-6.08226962450179	-108.630107125116	0	0	0	0	0	0	
2920000000.00003	-6.04837660776449	-108.391168273063	0	0	0	0	0	0	
2923333333.33337	-6.02218705940326	-108.141679914663	0	0	0	0	0	0	
2926666666.6667	-5.97970127270181	-107.893604470034	0	0	0	0	0	0	
2930000000.00003	-5.95160662058972	-107.632140391842	0	0	0	0	0	0	
2933333333.33337	-5.90927656214982	-107.437101812743	0	0	0	0	0	0	
2936666666.6667	-5.90079299085989	-107.344615313765	0	0	0	0	0	0	
2940000000.00003	-5.91227610371518	-107.055666088551	0	0	0	0	0	0	
