!Agilent N9923A: A.07.32
!Date: Wednesday, 01 June 2016 22:54:42
!Model: N9923A
!Serial: MY52412257
!GPS Latitude: 
!GPS Longitude: 
!GPS TimeStamp: 0001-01-01 00:00:00Z
!GPS Seconds Since Last Read: 0
!CHECKSUM:0459127119
!Correction: S11(ON U)S21(ON U)S12(ON U)S22(ON U)
!S2P File: Measurements:S11,S21,S12,S22:
# Hz S DB R 50
1950000000	-5.23477338136688	-125.422265687735	-7.40045009504965	-160.655679291438	-7.40169421759471	-160.600790341551	-5.77826971367758	-159.804089914693	
1953333333.33333	-5.24635568850253	-126.23217540256	-7.37933291438874	-161.586310529692	-7.38115598866355	-161.523006784043	-5.78958951612131	-160.790120510351	
1956666666.66667	-5.26084447799597	-127.013765706521	-7.35757049882512	-162.488539015232	-7.36129992746606	-162.436968958881	-5.80034293627878	-161.772501864588	
1960000000	-5.27825578235654	-127.805072846073	-7.33851253574428	-163.412280913651	-7.34108087776244	-163.362979289327	-5.81002261376198	-162.762268589412	
1963333333.33333	-5.29626082660836	-128.583956210974	-7.31783148364815	-164.30547489312	-7.32071803800778	-164.253880552576	-5.81516914609852	-163.753617392511	
1966666666.66667	-5.31607595337089	-129.375896175747	-7.29741393308751	-165.217155981315	-7.30039226456092	-165.162192502147	-5.81863235414882	-164.724864093626	
1970000000	-5.33670973149113	-130.18423022737	-7.27831698206522	-166.112424081181	-7.27962132806806	-166.056838715254	-5.82163943637851	-165.690559158488	
1973333333.33333	-5.35772479477176	-130.983307335685	-7.2555315924402	-167.007124417715	-7.25932000430971	-166.948673632942	-5.82373139763349	-166.650366849997	
1976666666.66667	-5.38078254663074	-131.822395227505	-7.23807729662454	-167.903355358664	-7.24087879357025	-167.843620238409	-5.82797377132286	-167.620565728836	
1980000000	-5.40312186182797	-132.63240229986	-7.21849889261374	-168.780266941623	-7.22025781781381	-168.728494912547	-5.82666590972774	-168.577986213137	
1983333333.33333	-5.42420186179912	-133.487276741335	-7.19944430946424	-169.67563830924	-7.20151727884667	-169.600197156949	-5.8277760885418	-169.515894187644	
1986666666.66667	-5.4468277617714	-134.334120455468	-7.18176284335705	-170.539934377946	-7.18245151836684	-170.489170083448	-5.82911578398122	-170.454983899341	
1990000000	-5.46820411393344	-135.173525522565	-7.16321288032041	-171.416185562163	-7.16500851723031	-171.351040942899	-5.82905737265079	-171.385002253304	
1993333333.33333	-5.48624512518938	-135.999717359439	-7.14521547423807	-172.260675943811	-7.1481935248918	-172.211586986995	-5.83169341186594	-172.297114032197	
1996666666.66667	-5.50330714365879	-136.853651247065	-7.12567861375499	-173.132532541332	-7.13119432249572	-173.071784792687	-5.82923497680135	-173.224891034932	
2000000000	-5.52153283925203	-137.695060985061	-7.10908620636492	-173.98486513541	-7.11231368481327	-173.927929505783	-5.83175163059939	-174.133163505893	
2003333333.33333	-5.53657632876445	-138.539889915081	-7.09244246449566	-174.851142780473	-7.09529957436338	-174.785399858395	-5.83129632964763	-174.998663722583	
2006666666.66667	-5.54857601952949	-139.39010208734	-7.0773707135456	-175.702011647828	-7.07680489322445	-175.642300737434	-5.83282516116315	-175.903641952277	
2010000000	-5.56245241564459	-140.235622626922	-7.05920168159828	-176.553062326347	-7.06084436633234	-176.496819533145	-5.83698121806328	-176.800719817159	
2013333333.33333	-5.57592515724046	-141.069621526404	-7.04486093637617	-177.419539756605	-7.04437351493732	-177.358021431547	-5.83875208353225	-177.696092592037	
2016666666.66667	-5.58826801242148	-141.909297852653	-7.02769321369692	-178.260735980314	-7.02937711066665	-178.208959755169	-5.84282227103481	-178.555514836795	
2020000000	-5.60043307216772	-142.740811678208	-7.01382766923637	-179.114733635807	-7.0131165792712	-179.058404400252	-5.84669533398715	-179.451472012549	
2023333333.33333	-5.6116530114632	-143.574121119854	-6.99550614338558	-179.966470262563	-6.99878661836629	-179.914868482461	-5.85432351108238	179.678754934221	
2026666666.66666	-5.6222102852025	-144.393206077184	-6.98044214511436	179.180983299428	-6.98172478400904	179.256412488521	-5.86021837962853	178.790753372559	
2030000000	-5.63481698633013	-145.201586738896	-6.96626062506105	178.343941762887	-6.96864020512053	178.413418907283	-5.87164494688946	177.920787433377	
2033333333.33333	-5.64645603238639	-146.019984932712	-6.95080689680082	177.492445149358	-6.95314016043643	177.554091542529	-5.88153450422273	177.039624811145	
2036666666.66666	-5.65780799142506	-146.803699390334	-6.93509321739351	176.671079750904	-6.93592642486163	176.73349438104	-5.88915865115152	176.149487482611	
2040000000	-5.67109373743891	-147.603544001587	-6.92093385113249	175.825428219582	-6.9215167953607	175.888237764264	-5.90005981672209	175.234667778093	
2043333333.33333	-5.68522479185518	-148.389348500387	-6.90620227745467	175.002805759752	-6.90755416750509	175.059213581599	-5.91248236370066	174.321118600361	
2046666666.66666	-5.69885730599101	-149.173811111909	-6.88998067342813	174.158717119694	-6.89419073276304	174.216778417901	-5.92190570420713	173.39173601551	
2050000000	-5.71583747177344	-149.951024487195	-6.87535113212768	173.319654074305	-6.87919534695943	173.369089868886	-5.9287081743135	172.445899859541	
2053333333.33333	-5.73135366125274	-150.720834157714	-6.86170676819155	172.496297603696	-6.86272464961031	172.547574971152	-5.93459717346227	171.52077373982	
2056666666.66666	-5.7501964351201	-151.497781952495	-6.84788369234952	171.664477033983	-6.84892973756314	171.719580799457	-5.9374355273483	170.589332888472	
2060000000	-5.76933281348419	-152.270665620762	-6.83141573330971	170.836427570097	-6.83477749052289	170.892684823894	-5.93757834682614	169.649783294577	
2063333333.33333	-5.79345537478116	-153.060103730802	-6.81889659546952	170.021724869198	-6.8193949449279	170.07464793	-5.93902407810229	168.746147441753	
2066666666.66666	-5.8172840645274	-153.851376202934	-6.80561532343619	169.193490310763	-6.80700960898485	169.261595688879	-5.93845846927062	167.830218300231	
2070000000	-5.84009262657509	-154.652331549522	-6.79057770494115	168.384039051758	-6.79284911786271	168.446320149142	-5.93876126965844	166.92817123801	
2073333333.33333	-5.8634887847725	-155.473071476915	-6.77699445422701	167.572832658316	-6.77869953767694	167.628433070009	-5.93521699866285	166.035988422909	
2076666666.66666	-5.88488016474471	-156.296012564699	-6.76201644899358	166.757437790585	-6.76329503135086	166.825599040962	-5.93144788896216	165.147600762079	
2080000000	-5.90621958278796	-157.133046614078	-6.74930822937891	165.967548492554	-6.75070730207123	166.013317971071	-5.92960761418691	164.272636558237	
2083333333.33333	-5.92552345390638	-157.953388343239	-6.7372325869521	165.165474115831	-6.73534122291276	165.233596397382	-5.92844236409418	163.407105632713	
2086666666.66666	-5.94582808493929	-158.788108384155	-6.72353604927415	164.386496962301	-6.72468999971559	164.4323413991	-5.9288544844144	162.552603135215	
2090000000	-5.95983213582854	-159.637952947215	-6.70976218458675	163.585783614982	-6.70967652151956	163.64169439154	-5.92346924156066	161.693547329615	
2093333333.33333	-5.9768961159221	-160.475481019636	-6.69813847582663	162.795275851429	-6.70077817198564	162.853054405901	-5.92376216486132	160.854346948951	
2096666666.66666	-5.98824924898475	-161.325212182223	-6.68286602312659	162.000756417298	-6.6836305263082	162.06824460098	-5.91962773184974	160.013360480155	
2100000000	-6.00134068802586	-162.14001784381	-6.67170903004503	161.230887727321	-6.67154574103477	161.293980903346	-5.92178809328768	159.190880964059	
2103333333.33333	-6.01386389271574	-162.967158295556	-6.65823662256121	160.437602330429	-6.65945684821061	160.502834656832	-5.92267471657993	158.352134948449	
2106666666.66666	-6.02512388098242	-163.77033899666	-6.64775053824575	159.658171140118	-6.64845944744068	159.72100353081	-5.92140236125298	157.520334058225	
2110000000	-6.03852948102922	-164.592567519683	-6.63610031460163	158.869000560476	-6.63756088968339	158.934427502003	-5.92510934761181	156.694401611194	
2113333333.33333	-6.05072290505478	-165.423387614898	-6.62524891013002	158.075608410978	-6.62626710699849	158.152893066059	-5.92669697700233	155.86531175194	
2116666666.66666	-6.06216296490464	-166.234858303175	-6.61378883306879	157.289737086555	-6.61476314372509	157.357501593504	-5.93004913924658	155.023211915617	
2120000000	-6.07522625864985	-167.048479909289	-6.60367946844576	156.513911593046	-6.60544942929823	156.584758446046	-5.9389383469717	154.229110864945	
2123333333.33333	-6.08573610150404	-167.839331376393	-6.59236755344177	155.755918683908	-6.59306365290858	155.80717429949	-5.94281851387013	153.405202352107	
2126666666.66666	-6.0972595627494	-168.651939299478	-6.58152918534905	154.96361382511	-6.58297040455574	155.018610038644	-5.95118819878358	152.572513303872	
2130000000	-6.10977758795606	-169.435019310682	-6.57227297153644	154.191550961392	-6.57343669691124	154.234084604376	-5.95943498089023	151.740350718006	
2133333333.33333	-6.12187961944172	-170.217710623688	-6.56128215809306	153.409879345933	-6.56124541263711	153.458348983379	-5.96986783209846	150.889099747046	
2136666666.66666	-6.13469146501779	-171.000716432779	-6.55167259871678	152.636617349971	-6.55399914087843	152.685423550487	-5.9805077391483	150.028908868743	
2140000000	-6.14741987960338	-171.766859310481	-6.54160856251482	151.873747259667	-6.54329479382187	151.91946578665	-5.98899938184158	149.168177673969	
2143333333.33333	-6.16353805853409	-172.528079728817	-6.53331617930855	151.093765852475	-6.53519316513593	151.143515613583	-5.99775562138901	148.285275812586	
2146666666.66666	-6.17971795407809	-173.290426345207	-6.52491461290352	150.318031646509	-6.5255626750637	150.366753961404	-6.00247165246976	147.396606374806	
2150000000	-6.19717313273261	-174.050493422432	-6.51576249830656	149.53922005234	-6.51675166594355	149.596766644461	-6.00736224986241	146.515658136685	
2153333333.33333	-6.21728381339792	-174.835161105614	-6.50612216489776	148.774243403928	-6.50678642570107	148.823789335721	-6.00663707269853	145.624496376672	
2156666666.66666	-6.23742531977119	-175.600338037158	-6.49725801501524	147.998493485187	-6.49925636681435	148.060187507545	-6.00728977540302	144.756318243317	
2160000000	-6.26215403949252	-176.391268365792	-6.48785648308158	147.233692105686	-6.48977442993259	147.290974355375	-6.00278701545987	143.892696225411	
2163333333.33333	-6.28432905597584	-177.183068661611	-6.4783565132658	146.482023050038	-6.48040509836632	146.527344263965	-5.99943146685205	143.040913532509	
2166666666.66666	-6.30914207668891	-178.005185277507	-6.46856866276687	145.708902980047	-6.47077106426714	145.766103786331	-5.9964712338308	142.198839586649	
2170000000	-6.33258283583009	-178.834507849317	-6.45946023260269	144.957377314094	-6.46247255122292	145.005731264362	-5.99000763986821	141.36747248456	
2173333333.33333	-6.35600881217916	-179.677673936511	-6.44905208631716	144.195502619394	-6.45297488247069	144.250432540785	-5.98759356901644	140.561622588424	
2176666666.66666	-6.37090808642944	179.461213763566	-6.43962518436063	143.437691305961	-6.44294584296213	143.502646887316	-5.98185108876553	139.746792732882	
2180000000	-6.38703281452093	178.625801433484	-6.43038860056269	142.696564794355	-6.43355899884113	142.764150963236	-5.98014931229992	138.960498018093	
2183333333.33333	-6.39960444340703	177.779427759369	-6.42116439425985	141.946645896788	-6.42408403478131	142.013722941288	-5.97688556193018	138.160746444135	
2186666666.66666	-6.41216306000477	176.932603325383	-6.41077695069804	141.213885530445	-6.41288673773726	141.274256952032	-5.97529548208658	137.385041003355	
2190000000	-6.4229958114382	176.103731236797	-6.40243279042162	140.47783745968	-6.40350684915756	140.543725007397	-5.97611485239228	136.600419558142	
2193333333.33333	-6.42780316419764	175.260476665228	-6.39222156381601	139.721892489493	-6.39295218615387	139.803197403076	-5.97470608907601	135.806598402327	
2196666666.66666	-6.43575750976749	174.456524893533	-6.38306286806593	138.995910809696	-6.38511914820698	139.069402259989	-5.97398209701738	135.055519192616	
2200000000	-6.44408492989105	173.645225516831	-6.37503557020175	138.259221193753	-6.37752755699831	138.335183089426	-5.97725312791529	134.260389687858	
2203333333.33333	-6.4518630923822	172.834941558149	-6.3665862610447	137.518502528622	-6.36845830360352	137.60060837782	-5.97690757492331	133.47675083926	
2206666666.66666	-6.46022364014797	172.051672038994	-6.35962970623788	136.790585832275	-6.35882583409655	136.865878749036	-5.98139361034032	132.695864530844	
2210000000	-6.46927825712944	171.249952306285	-6.35427103255701	136.051930535159	-6.35259791851983	136.120327240467	-5.98732473810743	131.923663035005	
2213333333.33333	-6.47974161566615	170.465459945187	-6.34641462043217	135.30921759584	-6.34567007620771	135.380036176341	-5.99084623516229	131.139914811028	
2216666666.66667	-6.48971994387997	169.667759794365	-6.33993621662953	134.558843059351	-6.33750417158227	134.644211972469	-5.99673537271008	130.351233753701	
2220000000	-6.50175763227647	168.889772286286	-6.3314243259028	133.83886034976	-6.33216938732464	133.898159892022	-6.00400939860005	129.586168702802	
2223333333.33333	-6.51267999190171	168.100198101816	-6.32554248747869	133.102103250348	-6.32481579932204	133.167734224467	-6.01275895230102	128.793463658759	
2226666666.66667	-6.52417548840523	167.318258773133	-6.31733269967525	132.371899425911	-6.31818330906038	132.422150553788	-6.02063608936305	127.985725113959	
2230000000	-6.53602836063156	166.527614967087	-6.31332213304621	131.63260421161	-6.31253175715016	131.679567589338	-6.02943340352823	127.170382725803	
2233333333.33333	-6.54873843386027	165.739266670182	-6.30487173045367	130.895669674894	-6.30788577744534	130.951399000181	-6.03841086426786	126.346639203274	
2236666666.66667	-6.56227897795127	164.981829339584	-6.30138475320247	130.160453759975	-6.30202125990194	130.202364642208	-6.04738707341533	125.51392702935	
2240000000	-6.57261517157513	164.198009575104	-6.29427347262601	129.416075908499	-6.29668660392376	129.47156191399	-6.0535713251675	124.672505488754	
2243333333.33333	-6.5872180505753	163.447009420027	-6.28893182003324	128.684973016783	-6.28946954574339	128.750939184278	-6.0602686259167	123.838216587419	
2246666666.66667	-6.60669880155038	162.70357729884	-6.28323660869541	127.961107327981	-6.28602252347486	128.014906504106	-6.06071773892917	123.013499404713	
2250000000	-6.62662974947203	161.924199216013	-6.27632710714106	127.22609584043	-6.27986453925475	127.281451938142	-6.06000322728282	122.168239179273	
2253333333.33333	-6.6476102887149	161.160622993039	-6.27153360250485	126.498120882189	-6.27271879729114	126.555298711351	-6.05883368497754	121.343552208572	
2256666666.66667	-6.66941118724848	160.396266037957	-6.26656256696223	125.769480758226	-6.26657467636321	125.827397268006	-6.05376051865493	120.522358988648	
2260000000	-6.69090930851569	159.594280080146	-6.25999832603718	125.055477579428	-6.26242544127448	125.111296396613	-6.05090837177341	119.717738506696	
2263333333.33333	-6.71062569375559	158.778780813476	-6.25197477433949	124.328145343178	-6.25515357243998	124.380774028561	-6.0452734506946	118.922590910587	
2266666666.66667	-6.7310486174568	157.940521967941	-6.24884448653554	123.617020953546	-6.24940181536387	123.653496665698	-6.04172928765403	118.131833664747	
2270000000	-6.75074426055776	157.116551693272	-6.24238382478982	122.88092559956	-6.24560613373211	122.931303868308	-6.03791919169495	117.358285634874	
2273333333.33333	-6.76712763796342	156.250346664423	-6.23613118861562	122.167273588876	-6.239337251469	122.210598302034	-6.03502220545436	116.598039438492	
2276666666.66667	-6.77943964628428	155.379070105533	-6.22701224415736	121.442201438967	-6.23149337047874	121.483544474666	-6.03170689137969	115.845289774644	
2280000000	-6.79095267975159	154.509183407358	-6.22303332450858	120.724700702436	-6.22468140944814	120.784812937708	-6.03052926721827	115.109345084827	
2283333333.33333	-6.79840144512609	153.642922198936	-6.21547429043441	119.997337295271	-6.21962748696215	120.061920317718	-6.02950544335695	114.368597988254	
2286666666.66667	-6.80393802676832	152.803396509741	-6.2086674397675	119.280335532467	-6.21286513348616	119.345363152793	-6.02958356801734	113.615999910174	
2290000000	-6.80492184949718	151.945178133383	-6.20232716850916	118.568079881504	-6.20291142193689	118.638765970565	-6.0319756016332	112.879789660714	
2293333333.33334	-6.80869620878959	151.110055293876	-6.19715234700851	117.853721475043	-6.19810180958863	117.923181187986	-6.03526268028221	112.162701298845	
2296666666.66667	-6.81164619391087	150.289234337431	-6.19283933209932	117.139792240986	-6.19274244357053	117.212687640665	-6.03836610922021	111.403201385435	
2300000000	-6.81430547888933	149.482887994445	-6.18812580818266	116.442016405179	-6.18727097614739	116.494325659234	-6.0438579481768	110.662219529376	
2303333333.33334	-6.81783936966205	148.70171261195	-6.18272513568758	115.729378126735	-6.1814840498276	115.785477002936	-6.0476018651333	109.912336031717	
2306666666.66667	-6.82354121153866	147.913307571825	-6.17930149852234	115.01461274211	-6.17741206167211	115.076648619981	-6.05639115052095	109.165531481526	
2310000000	-6.82785108465476	147.126590270161	-6.17293350843282	114.314036742428	-6.17409321506378	114.362094308676	-6.06433602564337	108.422976824102	
2313333333.33334	-6.83526993426882	146.340825092028	-6.17008867840901	113.608462628354	-6.16934969079199	113.667249395733	-6.0748177652072	107.669252084703	
2316666666.66667	-6.84269678173131	145.583111211182	-6.16498011017357	112.911000949611	-6.16697555214408	112.949813735086	-6.08390249071368	106.889490984959	
2320000000	-6.85266064536535	144.787503023014	-6.16296136193011	112.19618242034	-6.16356608666197	112.23887753914	-6.09121825361878	106.117388948951	
2323333333.33334	-6.86210078876527	144.010058700839	-6.15935665365153	111.476171936441	-6.15739139519955	111.525725161321	-6.10278190441629	105.335470501061	
2326666666.66667	-6.86981386211724	143.25025019346	-6.15602188184983	110.769137261554	-6.155239369844	110.822261873016	-6.11234870365898	104.543560053091	
2330000000	-6.88463242267924	142.47147315302	-6.15072536120746	110.057266109945	-6.15228918838138	110.105877022278	-6.12068228159866	103.736503933467	
2333333333.33334	-6.89482659532618	141.689694263383	-6.14884988485063	109.341817775871	-6.15075971317533	109.385127012769	-6.1269259197218	102.924944751551	
2336666666.66667	-6.90793877751445	140.91139762487	-6.14633673506397	108.628727652778	-6.14815371907994	108.669040303928	-6.12951913911881	102.112843406662	
2340000000	-6.92314748803081	140.154559688369	-6.14319252347091	107.917160410757	-6.14456122260269	107.964826428835	-6.13340960898255	101.296327871477	
2343333333.33334	-6.93891262691044	139.369557239754	-6.14058607082712	107.197790770475	-6.14252077385348	107.236203249047	-6.13573010460597	100.470128115619	
2346666666.66667	-6.95305498997583	138.580439797133	-6.13738712616103	106.494240694407	-6.13901154584021	106.529905742044	-6.13681775339517	99.6683452006994	
2350000000	-6.96695523510864	137.809381593844	-6.13243703059795	105.789218437201	-6.13487645812982	105.828787038947	-6.13627358971755	98.8738452230599	
2353333333.33334	-6.98603192292123	136.988273683687	-6.12903275294279	105.068876563674	-6.13346832170371	105.115447492818	-6.1328416725356	98.0834378271891	
2356666666.66667	-7.00130163943505	136.176357333037	-6.12615474789421	104.383680575286	-6.13000619298015	104.400548834754	-6.12892483346641	97.282652798025	
2360000000.00001	-7.01709902013305	135.365871904021	-6.12114642197516	103.668084800059	-6.12633453174203	103.704086638781	-6.12625515765895	96.5184953029665	
