!Agilent N9923A: A.07.32
!Date: Wednesday, 01 June 2016 22:53:03
!Model: N9923A
!Serial: MY52412257
!GPS Latitude: 
!GPS Longitude: 
!GPS TimeStamp: 0001-01-01 00:00:00Z
!GPS Seconds Since Last Read: 0
!CHECKSUM:0614810214
!Correction: S11(ON U)S21(ON U)S12(ON U)S22(ON U)
!S2P File: Measurements:S11,S21,S12,S22:
# Hz S DB R 50
1950000000	-5.95772320106609	-94.5411552534106	-4.4439803837235	161.58901272512	-4.44626483965191	161.641696292066	-12.8738030785234	-8.14891612382621	
1953333333.33333	-6.02098593775939	-95.6691209681203	-4.37585410991276	161.135113470987	-4.37653937589391	161.176024788124	-13.0241692544281	-8.72713890060815	
1956666666.66667	-6.08474760376429	-96.7728302672775	-4.30815298568359	160.664621177877	-4.31038830680617	160.704736472063	-13.1730417913395	-9.286716538722	
1960000000	-6.15009251918232	-97.864224629801	-4.24280307532712	160.17107341374	-4.2434213974589	160.216921093692	-13.3216684664243	-9.80298340936314	
1963333333.33333	-6.21702117875787	-98.9639831759735	-4.1780689670628	159.678043716272	-4.18065549106943	159.715716108689	-13.4754037299088	-10.3077032493621	
1966666666.66667	-6.28386235275787	-100.045032114095	-4.11628703993345	159.170340720441	-4.11924523467391	159.201577903966	-13.6279687530324	-10.7684893425094	
1970000000	-6.35373919870636	-101.127864053481	-4.05663746020597	158.650322069632	-4.05706175757476	158.698342932496	-13.7923874770636	-11.1681381252615	
1973333333.33333	-6.42212950469718	-102.215388508297	-3.99651706122696	158.119220055141	-4.00138613100923	158.159884132561	-13.9521139312494	-11.5688927401017	
1976666666.66667	-6.49294430363213	-103.308736167513	-3.94206173311127	157.592707482015	-3.94470126618671	157.633056819328	-14.12043491701	-11.909123975681	
1980000000	-6.56395755091928	-104.362847313513	-3.88652035360195	157.051711153048	-3.88730646803337	157.091913725923	-14.2807432561064	-12.2468049123288	
1983333333.33333	-6.63407555470402	-105.464293929892	-3.83370846226845	156.516082675068	-3.8351565043666	156.559340608512	-14.4493290587038	-12.5637948293983	
1986666666.66667	-6.703932074633	-106.53466215459	-3.78160680312538	155.970799878998	-3.78207124295661	156.006836185162	-14.6170258030441	-12.8358295460699	
1990000000	-6.7728509925878	-107.610467662459	-3.73235461437727	155.419500738354	-3.7348171883374	155.459826977733	-14.7843033924454	-13.1601266538949	
1993333333.33333	-6.84181820416704	-108.683679907575	-3.68390931402435	154.866755454165	-3.68696286534829	154.915200972283	-14.9553885576631	-13.4372836962851	
1996666666.66667	-6.90946390591469	-109.785326981892	-3.63774777235976	154.309032102473	-3.64047036721014	154.358665312168	-15.1218814387061	-13.7110152491625	
2000000000	-6.97391545974754	-110.877233912335	-3.592956786924	153.757655934393	-3.59832327554362	153.79293106485	-15.2908534556692	-14.0151850197514	
2003333333.33333	-7.03833392525566	-111.990350634102	-3.55154923974429	153.198067491687	-3.55328838283886	153.236736524583	-15.4497500310748	-14.2748563669905	
2006666666.66667	-7.09964358529841	-113.075819021156	-3.51236769662899	152.631574403342	-3.512395476854	152.674647579688	-15.6165133961285	-14.5147609903044	
2010000000	-7.16116021901662	-114.155100152784	-3.47074206653154	152.071084689352	-3.47283380958518	152.111064489726	-15.7740192462411	-14.7358335782171	
2013333333.33333	-7.22247568092411	-115.245921184688	-3.4331702532853	151.500472671002	-3.43374612513047	151.549637572917	-15.9260499154614	-14.880563875729	
2016666666.66667	-7.28203451417306	-116.333810651878	-3.39664721040766	150.937437736341	-3.39904397829976	150.982532122582	-16.0752151599845	-15.0587734992548	
2020000000	-7.33890967476479	-117.40013268411	-3.36064906946063	150.373670930165	-3.36296552286371	150.420704443713	-16.2308167774307	-15.0939851359647	
2023333333.33333	-7.39522837090945	-118.482001652246	-3.32532901883702	149.810149098957	-3.32890637868762	149.844054196218	-16.3724607695691	-15.152793949714	
2026666666.66666	-7.45158482329824	-119.534356207678	-3.29279707766321	149.232714618903	-3.29541186917234	149.289146352301	-16.5205704560872	-15.1583081850452	
2030000000	-7.50581505768161	-120.582220945455	-3.25891378546934	148.670090099832	-3.26192247196662	148.72473492821	-16.650488973273	-15.1134728514688	
2033333333.33333	-7.55943214101906	-121.626430041589	-3.22589997385103	148.09288545759	-3.2288005353074	148.148665882504	-16.7759648263302	-15.0579768314006	
2036666666.66666	-7.60931742024157	-122.670438601115	-3.19843952769461	147.525437089935	-3.19911672518842	147.5776558897	-16.9135168386376	-14.9400766569367	
2040000000	-7.66366530238074	-123.698382061362	-3.16775838082749	146.966234382625	-3.16827471528212	147.015288656172	-17.0409410897107	-14.721027152127	
2043333333.33333	-7.71494594349996	-124.729302323035	-3.13880150028387	146.381684005254	-3.14031801436649	146.436502080474	-17.1606839835852	-14.5532624601617	
2046666666.66666	-7.76759152950576	-125.748610216604	-3.11126020099836	145.814806635364	-3.11301184657786	145.858345229504	-17.28109632917	-14.2998839600738	
2050000000	-7.82038346810355	-126.745104425753	-3.08334428394876	145.229687204433	-3.08523663883182	145.279694797274	-17.3935222992631	-14.0028175945828	
2053333333.33333	-7.87348192027291	-127.745664278797	-3.05747579290975	144.663008201079	-3.05866847987782	144.710629771776	-17.5060609508518	-13.7102131384814	
2056666666.66666	-7.92465708107218	-128.757060615323	-3.03157439729864	144.085101606444	-3.0321048770718	144.13003704858	-17.6169529000442	-13.4280785793314	
2060000000	-7.97786324127138	-129.770575014185	-3.006399771485	143.512330965554	-3.00865668625478	143.558220424073	-17.7305090807038	-13.0140513944166	
2063333333.33333	-8.03135221989906	-130.773913821948	-2.98397378139671	142.931281976066	-2.98421457314002	142.98650028738	-17.8399825479254	-12.6646087361854	
2066666666.66666	-8.08489007551022	-131.786603774628	-2.9608808142455	142.354920675729	-2.96221521798026	142.407878834593	-17.9609557261701	-12.2649757982423	
2070000000	-8.14021083577814	-132.831892700283	-2.93850839919082	141.779376359934	-2.93938145804807	141.825097399801	-18.0573356183186	-11.8094096567232	
2073333333.33333	-8.19484280026702	-133.871842824654	-2.91591574835599	141.210594562052	-2.91933590738085	141.262914035235	-18.166889606691	-11.38767406959	
2076666666.66666	-8.25010873019254	-134.916331143649	-2.89377666073675	140.629486265033	-2.89646206495116	140.68938497553	-18.280747427043	-10.9623697952276	
2080000000	-8.30081465935834	-135.983595498309	-2.87432424460891	140.068456699744	-2.87635066177721	140.120503240713	-18.3917998167261	-10.4980042189082	
2083333333.33333	-8.35024107697973	-137.030616901152	-2.85514581519778	139.496767366131	-2.85547295370925	139.558071958458	-18.4995459844619	-10.128326329095	
2086666666.66666	-8.39922917079456	-138.105814562688	-2.83731559767863	138.928445829014	-2.83871447077488	138.983912388964	-18.6073047812806	-9.77610358577049	
2090000000	-8.44192931670898	-139.197837525185	-2.81639105036494	138.377340191597	-2.81921900487117	138.424926989505	-18.7167115829953	-9.32411972286637	
2093333333.33333	-8.48494198088248	-140.265436496746	-2.79877353527851	137.820005481723	-2.80278992624367	137.874606101063	-18.8176253851357	-8.9759329623034	
2096666666.66666	-8.52701586394108	-141.387529953543	-2.78217563405698	137.262699962638	-2.78399466975634	137.311210220481	-18.9216718600927	-8.58593428390308	
2100000000	-8.56510551874355	-142.457853124965	-2.7670042925784	136.70201433366	-2.76823516060502	136.758175326129	-19.0141994199245	-8.26848777204943	
2103333333.33333	-8.6057092570779	-143.549811040801	-2.75067190965172	136.141488341316	-2.75349703314677	136.202769052396	-19.0986834498412	-7.93879320775768	
2106666666.66666	-8.64093303021413	-144.623520897499	-2.73647437126295	135.593672043084	-2.73825197736789	135.645298268502	-19.1813628004105	-7.61869396576625	
2110000000	-8.67996497170136	-145.69792460401	-2.7224516871953	135.038839679944	-2.72359857748864	135.092889057262	-19.2565820281534	-7.28069414207704	
2113333333.33333	-8.71556817195522	-146.787323705053	-2.70804381469065	134.475782389562	-2.71046158816764	134.546978766084	-19.3186854123287	-6.88476474246145	
2116666666.66666	-8.74965374910585	-147.857790810893	-2.69684083806873	133.931321642124	-2.6960115831166	133.98772658017	-19.3808061342593	-6.47002656057775	
2120000000	-8.78269515376731	-148.923571467748	-2.6826963893748	133.374655215287	-2.68302810855716	133.435337054985	-19.4381018812911	-6.12697196105027	
2123333333.33333	-8.81300491593834	-149.971538727644	-2.67091673836342	132.840541960114	-2.67086632543908	132.885495454465	-19.4851396943393	-5.72486485253518	
2126666666.66666	-8.84560086642425	-151.016947419167	-2.65545134881874	132.279244156304	-2.65900011737532	132.346072835166	-19.5204722484359	-5.25723370787863	
2130000000	-8.87640842487919	-152.071769989201	-2.64677261993184	131.748866570225	-2.64705985796481	131.799483547482	-19.5504805320464	-4.82933578864767	
2133333333.33333	-8.90445923114293	-153.105143542434	-2.63429561728905	131.197127022009	-2.6360070617746	131.251296541666	-19.579378892203	-4.37942634534456	
2136666666.66666	-8.93157865399485	-154.17008656781	-2.62286155898376	130.644249486617	-2.62572790838335	130.699348621726	-19.5850396945133	-3.88783433763375	
2140000000	-8.95813995626923	-155.190000815058	-2.61281582276541	130.10315991088	-2.61409153812254	130.159645689217	-19.6036580386352	-3.42987291776696	
2143333333.33333	-8.98852984863681	-156.206136384153	-2.60314456617265	129.557899501736	-2.60457832936809	129.609417218305	-19.6095098944361	-3.00530334429206	
2146666666.66666	-9.01826324211423	-157.223265902963	-2.59442690486673	129.011576332528	-2.59471986331058	129.060762309746	-19.6126261610402	-2.60600319823585	
2150000000	-9.04548729405939	-158.243822687688	-2.58438929387686	128.466705590617	-2.58571069536777	128.512938803236	-19.6211204567969	-2.10732185170657	
2153333333.33333	-9.07784528407113	-159.283697308536	-2.57634574176171	127.922360203338	-2.57626550598263	127.973637431386	-19.620262143764	-1.66735334018996	
2156666666.66666	-9.11103920261125	-160.289274712972	-2.56674812772596	127.37230978339	-2.56762460561436	127.420200988485	-19.6169412084445	-1.22438264442805	
2160000000	-9.14057102181819	-161.36174072979	-2.55885156852186	126.829323706741	-2.56010286924838	126.884272030182	-19.6296827208725	-0.742512382261695	
2163333333.33333	-9.17478805352588	-162.422943836066	-2.55087097944652	126.290363180792	-2.55353230121789	126.343928680891	-19.6403402132972	-0.360243448532111	
2166666666.66666	-9.2083669873262	-163.526602703146	-2.542857553088	125.73566035985	-2.54488885770677	125.787036784756	-19.6409356063102	0.142338477499169	
2170000000	-9.23611351744008	-164.617278453631	-2.53527783046364	125.192619452726	-2.5370862471844	125.241619981516	-19.6556024566674	0.563383727283853	
2173333333.33333	-9.26914097645722	-165.738653772446	-2.52779969114969	124.651862154724	-2.52792353133488	124.695175616418	-19.6662697993373	0.988300181668274	
2176666666.66666	-9.292410198593	-166.868324924712	-2.5205481736494	124.10790549	-2.5199481202623	124.170727514279	-19.6798406720868	1.37309834306021	
2180000000	-9.31358952495303	-167.988155350185	-2.51282156387091	123.574585303674	-2.51460010070654	123.633109609451	-19.6896776654263	1.73662299258953	
2183333333.33333	-9.33362055478034	-169.137678081324	-2.5056993082546	123.043229042858	-2.50647358554455	123.097778687421	-19.7120005652598	2.1311385717861	
2186666666.66666	-9.34898074404768	-170.262289405052	-2.49956440035396	122.518585884814	-2.50016056200735	122.578000557366	-19.7341348543313	2.50510189490396	
2190000000	-9.36452741178769	-171.379502954053	-2.49310328427091	122.004616356048	-2.49487140433389	122.054970765535	-19.756763602759	2.77449822075826	
2193333333.33333	-9.3770319143113	-172.532182202979	-2.48747744063828	121.46882374874	-2.48797436140475	121.524911688474	-19.7750359693934	3.11430548806383	
2196666666.66666	-9.38562914843777	-173.634355234964	-2.48100750476635	120.948922080156	-2.48153982300589	121.010197823583	-19.8018716774444	3.33483655159157	
2200000000	-9.39632589324689	-174.739347989531	-2.47677086814002	120.425437166174	-2.47883334135629	120.492148181168	-19.8086439060389	3.5559059564612	
2203333333.33333	-9.40552723591273	-175.862146703436	-2.47313499946107	119.901581507815	-2.47336040682076	119.964959335536	-19.8192521379031	3.65582174091936	
2206666666.66666	-9.41389949751511	-176.944006074306	-2.46867225545586	119.38168392427	-2.46770039032829	119.441678045607	-19.8232943142479	3.78158120790439	
2210000000	-9.42335136517945	-178.028102760855	-2.46428273703947	118.857791798762	-2.46398057907685	118.924995886912	-19.8231316764954	3.96997639969821	
2213333333.33333	-9.43079905327948	-179.106663051796	-2.46386733951521	118.347929699489	-2.46044713803517	118.406398589265	-19.8197991108185	4.07585874144356	
2216666666.66667	-9.44127821720204	179.827694597088	-2.45999997960974	117.816010187022	-2.45382449869575	117.880781746509	-19.7995372368538	4.26960702313901	
2220000000	-9.44966166742634	178.778679120233	-2.45357359124466	117.314774788728	-2.45405821502289	117.366185572255	-19.7845572624657	4.37678163806874	
2223333333.33333	-9.45645082596244	177.709869040926	-2.45349754654583	116.788872596392	-2.45028885885812	116.844391068521	-19.7561917597967	4.55424584292768	
2226666666.66667	-9.46236315177419	176.641138942534	-2.44729816503616	116.281349238271	-2.44719308303296	116.315635897015	-19.7285939367405	4.70791362809744	
2230000000	-9.46657308000598	175.571631865687	-2.44499052573336	115.757468207157	-2.44523188644104	115.79075913026	-19.6866527349327	4.79650124739463	
2233333333.33333	-9.4746993011218	174.486795376619	-2.44327781280112	115.238218000526	-2.44424150457255	115.281779638918	-19.6508396053197	4.85306750209276	
2236666666.66667	-9.4783648636301	173.456172573726	-2.44152489098782	114.721719886742	-2.44339458418815	114.769013719208	-19.6144562027793	4.9430008081703	
2240000000	-9.48461450833553	172.403159167364	-2.43861167077804	114.196914689046	-2.44098768904965	114.241678924262	-19.5756908903814	5.02232039053355	
2243333333.33333	-9.49265181275416	171.392640485616	-2.43770534571589	113.685638144343	-2.43828887802996	113.734445952018	-19.5385828690593	5.12521075916992	
2246666666.66667	-9.5001132080324	170.363521198314	-2.43443472395136	113.168747297182	-2.43793032496791	113.217630206325	-19.5119658541446	5.21491948890919	
2250000000	-9.50971105389585	169.311894027752	-2.43372502882303	112.65581803252	-2.43569413497088	112.707586163255	-19.4755995578383	5.35438583615345	
2253333333.33333	-9.51819011949978	168.26203058985	-2.43308779329338	112.138840921649	-2.43391369339023	112.185769536797	-19.4476935409198	5.47349915518641	
2256666666.66667	-9.53100704760401	167.230562094738	-2.43247558792868	111.629730981997	-2.43350969650968	111.678767566847	-19.4287707994951	5.62786548377199	
2260000000	-9.53994627430345	166.153387338444	-2.4321264597015	111.124204485868	-2.43303688304711	111.175174150559	-19.4034791939801	5.76952712248854	
2263333333.33333	-9.54750603507865	165.065267966254	-2.43150643986151	110.611119126893	-2.43221175840444	110.65759021768	-19.3802781162965	5.93812520524258	
2266666666.66667	-9.55770507216695	163.941730656442	-2.43176126897699	110.111557022737	-2.43118924633771	110.142044600889	-19.360070480849	6.02559966203519	
2270000000	-9.56741257182158	162.829017327339	-2.43021628045647	109.591357393714	-2.43099664874912	109.640395245228	-19.3546902568383	6.16633581394896	
2273333333.33333	-9.56657778297604	161.680340893615	-2.43162920207458	109.075845542924	-2.4308876515162	109.123287553695	-19.3414124331244	6.22053341396875	
2276666666.66667	-9.56717131779151	160.541873658293	-2.42760706351571	108.573693362308	-2.42927319251262	108.597581698278	-19.326754185004	6.32829821118503	
2280000000	-9.56060371913442	159.401901310044	-2.42745842543173	108.062227712504	-2.42821230934914	108.108149871559	-19.3286407474093	6.3936380659629	
2283333333.33333	-9.55134882964572	158.244716757827	-2.42750308772743	107.552250249819	-2.42869871000256	107.598255559517	-19.3338208602448	6.42079815964375	
2286666666.66667	-9.54355477797106	157.131236594101	-2.42711773704677	107.049721010667	-2.42752289067073	107.104755804573	-19.3337660758854	6.48546537705372	
2290000000	-9.52673022605961	155.999036202546	-2.42607384044492	106.547363968753	-2.42705256378177	106.599430302245	-19.3360953603426	6.47181534223338	
2293333333.33334	-9.51460515688799	154.892821638402	-2.42790716411213	106.050191492103	-2.42640249288245	106.099927579952	-19.3423877542544	6.44042577564519	
2296666666.66667	-9.50107613551144	153.789399031313	-2.42847954102783	105.556898472884	-2.42897156850257	105.606411415009	-19.358246201408	6.3778787771929	
2300000000	-9.48583727187193	152.716330042755	-2.42877950758609	105.061081807869	-2.42943726512422	105.107710986683	-19.3511035348218	6.32883967020818	
2303333333.33334	-9.47146396019024	151.671967125378	-2.43247830156407	104.570633820819	-2.42911002488582	104.616347934513	-19.3564122166027	6.22081670801407	
2306666666.66667	-9.460014373638	150.639663232729	-2.43189395693975	104.077184479462	-2.4315045468587	104.126008418658	-19.3403581272965	6.12169223833248	
2310000000	-9.44529710267433	149.603055978886	-2.4320822433536	103.59411982043	-2.43231306309982	103.628900479068	-19.3302975954893	5.98369836759513	
2313333333.33334	-9.4342097280888	148.578433994598	-2.43478147826493	103.106271876941	-2.43435018153693	103.146636496641	-19.3164959731489	5.8052036203193	
2316666666.66667	-9.42135375435296	147.577459256726	-2.43536590197572	102.619938609028	-2.43667581747932	102.648440997249	-19.2879651369351	5.69180616396442	
2320000000	-9.41164056335326	146.540774370918	-2.4394962599598	102.123226550554	-2.43829414879797	102.157169446071	-19.2622553977789	5.61212287643222	
2323333333.33334	-9.40067621932995	145.505028301584	-2.44091775412821	101.631632803284	-2.43889766509445	101.658850990247	-19.2246515387058	5.39503225949953	
2326666666.66667	-9.38593098581339	144.494714591672	-2.44294252533579	101.142922371192	-2.44261417634082	101.179065263913	-19.1944261252562	5.3093991893805	
2330000000	-9.3812986591321	143.462558301453	-2.44659634808496	100.649466249672	-2.44705621402353	100.680982418932	-19.1596848518802	5.09968058828866	
2333333333.33334	-9.37405754434576	142.450751710141	-2.44949988707238	100.151125562218	-2.45041649677199	100.186062780097	-19.1277861397728	4.95524457774308	
2336666666.66667	-9.365459245786	141.449457750209	-2.45241285008605	99.6584337958741	-2.4530115272765	99.6874847897829	-19.0994789413828	4.84413518819852	
2340000000	-9.35962714891841	140.45881563672	-2.45539742672229	99.1676533721168	-2.45453608999645	99.2040305045289	-19.0624303222301	4.75788596587317	
2343333333.33334	-9.35472426321437	139.44335472479	-2.45856709920502	98.6724915441006	-2.45791748312226	98.7037515985193	-19.026225277479	4.6139705861158	
2346666666.66667	-9.34403943571827	138.42794616407	-2.46127041641878	98.1846131216706	-2.46132373455757	98.2138556726078	-19.0150531255751	4.52218835250266	
2350000000	-9.33786540154968	137.399040167319	-2.46381576219498	97.6947048504813	-2.46344929027716	97.7328495760152	-18.9913852967563	4.45784445504153	
2353333333.33334	-9.33018609707068	136.345395026225	-2.46718645223503	97.2058534131153	-2.46798630774894	97.2434119347766	-18.9725319991516	4.36146552136914	
2356666666.66667	-9.32239954114041	135.306251734217	-2.46895688443868	96.7244058999615	-2.47209799262698	96.7437535113955	-18.9458267964043	4.34249084050153	
2360000000.00001	-9.31425007553165	134.253216977597	-2.47190279838358	96.2404444078019	-2.47210423707288	96.2705866231835	-18.9345637077029	4.31123714018315	
