!Agilent N9923A: A.07.32
!Date: Thursday, 02 June 2016 01:29:22
!Model: N9923A
!Serial: MY52412257
!GPS Latitude: 
!GPS Longitude: 
!GPS TimeStamp: 0001-01-01 00:00:00Z
!GPS Seconds Since Last Read: 0
!CHECKSUM:1670310775
!Correction: S11(ON U)S21(ON U)S12(ON U)S22(ON U)
!S2P File: Measurements:S11,S21,S12,S22:
# Hz S DB R 50
1950000000	-5.62142668671968	17.295525573846	11.4943467053258	-163.640695203368	-23.5385535774444	156.273092388223	-10.634366967634	28.9232769378274	
1953333333.33333	-5.67523026449924	16.3648471117778	11.4853300886956	-164.723997146273	-23.5564467745368	156.157524162818	-11.0283247259232	29.5100565561138	
1956666666.66667	-5.80756385820751	15.3402845882987	11.4944988921513	-166.066824845089	-23.5384423115967	155.98078187545	-11.4428366000986	29.8534205583874	
1960000000	-5.99370999501701	14.2681995039776	11.5206486387943	-167.479860099449	-23.5063604241325	155.780500793979	-11.8732914595306	29.8553505977437	
1963333333.33333	-6.20103243741519	13.2552388260073	11.5784684546068	-168.889847841126	-23.4531198760705	155.514355619435	-12.2969803061477	29.4391494149279	
1966666666.66667	-6.36758193202673	12.64344960752	11.6365170082143	-170.122082035989	-23.3880700685966	155.139176016508	-12.713556015754	28.5153428023321	
1970000000	-6.61077867622592	11.4918551311104	11.6499528085576	-170.971000922496	-23.3073854861944	154.71197145594	-13.099418561071	27.002083186335	
1973333333.33333	-6.83956016174046	10.7049050774848	11.7838444718984	-172.300918607123	-23.2248634162384	154.124495428919	-13.4142214041735	24.9630404935824	
1976666666.66667	-7.00499188562098	10.6027927976589	11.8486724257732	-173.320684012625	-23.1476956710777	153.487806947327	-13.6549368278231	22.3305563990043	
1980000000	-7.33205834546177	9.5202589377085	11.8649064071685	-174.067992866864	-23.0686383458691	152.767703031024	-13.7976576830268	19.1516298836916	
1983333333.33333	-7.53294779984414	9.2887744273531	11.9729448189919	-175.030369427875	-22.996038941187	152.000133887186	-13.8083132988396	15.6214758007359	
1986666666.66667	-7.5938833532027	9.80896038375519	12.0154826696811	-175.569648521247	-22.9276493358506	151.195661786959	-13.6950272939129	12.1036797102479	
1990000000	-7.80082704840373	9.00994254167381	11.9974772055177	-175.879997371986	-22.8657049016267	150.300718907338	-13.4751425211989	8.57031679885289	
1993333333.33333	-7.87969138758664	8.72867572845509	12.0859374949864	-176.583998371509	-22.8099629771753	149.45415353063	-13.1363809404798	5.2540631136444	
1996666666.66667	-7.89524769204941	8.71029135513862	12.1053101128747	-177.129372400708	-22.7653366924396	148.511494382403	-12.7339829723361	2.50643495691037	
2000000000	-8.0269329592789	7.69624329570903	12.0758167621295	-177.619993841628	-22.7262986240899	147.513870725144	-12.2920538465555	0.207605738731547	
2003333333.33333	-8.05593543529839	6.98588946440309	12.0937704067648	-178.272002485039	-22.7038782944525	146.578220658815	-11.8321703468699	-1.64160288688599	
2006666666.66667	-8.01414745427051	6.27689350370628	12.0706836398227	-178.688385176342	-22.6919172996544	145.597927728005	-11.3892856044786	-2.86634546562846	
2010000000	-7.95869181756982	5.14962412077758	12.0451900969283	-179.047755685379	-22.6951594805148	144.615161766001	-10.9691952695012	-3.63133617421592	
2013333333.33333	-7.86849322625793	4.02088822362447	12.0165456662728	-179.422374170632	-22.7149917276754	143.708265296569	-10.5917890482978	-3.95420245162314	
2016666666.66667	-7.75304367155517	2.89489719357935	11.931757572436	-179.589989439938	-22.7344648354114	142.825946018541	-10.2597711209309	-3.87171639521635	
2020000000	-7.6342040341837	1.70450667601702	11.9556252094703	179.759452168085	-22.7825449781396	142.123950512959	-9.98970246687442	-3.49137617130096	
2023333333.33333	-7.44788256226534	1.01302352765044	11.929606877785	179.253834807476	-22.8273765389178	141.417555188662	-9.78692300546852	-2.65097857336769	
2026666666.66666	-7.3676935885212	-0.473048404993136	11.8888896560118	178.760318353829	-22.8854709490684	140.852721256014	-9.63773723612431	-1.56705540049484	
2030000000	-7.19959361068089	-1.32821936784256	11.8456151946309	178.268365140767	-22.942937881199	140.415676928724	-9.54744585276362	-0.260584948171366	
2033333333.33333	-7.00661957458846	-1.9787617403431	11.7901118637434	177.82852030874	-23.0033004983351	140.006391023083	-9.52027174577007	1.39359460494615	
2036666666.66666	-6.81618289557153	-2.56206874516158	11.7193603730116	177.356748366956	-23.0479400143259	139.712418409824	-9.53979544078877	3.20782026675065	
2040000000	-6.66388655425833	-3.1647345131505	11.6563235842966	176.751389047516	-23.0971105243857	139.573588161111	-9.61846397242444	5.11603269510365	
2043333333.33333	-6.56464650206335	-3.83782799404798	11.6097159969659	176.009286444481	-23.1260523359385	139.393064477395	-9.73913103407808	7.31029056227452	
2046666666.66666	-6.51582578305701	-4.57026412896652	11.587439364515	175.095679224443	-23.1278347706482	139.279104129441	-9.89999607149317	9.5246100878461	
2050000000	-6.50764380999302	-5.26807634632575	11.5842568403758	174.087740695949	-23.1300491244188	139.293742536753	-10.0932819983595	11.7442967164232	
2053333333.33333	-6.52570135171918	-5.98603969161424	11.6017269513951	173.053916188778	-23.1094046906209	139.092201169005	-10.3114785008593	14.0750093845142	
2056666666.66666	-6.54567580991453	-6.65419848663113	11.6422550593829	172.073572943053	-23.0726064769721	138.881652297445	-10.5609995364243	16.2385338991011	
2060000000	-6.56990666431338	-7.2451109328734	11.6907937159211	171.158835696228	-23.0262328055622	138.601081083967	-10.8197946743939	18.1792548679928	
2063333333.33333	-6.64403427226855	-7.89329768514271	11.7529904549531	170.216026502792	-22.9713147901196	138.186921632316	-11.0942969081336	19.9178124345505	
2066666666.66666	-6.74461699603931	-8.33916797451373	11.8202675714342	169.243416940415	-22.9029566854873	137.752537004072	-11.3877206174567	21.2375381463003	
2070000000	-6.8573252019765	-8.461034298776	11.8786870577275	168.293306018972	-22.8364371703261	137.150379372217	-11.6952814393251	22.0350268509089	
2073333333.33333	-7.00240353467596	-8.40284040450146	11.9230619254983	167.429895070186	-22.7700566875115	136.491688107665	-12.0130066645866	22.3182144918574	
2076666666.66666	-7.12752006549058	-8.06860529193477	11.9773583666081	166.641716244393	-22.7055064911223	135.764700547195	-12.3355254793782	21.8449952631112	
2080000000	-7.22869293884164	-7.66149944714409	12.0223972019316	166.057685074347	-22.6410922796684	134.981773739023	-12.6600600424366	20.6770352226373	
2083333333.33333	-7.30610360336763	-7.39730199019645	12.0680699502089	165.58664409894	-22.574444228565	134.138957257267	-12.961352999137	18.6784237107687	
2086666666.66666	-7.37452190833437	-7.37847228948672	12.1215310843516	165.120365837765	-22.5189645194655	133.21187688895	-13.2265425543656	15.7800315942143	
2090000000	-7.43915990958645	-7.55375592468872	12.1601884466566	164.648379538629	-22.4640862679467	132.228207668837	-13.4313493775936	12.1041960583865	
2093333333.33333	-7.52699829367326	-7.92151703538367	12.1438393816914	164.331442091097	-22.4250212118496	131.245996434111	-13.5384729532772	7.78218609385455	
2096666666.66666	-7.61668759143122	-8.43885066319972	12.19822887948	163.605955436815	-22.3873418297626	130.206209158418	-13.5420410342337	2.94951780655515	
2100000000	-7.62437381433969	-8.58577090596792	12.2044486415567	163.047371019348	-22.369371041037	129.160970958589	-13.422506390897	-1.94752563907581	
2103333333.33333	-7.79693032574041	-9.82923902558333	12.1391234278034	162.778080261451	-22.3640331464146	128.13576845926	-13.1871805509255	-6.65458004361546	
2106666666.66666	-7.85532547066533	-10.7594583811514	12.1851558881714	161.990351311711	-22.3717082716315	127.120571752756	-12.878571354304	-10.9337103655545	
2110000000	-7.82347527962187	-11.3908571591483	12.1606674171105	161.519364077295	-22.389988704024	126.198498911837	-12.5074503463553	-14.5833382413034	
2113333333.33333	-7.87541215182256	-12.8196992165147	12.0964916876325	161.234687533217	-22.4337511104098	125.280846235908	-12.1211158355943	-17.4410696760325	
2116666666.66666	-7.84745210140047	-14.0500617748818	12.0835034904544	160.651565578718	-22.4831042543789	124.529305965783	-11.7381536083298	-19.5919891267082	
2120000000	-7.79101666926832	-15.2541725117048	12.0372037374007	160.092073902155	-22.5375670697698	123.868228364082	-11.3872130665522	-20.9139176984445	
2123333333.33333	-7.75447989192843	-16.7739534678191	11.9850914422343	159.512925453838	-22.5890462390434	123.310757867413	-11.0749267949948	-21.5362018752176	
2126666666.66666	-7.69396773289126	-18.2959690488142	11.9395429955811	158.757870447245	-22.640377268621	122.922584819169	-10.8104890697019	-21.5781753436619	
2130000000	-7.64902307222996	-19.9485998560095	11.8939040751298	157.92104957271	-22.6862150583344	122.611331120785	-10.6007202449226	-20.9299575373325	
2133333333.33333	-7.64815015609388	-21.7194149207708	11.8590287088119	156.8745384868	-22.7200129226976	122.422138592218	-10.4332051555419	-19.7606675740028	
2136666666.66666	-7.69756174036918	-23.5055819054434	11.8442536615869	155.696525522653	-22.734385062246	122.276050810986	-10.3192900174464	-18.1304241389297	
2140000000	-7.76155418561814	-25.2757941699674	11.8083772502545	154.721830797659	-22.7299332844589	122.190149935543	-10.2411952970126	-16.1281966101742	
2143333333.33333	-7.82629029880806	-26.8762036781929	11.8782657968502	153.252369051773	-22.714631458621	122.077311473048	-10.1973729865848	-13.7249743360926	
2146666666.66666	-7.77583317088359	-27.6216347948719	11.9118388398313	152.12903354745	-22.6873062050656	121.909735957367	-10.1820008210167	-11.0923209307655	
2150000000	-7.88184740220304	-29.4883292066033	11.9653365062704	151.156308973336	-22.6441786528321	121.730342011775	-10.1953294369042	-8.30124507154488	
2153333333.33333	-7.88737763341533	-30.5001173370901	12.0238376914468	150.2375919506	-22.6010416590334	121.464401927567	-10.2267031560608	-5.43518688749291	
2156666666.66666	-7.91438724294002	-31.3077214529437	12.0837163775827	149.310031161353	-22.5528527443082	121.076756633462	-10.2791356204062	-2.57490706454018	
2160000000	-7.966459429781	-31.795932735769	12.1506710261798	148.381632504502	-22.498577214802	120.631446128727	-10.3499221944322	0.191578668625503	
2163333333.33333	-8.02290980361254	-31.873456572448	12.2081276862316	147.490487597665	-22.4521496522264	120.167421499327	-10.4508624384844	2.70325954216871	
2166666666.66666	-8.06470807202249	-31.6016604287853	12.2555343516897	146.754438272177	-22.403857364523	119.590998665323	-10.5740475479131	5.03229213436693	
2170000000	-8.06302284394715	-31.0570226411455	12.2932053262927	146.171090754741	-22.3535468698165	118.978670018938	-10.7335628702046	7.03208911097588	
2173333333.33333	-8.02369066122262	-30.4859376717622	12.3251278221766	145.755705126643	-22.310796305807	118.352745338767	-10.9331373670727	8.59040713989368	
2176666666.66666	-7.95153276282263	-29.9742210100703	12.352101332169	145.437237819778	-22.271154812445	117.579890610475	-11.1562939405049	9.70251229654531	
2180000000	-7.88406852258904	-29.7016746017208	12.3779372238978	145.131153706231	-22.2243296595802	116.74462732079	-11.4293193700779	10.218625893322	
2183333333.33333	-7.81668501534516	-29.5319446930289	12.3998042956438	144.806526825457	-22.1872790261933	115.915881515623	-11.7417649093183	10.0444971560891	
2186666666.66666	-7.78073664738262	-29.561646616883	12.4068062561658	144.454765996238	-22.1531720915699	115.042636355233	-12.0837511836153	9.24739630606238	
2190000000	-7.76631377574854	-29.6712296180615	12.4174857123256	143.976300192197	-22.1171062059196	114.069255519756	-12.4627294329705	7.61009261220897	
2193333333.33333	-7.75319593617505	-29.7868178775727	12.418455804694	143.444008243907	-22.1013163182126	113.100291111107	-12.8533987007798	5.02610676693237	
2196666666.66666	-7.82820679074304	-30.2946717360838	12.3956704642864	143.004248527841	-22.088800189625	112.117197871283	-13.2176516279166	1.73637752182343	
2200000000	-7.86927581811827	-30.6964172873002	12.4034735498982	142.340575092814	-22.0847511887656	111.127537294966	-13.547987666015	-2.46114692639499	
2203333333.33333	-7.87863857642029	-31.0529804344818	12.3840703688909	141.825878975884	-22.0954657361995	110.186163129676	-13.8066290627894	-7.39195867391785	
2206666666.66666	-7.91570156808226	-31.8026145798081	12.3418104960785	141.467951954764	-22.1200174453252	109.279805324073	-13.9521847095661	-12.7532478004499	
2210000000	-7.92651679636397	-32.682467385981	12.3269124221677	140.865068706351	-22.1456627433651	108.414150329032	-13.9801012421078	-18.1602078406099	
2213333333.33333	-7.90098456012063	-33.5388410864973	12.2966566297714	140.170799537159	-22.1923030690052	107.658846975509	-13.8815924628852	-23.2941987754893	
2216666666.66667	-8.03016838799179	-35.4321362255361	12.2663851454181	139.303721397314	-22.2332945519666	107.030050087531	-13.6840995165396	-27.8017970422155	
2220000000	-8.1398665298341	-37.4633262393553	12.2366024838661	138.217228168039	-22.2706393230445	106.564724804892	-13.4091720692474	-31.4554317741117	
2223333333.33333	-8.3177163513514	-39.8961117508111	12.2093276699992	136.876795861089	-22.3026119831428	106.223781099108	-13.0969895025452	-34.1478845736259	
2226666666.66667	-8.59237648853169	-42.6750159582544	12.1957957864057	135.301792853924	-22.3143074870575	105.987761133531	-12.7678030743309	-35.9031034002599	
2230000000	-8.95461244605984	-45.6554869012082	12.2024692849813	133.564173488854	-22.3096781520741	105.732924819598	-12.4381264317277	-36.787688999792	
2233333333.33333	-9.34161195496405	-48.6350059713075	12.2316595902752	131.846457027077	-22.2841017964893	105.477657805075	-12.1253806409136	-36.8812793628034	
2236666666.66667	-9.69570605323306	-51.4932718490951	12.275646758364	130.289852450496	-22.2589183184182	105.184207227933	-11.8447219464934	-36.353150727077	
2240000000	-9.99343122592052	-54.1554663731391	12.3347307730462	128.908533147252	-22.2125057410479	104.876587152551	-11.5909453564952	-35.2815318650379	
2243333333.33333	-10.255348741493	-56.6650520968447	12.4057175211933	127.668605372304	-22.167102481317	104.465763116626	-11.3647694725648	-33.7361335959188	
2246666666.66667	-10.5143600296524	-58.9230867288644	12.4946195206238	126.433224105869	-22.1171771112619	103.993773976298	-11.1681370224628	-31.8613242596306	
2250000000	-10.7177891194257	-60.4881228005027	12.5746128106864	125.315124098007	-22.0763866147876	103.535765016098	-11.0083066262688	-29.7791065833691	
2253333333.33333	-10.9453408578788	-61.7511758305198	12.6011594573118	124.559150293685	-22.0284144584888	103.005418323713	-10.8800192252628	-27.442345646936	
2256666666.66667	-11.0515266370687	-61.7147336840805	12.6870139284775	123.603705071697	-21.996035170738	102.424498646765	-10.7756426767001	-25.0803856266831	
2260000000	-10.9060778674599	-60.0564620462071	12.6999470920368	123.182726433011	-21.9680370160126	101.965738732174	-10.718773644879	-22.6513913839472	
2263333333.33333	-10.9232444991228	-59.4697869526403	12.6585732326626	123.185351749273	-21.9385740963218	101.364229351323	-10.6890838913744	-20.1666878630711	
2266666666.66667	-10.7024690983155	-57.9670455887359	12.7064231095116	122.906001158322	-21.9037582075107	100.811942965939	-10.6847486162182	-17.8917427993032	
2270000000	-10.3725735149104	-56.4009294351608	12.7114714336855	122.90432990935	-21.87334834701	100.228739164658	-10.7180419370301	-15.7643660568161	
2273333333.33333	-10.2346870904977	-56.0460575857043	12.6724951530922	122.991996698908	-21.8474780821291	99.5836457828596	-10.7870304352884	-13.8512810195282	
2276666666.66667	-10.0182207323964	-55.5268396153405	12.7221615971169	122.557682026029	-21.8182810686001	98.8715794093804	-10.9021764025235	-12.3640060223282	
2280000000	-9.78391040430574	-54.9886281588227	12.720751624383	122.288392141819	-21.7920142570715	98.0982700906486	-11.0613935681281	-11.2061073707807	
2283333333.33333	-9.68325702893472	-54.9502326616774	12.7052163112508	121.930005450041	-21.7808738883933	97.3371515052507	-11.2677694413892	-10.4819471169434	
2286666666.66667	-9.52961424701881	-54.644473404538	12.6898711472452	121.507707175925	-21.767117815478	96.5338642778357	-11.5255060141986	-10.233188449964	
2290000000	-9.46222911503761	-54.5931388902032	12.6339612127238	121.26772504672	-21.7619723946513	95.6472517578233	-11.8211751390748	-10.5151180750154	
2293333333.33334	-9.34099785760118	-54.3807969816909	12.6300678622964	120.747940920056	-21.7589484901942	94.8354696620017	-12.1676405176397	-11.3779626997728	
2296666666.66667	-9.07579775551532	-53.7783588882857	12.5981794133884	120.517212562549	-21.7602577553115	93.8823832957462	-12.5414514289757	-12.9365169066397	
2300000000	-9.002275021502	-54.3834110471339	12.5312873934434	120.610865805691	-21.7772012976412	93.0400910186037	-12.9269241572361	-15.1701041065705	
2303333333.33334	-8.86598248565128	-55.1094931584322	12.5515828437904	120.044870023717	-21.7973239940657	92.1370434975473	-13.3303227662239	-17.970710975921	
2306666666.66667	-8.68160833634592	-55.7197824964466	12.5376745606855	119.404424890679	-21.8323702668201	91.3597597064587	-13.704657895845	-21.3858392438977	
2310000000	-8.81536576882214	-57.8636111701619	12.4941351797257	118.749385850686	-21.87118324309	90.7164453274601	-14.0193331277855	-25.2372730232808	
2313333333.33334	-8.92545544777889	-59.9793673069841	12.4970466392642	117.321032231991	-21.9092533615736	90.1490357163111	-14.2442059026713	-29.2374007977553	
2316666666.66667	-9.12509927301263	-62.4356425005373	12.4715064734623	115.735492156967	-21.9268512386403	89.7283298650118	-14.3683585001154	-33.3464681443655	
2320000000	-9.53854260126262	-65.6405028262965	12.4540502049111	113.884469332681	-21.929445021516	89.410163565611	-14.3697366635392	-37.1866397074444	
2323333333.33334	-10.0450176713977	-68.9218217547604	12.4608992207918	111.896429166261	-21.9067626801706	89.0056020363917	-14.2633247515842	-40.613713296543	
2326666666.66667	-10.5399119172933	-72.0989505260993	12.4853560263083	110.125212928648	-21.8894261700313	88.658451446854	-14.084854142156	-43.6193220141747	
2330000000	-10.9909677770402	-75.4628358639694	12.5262183271483	108.585880671012	-21.8525626371865	88.3066329247077	-13.8450273330919	-45.7934177722168	
2333333333.33334	-11.4399378399504	-79.2374554032712	12.5944063791067	107.102214185709	-21.8089934756405	87.8246202961938	-13.5674494127643	-47.3363013628837	
2336666666.66667	-11.9309174862851	-83.3858594655961	12.6791772224888	105.576864310091	-21.7639779227988	87.3602295637976	-13.2664609275318	-48.2250004607691	
2340000000	-12.4360196640791	-87.4551553474584	12.7641751281906	104.100739999521	-21.7100575468087	86.7533789537457	-12.9652522411738	-48.4811100791616	
2343333333.33334	-12.808834483041	-90.4122368780765	12.8370557556014	102.802395403981	-21.6684610293977	86.1121596840184	-12.6767519455322	-48.2534981660142	
2346666666.66667	-13.2843423211986	-93.54880930769	12.8515506724587	101.88585305207	-21.6340054214442	85.4762143463594	-12.4263810782335	-47.6463864437958	
2350000000	-13.5631305573137	-94.792108715531	12.9251612259136	100.848766714883	-21.6079015862739	84.8182813258506	-12.1806265495256	-46.578515045603	
2353333333.33334	-13.6958908807543	-94.544196830573	12.9303837227697	100.323936876451	-21.590998869764	84.257395322332	-11.984573446407	-45.1832169927925	
2356666666.66667	-13.649383062051	-92.7873174274207	12.9143367347534	100.150544881383	-21.572197864196	83.6825101014638	-11.8182372137841	-43.5223539567191	
2360000000.00001	-13.451845595499	-90.41448352524	12.898553979927	100.192289733235	-21.5522939170173	83.1387562883146	-11.6763677123295	-41.6287176368236	
2363333333.33334	-13.2116599588911	-88.6153582735225	12.8965643111711	100.224460578178	-21.5301064184775	82.6113774634151	-11.5516105687044	-39.6801173992904	
