!Agilent N9923A: A.07.32
!Date: Wednesday, 01 June 2016 23:40:36
!Model: N9923A
!Serial: MY52412257
!GPS Latitude: 
!GPS Longitude: 
!GPS TimeStamp: 0001-01-01 00:00:00Z
!GPS Seconds Since Last Read: 0
!CHECKSUM:0034227808
!Correction: S11(ON U)S21(ON U)S12(ON U)S22(ON U)
!S2P File: Measurements:S11,S21,S12,S22:
# Hz S DB R 50
1950000000	-14.449452210837	148.69553160787	-36.9203286479498	-132.637327880019	-35.7005771462507	-105.79100313506	-1.75238304924751	-23.6378585637652	
1953333333.33333	-14.1327300555888	144.322711044326	-36.9592918995744	-134.206296778965	-36.3723964526711	-109.322443227595	-1.64103414415646	-24.1408081387365	
1956666666.66667	-13.8189508896232	140.104389824778	-36.97640850492	-137.551132835923	-37.3270008708831	-113.882817250607	-1.55015636551721	-24.6023890909928	
1960000000	-13.5376096048192	136.211416930787	-37.1320628315549	-140.992150229653	-38.2434748740189	-117.575262846611	-1.49704280924239	-24.9885716187778	
1963333333.33333	-13.3253119960768	132.756165672391	-37.2651501270154	-143.870672208557	-38.8186394708521	-121.203515315258	-1.50700380238897	-25.3538880951001	
1966666666.66667	-13.1776956252869	129.77366233985	-37.2650571391904	-146.217844325931	-39.0222194103103	-124.469265490935	-1.60381459088115	-25.7530695411615	
1970000000	-13.0639863431597	126.964968876062	-37.297882079553	-148.126571365793	-39.0043838811788	-124.604953074712	-1.77463250123942	-26.1616481836905	
1973333333.33333	-12.9624749528768	124.045792926293	-37.437387758984	-148.581229210907	-38.9243022850365	-122.046137441212	-1.97766904152563	-26.5409923108414	
1976666666.66667	-12.866799287582	120.696311248268	-37.6107997441959	-148.281586586054	-38.9994350552391	-118.341635514506	-2.17428194754718	-26.9914658735855	
1980000000	-12.7774765045466	116.928279040279	-37.7331132987791	-148.548669622363	-38.9798875808896	-113.793921367434	-2.32801442466834	-27.5162828194121	
1983333333.33333	-12.6981293610137	112.975456258847	-37.7458270701097	-149.046091957485	-38.8242937342236	-109.173803814362	-2.43232475618748	-28.1726989502375	
1986666666.66667	-12.6406376489864	109.035520939386	-37.7223283528791	-150.716272416539	-38.5569567990516	-106.658494330904	-2.47855820797175	-28.9094531339638	
1990000000	-12.5918944954178	105.287622636917	-37.8250817345605	-152.31813033977	-38.4259280492085	-104.278374453521	-2.4560966766223	-29.646096211407	
1993333333.33333	-12.5516997981804	102.024074957184	-38.0154177831949	-153.142243102178	-38.4687258060089	-102.016419254255	-2.36319998616022	-30.3375411254682	
1996666666.66667	-12.5125225739797	99.2624812366588	-38.2035703529683	-153.07903036451	-38.6299557958049	-100.063453983998	-2.22103332278926	-31.1147876221954	
2000000000	-12.4391199258836	96.9289167591758	-38.2049336323291	-153.23786954563	-38.7210534292208	-99.9330186969323	-2.08133088686841	-31.9975224569078	
2003333333.33333	-12.3076673513343	94.6996825375652	-38.1610756312771	-154.24046243737	-39.0185303804061	-102.051674158634	-1.94456458053623	-32.8477654166492	
2006666666.66667	-12.1123714823389	92.3813702435602	-38.2844894773155	-155.111862169214	-39.6649039754629	-105.876261620192	-1.79191091765487	-33.5351905009805	
2010000000	-11.876568285926	89.9582212675262	-38.5615443411961	-155.709317938525	-40.3965399367918	-111.300123734787	-1.63864174542165	-34.081955924655	
2013333333.33333	-11.6319279267059	87.7516819977183	-38.8220491196412	-156.273058630977	-40.7410813791989	-116.883972695285	-1.53696393571145	-34.4601106124748	
2016666666.66667	-11.39733598476	85.8414550096612	-38.9839267523888	-156.206503114827	-40.8476963493715	-120.77082398723	-1.51158734606861	-34.784524596497	
2020000000	-11.1768834382376	84.2501255384688	-39.1596815084306	-156.850985938154	-40.7987513606549	-122.447513255433	-1.56397159272823	-35.0568684927498	
2023333333.33333	-10.9658470017578	83.0020877757284	-39.3939331432205	-157.057475852287	-40.7529461429845	-121.473900776308	-1.66995701033374	-35.2517686365536	
2026666666.66666	-10.7459548275247	81.931195878079	-39.7110413765563	-156.919222719862	-40.6249031544155	-119.331228969973	-1.79617331762985	-35.3943424466314	
2030000000	-10.5114570388696	80.8916593572513	-39.9071646626914	-156.564455599926	-40.4402522816217	-116.116459671524	-1.9075145627457	-35.592789804391	
2033333333.33333	-10.2504576017009	79.8589738561406	-40.00820087177	-155.508518363305	-40.1662168875137	-114.077244201174	-1.99198004179554	-35.905146877116	
2036666666.66666	-9.96976998331754	78.744409978133	-40.0193014900429	-154.433095829956	-39.9224561030294	-112.81287463657	-2.06150597799686	-36.4646883778777	
2040000000	-9.66663742062653	77.515732409248	-40.2932370063181	-154.794792439532	-39.9872694699841	-112.703188849592	-2.10524958327514	-37.0772586308679	
2043333333.33333	-9.36002038162039	76.1547429074778	-40.7262344382223	-154.345792250245	-40.3036981064733	-111.878089267079	-2.10518066487648	-37.7474190385278	
2046666666.66666	-9.09221691259659	74.7093379025014	-41.2133058042202	-152.799341096778	-40.5095743471433	-110.367346223075	-2.07262910503004	-38.4726604021485	
2050000000	-8.87642024026993	73.2626584969519	-41.5194446616071	-151.329287615886	-40.6499769842247	-108.49544140579	-2.01380964213687	-39.3690925615623	
2053333333.33333	-8.71262923479172	71.7867663161477	-41.6378869183898	-149.003554082706	-40.7441893697741	-106.598268114743	-1.94692187789666	-40.3945702812451	
2056666666.66666	-8.58435924521868	70.2276735526786	-41.7920716201113	-146.194919157169	-40.8589384176335	-106.233515505271	-1.87229276811174	-41.5383446366321	
2060000000	-8.4766404421092	68.4461271502686	-41.8089634995168	-143.107180758636	-41.0645025670128	-107.340145924319	-1.78566508532045	-42.6441516152978	
2063333333.33333	-8.38902343103344	66.4294119324938	-41.765228465756	-141.780237615814	-41.4029878021754	-109.392304395378	-1.71818578466891	-43.5696041131651	
2066666666.66666	-8.32662197838004	64.1708070630242	-41.4896917425512	-140.096191488302	-41.61000003495	-112.722427918344	-1.71549747658188	-44.3057233611124	
2070000000	-8.2903010555927	61.7835994011507	-41.2219533827901	-138.634881947042	-41.6914671311727	-114.662793363163	-1.77657270683418	-44.889441160845	
2073333333.33333	-8.2557826775328	59.3612521242774	-41.1057928650641	-138.964357671805	-41.3639840816444	-114.875773426573	-1.90162369270603	-45.3171302335393	
2076666666.66666	-8.22747102335515	56.876220488572	-40.9786088427703	-139.467620231025	-40.8018327247501	-113.888720350296	-2.07525045452552	-45.6274578783957	
2080000000	-8.21114077965276	54.5069899084978	-40.8496975085911	-139.321013127114	-40.0562805075703	-112.316459302725	-2.26401681021794	-45.7903794055479	
2083333333.33333	-8.20470313096401	52.4035849399873	-40.7525201983935	-139.354953965703	-39.3253869460711	-110.513816142419	-2.43731870166763	-45.8782466333807	
2086666666.66666	-8.18904916171818	50.5679689642906	-40.5726114437751	-139.302015822914	-38.76926108535	-109.213710077158	-2.57746532061563	-46.0478021449888	
2090000000	-8.14907907641898	48.9604693258959	-40.3799520170667	-138.830682625288	-38.4650187415527	-108.908395898673	-2.67593066123564	-46.3054927331599	
2093333333.33333	-8.06078180956102	47.5027860647085	-40.294941289173	-139.478212261482	-38.2882129686117	-108.586500460098	-2.72402648654723	-46.5798174102575	
2096666666.66666	-7.93686841783168	46.1257412317732	-40.3128647687318	-140.84624683498	-38.2683304202923	-108.227670236285	-2.71402267101202	-46.9729918691411	
2100000000	-7.80061561732531	44.9583019090368	-40.3100251012464	-140.57954649626	-38.3572412771666	-107.852780147168	-2.64558879353554	-47.5520133252084	
2103333333.33333	-7.65650920710284	44.0363012069712	-40.2578708927887	-139.842384725399	-38.6196335103792	-107.812612033597	-2.54443011766961	-48.3960342305047	
2106666666.66666	-7.49913273842167	43.2810912966608	-40.3832529390855	-140.53553880781	-38.8062548980882	-107.599360473236	-2.43217604338439	-49.448712586938	
2110000000	-7.33200237912603	42.6934741183418	-40.5722026413796	-140.658820954938	-38.8200625492776	-107.780039452295	-2.31594593122085	-50.6324941595046	
2113333333.33333	-7.1485536032897	42.2097810298947	-40.6169147838474	-138.790062266168	-38.8124108144179	-108.546925736375	-2.21402346924701	-51.7951159883511	
2116666666.66666	-6.96382760013558	41.8209171438098	-40.6032657550494	-136.901916992546	-39.0438659247684	-110.678107778272	-2.14177303883309	-52.8127312499244	
2120000000	-6.76530009185384	41.4543861182066	-40.5964136222298	-135.677955528055	-39.2718662269253	-114.422762446724	-2.11269662386033	-53.6634980741488	
2123333333.33333	-6.55367858513678	41.0703792083914	-40.7179534508785	-134.993499463894	-39.3046801185479	-117.141280034189	-2.13171572729216	-54.3157072322829	
2126666666.66666	-6.34408050174365	40.6415825515767	-40.9346337114318	-135.733440778276	-39.157954634349	-118.85473670841	-2.18963772950968	-54.7422584186016	
2130000000	-6.12971331802725	40.1158311279575	-41.1589397010215	-135.507815513163	-38.8583628713116	-119.676606887073	-2.27348988344719	-54.9662380399163	
2133333333.33333	-5.92945258461593	39.5155389035657	-41.3167881852922	-133.980224796009	-38.6208911054751	-119.813898622181	-2.35956341544858	-55.0397753969535	
2136666666.66666	-5.74827826636346	38.7393161865805	-41.1656370225417	-130.50099151577	-38.6114695939342	-120.37746518454	-2.43812597446479	-55.1236134511828	
2140000000	-5.59761444973218	37.828313899097	-40.9493582408354	-128.747823327472	-38.6410026154058	-120.590329527967	-2.51050248026917	-55.232385950415	
2143333333.33333	-5.47829904063334	36.7353964540481	-40.9331960210544	-129.475989613879	-38.6567407027887	-120.3345625833	-2.55787429823469	-55.3232905426437	
2146666666.66666	-5.39374831220597	35.4801393462694	-40.9727434986659	-130.619501082995	-38.6044336355569	-119.081857450005	-2.55137237674727	-55.3732715480776	
2150000000	-5.34523873720639	34.0754435543876	-40.9986776231525	-132.010773925591	-38.5331842509044	-117.324443217379	-2.49680017229187	-55.6130668051401	
2153333333.33333	-5.32839235316439	32.5420226749893	-41.0208736115926	-134.130218382515	-38.352168976031	-115.187347033672	-2.42054035969954	-56.1293516530295	
2156666666.66666	-5.3405600454742	30.8696870494787	-41.2055608086599	-138.403164706408	-38.1254805912901	-113.08477529108	-2.34036482691615	-56.884019820433	
2160000000	-5.36963790076651	29.0831666592442	-41.4692360642703	-143.286791998726	-37.8292796545675	-111.838187101005	-2.27229211136076	-57.8272231246035	
2163333333.33333	-5.41530923645421	27.2262290984112	-41.4328483126947	-146.544649178622	-37.740484024451	-111.60353785939	-2.21721905799208	-58.9598456735446	
2166666666.66666	-5.47506409676844	25.3408706133964	-41.2245696733728	-148.472849819444	-37.8936295307386	-113.178792873497	-2.19273139176144	-60.2301522370815	
2170000000	-5.53699615363786	23.505991621946	-41.1135174432555	-152.379997314582	-38.1287971335676	-116.493871057938	-2.20818272496171	-61.4746362491194	
2173333333.33333	-5.58504800494276	21.7952278803617	-41.2233111119063	-158.897765162845	-38.1510447974013	-120.223604270192	-2.2740177541383	-62.6511499073649	
2176666666.66666	-5.62443352478939	20.2288348201741	-41.3191254187863	-165.907148522251	-37.8512542105554	-123.839619773068	-2.39866199300615	-63.6269268960578	
2180000000	-5.64407513146445	18.861754065955	-41.3250883622347	-172.630358289397	-37.3061855516955	-126.523040798267	-2.5702785373648	-64.332738923926	
2183333333.33333	-5.62980825580432	17.696858627261	-41.3943341989867	-177.849132471152	-36.6981288596765	-128.222983196976	-2.75879971175034	-64.7771750203807	
2186666666.66666	-5.57764879653376	16.6911457172083	-41.4739282461893	-178.493036785905	-36.1228790240519	-129.524952183924	-2.95847665490443	-65.0573473418487	
2190000000	-5.5005200015532	15.8463590334169	-41.4208949993687	-175.70047647846	-35.7242675995995	-130.79926479124	-3.1508996474397	-65.1757920472563	
2193333333.33333	-5.39424958860776	15.1608172822664	-41.4884220401744	-175.866679755666	-35.4594186833782	-131.958857046705	-3.30777287028681	-65.12878438984	
2196666666.66666	-5.25851881222065	14.5954354826309	-41.6789654533748	-177.417383857072	-35.2489220310096	-132.146797529559	-3.39547873096764	-64.9190762475098	
2200000000	-5.09915116052728	14.0970367266125	-41.9861309463078	-175.289958679782	-35.0325552958427	-131.444592769691	-3.3896019747495	-64.671898976933	
2203333333.33333	-4.92847639773216	13.711766500802	-42.185094763036	-170.580009354711	-34.8754869729898	-129.651592402307	-3.29195509361203	-64.7648737772163	
2206666666.66666	-4.74436261278129	13.365805425602	-42.4140457054557	-165.719929257764	-34.7093531708299	-127.609737329001	-3.15693706854452	-65.2674684383872	
2210000000	-4.55558984688642	12.9982697501089	-42.5184325433354	-160.468086710071	-34.6584505085269	-126.359872176789	-3.046236896057	-65.9722658079414	
2213333333.33333	-4.36785282539328	12.6307736945073	-42.1104473957138	-152.659470643571	-34.6635483042348	-125.301217965311	-2.95733039522968	-66.8120689280956	
2216666666.66667	-4.19465550562375	12.2017052954446	-41.4702714768283	-145.634748351394	-34.7175274613222	-125.285270270747	-2.88765246369767	-67.8608189724931	
2220000000	-4.03037400650235	11.6928519886352	-40.9302575404075	-141.136244218026	-34.8953440442047	-126.540406091497	-2.84313749912855	-68.9759825864359	
2223333333.33333	-3.87829342747651	11.077410669829	-40.2110663357594	-137.245668666327	-35.072498718812	-128.305411131158	-2.82352991973298	-70.0863337693058	
2226666666.66667	-3.74948603155474	10.3391070731877	-39.5219691457352	-134.768855968955	-35.1303503600909	-130.352262427248	-2.85134630941729	-71.1446556159998	
2230000000	-3.63880507177216	9.43677030315068	-39.0147101968403	-133.078817227032	-35.0639409434539	-132.277745590287	-2.91911627018119	-71.9745711777231	
2233333333.33333	-3.55232003602977	8.40158252233546	-38.5677307300574	-133.016143345859	-34.9343080377439	-134.000663347551	-2.99577206462945	-72.5138887878463	
2236666666.66667	-3.49558968426593	7.22300634465323	-38.0845548465322	-133.471473510907	-34.7685341905207	-134.936393488762	-3.06981075852242	-72.8199957223699	
2240000000	-3.46764767803842	5.98791868406714	-37.7378622144764	-134.365284528574	-34.6369429296483	-135.095421687894	-3.12719269696824	-72.9477270421784	
2243333333.33333	-3.46419068307977	4.70379653782384	-37.4601883142496	-135.564249608298	-34.5781698423495	-135.668453204471	-3.14514058132786	-72.9534317833716	
2246666666.66667	-3.48106855360537	3.34477790726327	-37.3254810466433	-136.690010394736	-34.6383506459293	-136.181384260949	-3.10352385523567	-72.8732845787056	
2250000000	-3.51882138757367	1.93194675703526	-37.1394273309956	-137.984738143958	-34.659834254638	-135.806121743706	-2.99441886622911	-72.845199428485	
2253333333.33333	-3.56994136243354	0.474323404020234	-37.0143515368341	-139.132187925715	-34.5787219675618	-134.280766954304	-2.82129747213629	-72.9257960071941	
2256666666.66667	-3.62984077659589	-1.02182756266703	-36.8477284011562	-140.074378585369	-34.348288991054	-132.282707493308	-2.6120280458636	-73.1993830082977	
2260000000	-3.6971337064992	-2.53170694596555	-36.6768667453913	-140.805171568389	-34.0800540408679	-130.336284547846	-2.42546510656569	-73.6969876001578	
2263333333.33333	-3.75882151858782	-3.96677731501964	-36.6208898781421	-142.170584474663	-33.8589608572201	-129.114490733986	-2.2891902024711	-74.3605820931556	
2266666666.66667	-3.81339945731606	-5.32982013665309	-36.6706447667045	-143.651551155272	-33.9320894694831	-129.019332816969	-2.20112016141778	-75.2028327272493	
2270000000	-3.85257347035056	-6.59103476939975	-36.8035162464659	-145.721404534353	-34.5217679791593	-130.448468481653	-2.13363049366857	-76.2132454266094	
2273333333.33333	-3.86874035273485	-7.74698323227052	-36.8742956397061	-147.11985984503	-35.3661534869701	-132.808028942732	-2.08021838701007	-77.3518196120784	
2276666666.66667	-3.85365612201443	-8.77956967921777	-36.7507471209357	-148.072972476982	-35.7716118679688	-135.435241598483	-2.06455373909629	-78.668420333492	
2280000000	-3.80699404072122	-9.70916675898399	-36.8077587156733	-149.608111687751	-35.4041493687942	-137.79427302258	-2.10421070740266	-80.0942777457092	
2283333333.33333	-3.71671044523647	-10.5029782174873	-37.0519566368203	-151.988129350393	-34.8217396594448	-139.891414299449	-2.21363482507217	-81.5975779014874	
2286666666.66667	-3.5933102548739	-11.158716947275	-37.2821392013873	-153.769405018483	-34.3523604378255	-142.320391667664	-2.4047937811804	-83.0727848160114	
2290000000	-3.44822899619934	-11.664058912093	-37.3756845304256	-154.327985425546	-34.0960272845467	-145.029207968209	-2.65097278282497	-84.3741595593357	
2293333333.33334	-3.28182319885142	-12.0799099101823	-37.318633181878	-153.544749701329	-34.0043906884704	-147.936576913685	-2.88105168273502	-85.3829262865165	
2296666666.66667	-3.11513928428996	-12.4657749184702	-37.4673936475757	-153.931214512986	-34.109617819377	-150.898275127938	-3.03898156336861	-86.2087137811902	
2300000000	-2.95585149361581	-12.8795139488149	-37.7132737300236	-155.115312215219	-34.2156085616404	-153.141545626609	-3.1146182372285	-86.7511744864979	
2303333333.33334	-2.81027904156379	-13.3416268380109	-37.9095631825327	-155.758707568983	-34.2217393085866	-153.766215902154	-3.10525189321303	-86.8948700227605	
2306666666.66667	-2.68404738969729	-13.8768980605121	-38.0602202960682	-155.82488511374	-34.1068327606894	-153.050670402497	-3.02465959157084	-86.7919027773429	
2310000000	-2.57268057137465	-14.4910798586312	-38.180277879398	-155.588399127333	-33.8557918047141	-151.482188311532	-2.88655143124295	-86.6875754850219	
2313333333.33334	-2.48099364166943	-15.1939750245691	-38.4913856405722	-156.033722828198	-33.6255403966062	-150.058402339096	-2.75466599363448	-86.904607333059	
2316666666.66667	-2.41312864491471	-16.0115217282137	-38.7153789231504	-156.475704596587	-33.5765362735531	-149.58024488793	-2.68618609885747	-87.303758546453	
2320000000	-2.35796848469236	-16.8942605666319	-38.7946632356333	-156.502711901628	-33.9372024829081	-150.263427070228	-2.65642433637333	-87.8081252177125	
2323333333.33334	-2.32519157569745	-17.8652302122488	-38.7410767727651	-156.561308588185	-34.7018739208891	-152.429706972702	-2.63988706753006	-88.4213217022012	
2326666666.66667	-2.30755306606615	-18.9119513074581	-38.6516525467611	-157.31118386778	-35.176964109872	-154.611887331666	-2.63497590022976	-89.3102319152954	
2330000000	-2.30437810747248	-19.9975516498485	-38.5720304075343	-158.808197431125	-35.1056617014823	-156.282343597819	-2.68942105341739	-90.6121212430137	
2333333333.33334	-2.31085515376684	-21.1126254006161	-38.397780810336	-160.306866882104	-34.5975242395637	-157.741244960916	-2.82214591280481	-92.1667377277229	
2336666666.66667	-2.33163100896312	-22.2522999021285	-38.1762622149692	-162.056525072496	-34.0838344704299	-159.016481334514	-3.01436031393786	-93.7920361019402	
2340000000	-2.36572619043315	-23.4271767629674	-37.96777642236	-163.908082096866	-33.6972370299177	-160.208542627928	-3.22334282987303	-95.2805725594905	
2343333333.33334	-2.41070775164355	-24.6349072289514	-37.7298469105197	-165.691740426891	-33.4225962144653	-161.261978940801	-3.38699349826073	-96.4851747657774	
2346666666.66667	-2.46857972648314	-25.8719527507864	-37.5599974633111	-167.949955006248	-33.3023850836002	-162.364649879629	-3.44837268442232	-97.5919773878475	
2350000000	-2.53882437915529	-27.1609289318916	-37.4156344796992	-170.436523873275	-33.3270220616856	-163.544866628774	-3.42325556238221	-98.4689070187832	
2353333333.33334	-2.61580518169671	-28.4681483032988	-37.2662208036737	-172.9743168395	-33.3245819386977	-163.975788338541	-3.30967240905213	-98.7513290024895	
2356666666.66667	-2.69134316292532	-29.7753669149586	-37.1753608220943	-175.748636473536	-33.3108733222976	-163.645507230147	-3.11109040413114	-98.5434418494624	
