freq;vin;vout;tint
2.6;050;0.400;0
6.11;220;1.08;0
9.97;370;1.48;0
20;540;1.95;0
29.37;580;2;0
51.11;580;2;0
100;600;2.1;0
192;600;2.1;0
305;600;2;0
400;600;2;13.37
500;600;2;15.99
600;600;2;16.45
700;600;2;17.86
800;600;2;18.65
900;600;2;19.28
1000;600;2;19.75
2000;600;2;12.48
3000;600;2;15.8
4000;600;2;17.77
5050;600;2;18.95
6000;600;2;19.66
7000;600;2;20.14
8000;600;2;20.64
9000;600;2;21.01
10020;600;2;21.34
11000;600;2;21.63
12000;600;1.85;21.98
13000;600;1.85;22.27
14000;600;1.8;22.56
15000;600;1.8;22.7
16000;600;1.75;22.92
17000;600;1.7;23.07
18000;600;1.6;23.29
20000;600;1.44;23.72
26000;620;1;24.52
