!Agilent N9923A: A.07.32
!Date: Thursday, 02 June 2016 23:00:28
!Model: N9923A
!Serial: MY52412257
!GPS Latitude: 
!GPS Longitude: 
!GPS TimeStamp: 0001-01-01 00:00:00Z
!GPS Seconds Since Last Read: 0
!CHECKSUM:2059418579
!Correction: S11(ON U)
!S1P File: Measurement: S11:
# Hz S DB R 50
1950000000	-1.47268120281197	28.5198099291425
1953333333.33333	-1.48062007959243	25.6977979083378
1956666666.66667	-1.48509171017056	22.926843102679
1960000000	-1.50240542245932	20.0900966821644
1963333333.33333	-1.53337342319553	17.1962397355698
1966666666.66667	-1.587544305742	14.3197930292873
1970000000	-1.64214889343763	11.5114564538008
1973333333.33333	-1.67903244223909	8.7076423182853
1976666666.66667	-1.70420256497132	5.92054445705426
1980000000	-1.72036323527481	3.18175955190574
1983333333.33333	-1.71531583835994	0.530170709175865
1986666666.66667	-1.68985207478257	-2.07664316697992
1990000000	-1.67092479977092	-4.60001366052001
1993333333.33333	-1.64209945109424	-6.92714076144884
1996666666.66667	-1.6145928133044	-9.25097278307047
2000000000	-1.58495429013831	-11.4591086709737
2003333333.33333	-1.55634463468195	-13.5901071295116
2006666666.66667	-1.5414130516344	-15.6153991914361
2010000000	-1.53875653913096	-17.5381960382792
2013333333.33333	-1.55350036571344	-19.5170700996217
2016666666.66667	-1.58683457986168	-21.2874248054408
2020000000	-1.60445557002425	-23.1120503827612
2023333333.33333	-1.65191208155014	-25.0002769962872
2026666666.66666	-1.6733438951786	-26.8370172406804
2030000000	-1.69642766191452	-28.7892710610107
2033333333.33333	-1.7170405999557	-30.8220720921283
2036666666.66666	-1.71320556948614	-32.7722168442511
2040000000	-1.72559277709509	-34.6766019988977
2043333333.33333	-1.71188826709506	-36.4590723686252
2046666666.66666	-1.68683686011837	-38.1792457462719
2050000000	-1.66443170901888	-39.8964634355954
2053333333.33333	-1.65599127922241	-41.5064095880437
2056666666.66666	-1.64318396481832	-42.8957491152567
2060000000	-1.62799818576007	-44.1866757366003
2063333333.33333	-1.5954245206979	-45.5648336281379
2066666666.66666	-1.58352479727169	-47.0050587717978
2070000000	-1.61244850967419	-48.3435938952142
2073333333.33333	-1.62854859049704	-49.6092990862805
2076666666.66666	-1.66254140819446	-50.9396253218201
2080000000	-1.69281300039506	-52.3858827283477
2083333333.33333	-1.74235000600496	-53.8832261163818
2086666666.66666	-1.81063120727831	-55.4705850814124
2090000000	-1.87180000300058	-56.9202504595972
2093333333.33333	-1.89879405488674	-58.4472202373886
2096666666.66666	-1.93283948336886	-60.0851150116403
2100000000	-1.9717612339916	-61.6566503621712
2103333333.33333	-2.02049911255528	-63.0036447720619
2106666666.66666	-2.03584866135958	-64.2171380157382
2110000000	-2.03573277223077	-65.5105411542425
2113333333.33333	-2.06848682326232	-66.9123348642135
2116666666.66666	-2.14154023974298	-68.1503154442575
2120000000	-2.21450857062734	-69.1242515436579
2123333333.33333	-2.29749656291902	-70.1319148693006
2126666666.66666	-2.395876450149	-71.0779052274698
2130000000	-2.5078738589279	-71.9934758036244
2133333333.33333	-2.68033405386553	-72.9958216581514
2136666666.66666	-2.87347884822487	-73.630902798505
2140000000	-3.07517880058226	-74.3444679175592
2143333333.33333	-3.28937431749757	-74.9205506415184
2146666666.66666	-3.51723396859294	-75.2614569986313
2150000000	-3.72874391839112	-75.2463364983094
2153333333.33333	-3.91440343357561	-74.9143014661831
2156666666.66666	-3.99290357239026	-74.3436181836398
2160000000	-4.02082031511729	-74.0276758816791
2163333333.33333	-4.04837208467433	-73.4300652256164
2166666666.66666	-3.97839536104046	-72.672666976921
2170000000	-3.86610724292984	-72.2061913971681
2173333333.33333	-3.73210286963695	-71.8505397457273
2176666666.66666	-3.60247395781184	-71.6437398698925
2180000000	-3.47791132110454	-71.5214189782645
2183333333.33333	-3.35474489437571	-71.4799249885359
2186666666.66666	-3.22927107602193	-71.5356058081726
2190000000	-3.11503756224001	-71.7705100197448
2193333333.33333	-3.02958352279703	-72.2052527914379
2196666666.66666	-2.94853652166485	-72.4587605425436
2200000000	-2.88832107135049	-73.217518540401
2203333333.33333	-2.86111060862653	-73.8958111744933
2206666666.66666	-2.82571718699629	-74.5445209561771
2210000000	-2.77883809849441	-75.4929839702538
2213333333.33333	-2.75515715683718	-76.4906835704169
2216666666.66667	-2.71385852476918	-77.4561251841117
2220000000	-2.6641984304327	-78.5367730970109
2223333333.33333	-2.64386374142151	-79.4901660831427
2226666666.66667	-2.60459406177625	-80.3156815529593
2230000000	-2.5617245099059	-80.9494012264583
2233333333.33333	-2.49335536571219	-81.574734929347
2236666666.66667	-2.45187193385618	-82.2099454328454
2240000000	-2.41967824894783	-82.5810368735658
2243333333.33333	-2.3637213291747	-82.9596673625619
2246666666.66667	-2.30095428597038	-83.6217327990173
2250000000	-2.29479506587056	-84.3999814178603
2253333333.33333	-2.31963487301814	-85.0778167356169
2256666666.66667	-2.34708241806264	-85.7051509382038
2260000000	-2.39424850931779	-86.2099803047335
2263333333.33333	-2.42077045181866	-86.9005567666981
2266666666.66667	-2.46769810058177	-87.6488066861315
2270000000	-2.52240470342534	-88.3518357739196
2273333333.33333	-2.5451152006736	-88.9445433715591
2276666666.66667	-2.52591709269489	-89.7767455620591
2280000000	-2.52231730049172	-90.8490139917004
2283333333.33333	-2.53723504133127	-91.7329083095207
2286666666.66667	-2.53823034666483	-92.4527327793129
2290000000	-2.52735642823527	-93.0467253413972
2293333333.33334	-2.49674881610183	-93.6392536708153
2296666666.66667	-2.46998502540244	-94.1089191033047
2300000000	-2.45598117085701	-94.5801421054861
2303333333.33334	-2.45933825572305	-94.930123590307
2306666666.66667	-2.46696437304847	-95.255840208277
2310000000	-2.48094448060451	-95.5819711319625
2313333333.33334	-2.51021662430714	-95.9428407103649
2316666666.66667	-2.53157212711965	-96.312959119578
2320000000	-2.57707654921574	-96.9138831906047
2323333333.33334	-2.62330012772646	-97.3924236258542
2326666666.66667	-2.67164876840486	-98.0507725407297
2330000000	-2.71264407381413	-98.8711408809252
2333333333.33334	-2.78952398310646	-99.8209245464848
2336666666.66667	-2.8713674145763	-100.495882977364
2340000000	-2.91460029956464	-101.024133778447
2343333333.33334	-2.91343228590587	-101.632002755903
2346666666.66667	-2.90855851937048	-102.396378079092
2350000000	-2.89809896255547	-103.102111276034
2353333333.33334	-2.89933426811852	-103.65147512432
2356666666.66667	-2.88423690550358	-104.09503048303
2360000000.00001	-2.87906030621135	-104.581708248863
2363333333.33334	-2.90045298121904	-105.092659111985
2366666666.66667	-2.96230141649583	-105.301927082287
2370000000.00001	-3.01662920603254	-105.28638167789
2373333333.33334	-3.04338559829441	-105.355257181146
2376666666.66667	-3.09846431605321	-105.688202162636
2380000000.00001	-3.18005601684663	-105.713220318667
2383333333.33334	-3.21392067284786	-105.835676583229
2386666666.66667	-3.2469471892989	-106.337017325388
2390000000.00001	-3.29428325415786	-107.061286566929
2393333333.33334	-3.35994286035617	-107.94887456114
2396666666.66667	-3.44135829482564	-108.904422537176
2400000000.00001	-3.52575047001326	-109.745828879191
2403333333.33334	-3.60998796197918	-110.558142722169
2406666666.66667	-3.69879716672519	-111.20677337774
2410000000.00001	-3.76364408553919	-111.377195709938
2413333333.33334	-3.74872729988117	-111.405306302695
2416666666.66667	-3.70067103635642	-111.917217484928
2420000000.00001	-3.73035369970726	-112.357043049226
2423333333.33334	-3.75672084134331	-112.403200843837
2426666666.66668	-3.76029563072395	-112.425103295032
2430000000.00001	-3.78751378072423	-112.427038797894
2433333333.33334	-3.80733488560668	-112.587891809353
2436666666.66668	-3.89243182327138	-112.925815783746
2440000000.00001	-3.99896709015317	-113.007588506691
2443333333.33334	-4.10561313188382	-113.077608814667
2446666666.66668	-4.22015141812415	-113.304366533735
2450000000.00001	-4.34835713290044	-113.561467879256
2453333333.33334	-4.4560717827626	-113.661931542484
2456666666.66668	-4.52922237253946	-114.025296200267
2460000000.00001	-4.60360217236717	-114.39605726482
2463333333.33334	-4.60319073023451	-114.869036020165
2466666666.66668	-4.62704062930521	-115.89435760908
2470000000.00001	-4.71986198203155	-116.620953968184
2473333333.33334	-4.79445453800042	-116.938671484155
2476666666.66668	-4.81031221897179	-117.07595488442
2480000000.00001	-4.81527330789324	-117.107369515138
2483333333.33334	-4.81062335079033	-117.345283439068
2486666666.66668	-4.88016998656586	-117.275880024507
2490000000.00001	-4.91704587645014	-116.84737395156
2493333333.33334	-4.94473123529322	-116.519442665092
2496666666.66668	-4.98703231696645	-116.278524066869
2500000000.00001	-5.03913690988473	-116.166906023416
2503333333.33335	-5.15087289688625	-116.279315001716
2506666666.66668	-5.31566321392734	-116.006559312547
2510000000.00001	-5.42716474261736	-115.531453988252
2513333333.33335	-5.48231727346427	-115.474928915903
2516666666.66668	-5.56065952559464	-115.774654304413
2520000000.00001	-5.6547850040939	-116.335001229746
2523333333.33335	-5.79869817684911	-116.692248388829
2526666666.66668	-5.88080013643553	-116.665183549209
2530000000.00001	-5.89224637541508	-116.840819011303
2533333333.33335	-5.90975779904313	-117.305989268315
2536666666.66668	-5.95483480501207	-117.365625483451
2540000000.00001	-5.94774746915121	-117.151369022037
2543333333.33335	-5.89347806200244	-116.910605165406
2546666666.66668	-5.84072345418431	-116.949117471142
2550000000.00001	-5.84396749439959	-116.887552197644
2553333333.33335	-5.87085692568663	-116.630785979629
2556666666.66668	-5.91998519348011	-116.308742539661
2560000000.00001	-6.01793585634388	-115.624116224788
2563333333.33335	-6.06205072043816	-114.615977937907
2566666666.66668	-6.0799447326501	-113.936608429204
2570000000.00002	-6.1147353673006	-113.733451456283
2573333333.33335	-6.20699380517642	-113.444932333632
2576666666.66668	-6.23833378969789	-113.268082130029
2580000000.00002	-6.3069842195257	-113.648950350307
2583333333.33335	-6.41600915866138	-113.93920323532
2586666666.66668	-6.51520054519121	-114.122404260509
2590000000.00002	-6.61942229846496	-114.133556282529
2593333333.33335	-6.63978709669967	-113.596039528884
2596666666.66668	-6.52753785947407	-113.549852033892
2600000000.00002	-6.47086560829648	-114.064071893978
2603333333.33335	-6.45977858173705	-114.192019097012
2606666666.66668	-6.4106373695931	-113.959463242548
2610000000.00002	-6.32307583964023	-113.718720300685
2613333333.33335	-6.28145236927523	-113.791699738585
2616666666.66668	-6.27900547486069	-113.477248990439
2620000000.00002	-6.30012119383221	-113.130550576313
2623333333.33335	-6.34780759619265	-112.377633298111
2626666666.66668	-6.33735012724555	-111.484011268429
2630000000.00002	-6.3142208839849	-111.042308019333
2633333333.33335	-6.3418973824806	-110.831398012138
2636666666.66669	-6.39439557303295	-110.489023583012
2640000000.00002	-6.37064821871615	-110.467488922171
2643333333.33335	-6.43024395178084	-111.102719599176
2646666666.66669	-6.54940308371249	-111.390354379338
2650000000.00002	-6.63258290430416	-111.418878979935
2653333333.33335	-6.6633896944215	-111.514378140193
2656666666.66669	-6.70224750678728	-111.453767074168
2660000000.00002	-6.66558156742962	-110.996111787425
2663333333.33335	-6.50601032470716	-111.067189105587
2666666666.66669	-6.43360304411099	-111.665473196968
2670000000.00002	-6.40286086023645	-111.732480273574
2673333333.33335	-6.3527122347663	-111.692885570239
2676666666.66669	-6.35028403117877	-111.385585753538
2680000000.00002	-6.29380376884966	-110.717095891029
2683333333.33335	-6.20138199386523	-110.122806996818
2686666666.66669	-6.12355288495808	-110.177661746074
2690000000.00002	-6.17560017304712	-110.06021761864
2693333333.33335	-6.20360842047214	-109.629229489045
2696666666.66669	-6.19845118996473	-109.45709234973
2700000000.00002	-6.23982198796519	-109.623982456448
2703333333.33335	-6.32106778229279	-109.783460119448
2706666666.66669	-6.42430998604142	-109.844782356816
2710000000.00002	-6.48735367656883	-109.67757195195
2713333333.33336	-6.48250531929517	-109.622901473346
2716666666.66669	-6.44682405718795	-110.023703691756
2720000000.00002	-6.44553486628476	-110.335461067761
2723333333.33336	-6.41383466145755	-110.529554613288
2726666666.66669	-6.34310518118196	-110.65646850822
2730000000.00002	-6.26166879928311	-110.964342489997
2733333333.33336	-6.20426504994382	-111.342536918093
2736666666.66669	-6.20037893176227	-111.507172338255
2740000000.00002	-6.20885330724412	-111.264693245382
2743333333.33336	-6.20899331498645	-110.741060312744
2746666666.66669	-6.17430982895136	-110.048815860806
2750000000.00002	-6.11859423891803	-109.550360672702
2753333333.33336	-6.08947315602901	-109.465576080584
2756666666.66669	-6.1263801636202	-109.340254273909
2760000000.00002	-6.16694327300854	-108.964821189368
2763333333.33336	-6.17071906655607	-108.823818487762
2766666666.66669	-6.18221161673723	-109.036854658449
2770000000.00002	-6.25468238740947	-109.491385555131
2773333333.33336	-6.3571337523502	-109.527192295781
2776666666.66669	-6.37333441156658	-109.307479504924
2780000000.00003	-6.32221955480527	-109.494600101992
2783333333.33336	-6.2960555681011	-109.906811673795
2786666666.66669	-6.31666390375586	-109.932275280514
2790000000.00003	-6.26318918673899	-109.451214294757
2793333333.33336	-6.11171428826776	-108.824205776932
2796666666.66669	-5.82820071710546	-108.873698430211
2800000000.00003	-5.64340513145023	-110.127335293953
2803333333.33336	-5.64844608521936	-111.163684668948
2806666666.66669	-5.73335958021914	-111.466831536723
2810000000.00003	-5.77634777604031	-111.097197309808
2813333333.33336	-5.81206121425059	-111.082971429109
2816666666.66669	-5.8798791787024	-110.790022029675
2820000000.00003	-5.93574625879011	-110.468574923757
2823333333.33336	-5.99419994456052	-110.224327513104
2826666666.66669	-6.05182291857064	-110.045824796042
2830000000.00003	-6.10262200171832	-109.905592391151
2833333333.33336	-6.12180155277037	-109.974508169901
2836666666.66669	-6.13463948224571	-110.288697812927
2840000000.00003	-6.15156613928215	-110.731069014077
2843333333.33336	-6.17678156298767	-111.174714390072
2846666666.6667	-6.19763665493912	-111.346045056388
2850000000.00003	-6.14724683420079	-111.577206476171
2853333333.33336	-6.13924956773858	-111.904672675186
2856666666.6667	-6.10610619441482	-111.799329854593
2860000000.00003	-6.07980159537421	-111.762186898047
2863333333.33336	-6.05259139514286	-111.355178982384
2866666666.6667	-6.01044737806168	-110.956548098408
2870000000.00003	-5.97018198554148	-110.352924875531
2873333333.33336	-5.91242430153764	-110.054343950894
2876666666.6667	-5.91082975696888	-109.810923112832
2880000000.00003	-5.94566624359261	-109.440025415458
2883333333.33336	-5.99484037864204	-108.935590294065
2886666666.6667	-5.98325457171294	-108.644763616367
2890000000.00003	-6.04605527034257	-108.798962367906
2893333333.33336	-6.12899733716702	-108.628852419995
2896666666.6667	-6.17731121193775	-108.461500325791
2900000000.00003	-6.21048572580813	-108.425897118112
2903333333.33336	-6.18090675021273	-108.390271935218
2906666666.6667	-6.15857667228412	-108.810088681192
2910000000.00003	-6.16411904725023	-109.025814311762
2913333333.33336	-6.13553474264285	-108.943850282081
2916666666.6667	-6.06591693196362	-108.769628842462
2920000000.00003	-5.9396037995321	-108.776751584316
2923333333.33337	-5.88144532641788	-109.07998256341
2926666666.6667	-5.88502157067185	-108.96209419068
2930000000.00003	-5.88486115019714	-108.25895084645
2933333333.33337	-5.84719264698908	-107.352548923505
2936666666.6667	-5.78196433556666	-106.486374503826
2940000000.00003	-5.71628034035987	-105.883653183304
2943333333.33337	-5.68241557519911	-105.249530045318
2946666666.6667	-5.66030314677202	-104.731491209573
2950000000.00003	-5.63946605563873	-104.097702716237
