!Agilent N9923A: A.07.32
!Date: Thursday, 02 June 2016 22:58:28
!Model: N9923A
!Serial: MY52412257
!GPS Latitude: 
!GPS Longitude: 
!GPS TimeStamp: 0001-01-01 00:00:00Z
!GPS Seconds Since Last Read: 0
!CHECKSUM:1068961469
!Correction: S11(ON U)S21(ON U)S12(ON U)S22(ON U)
!S2P File: Measurements:S11,S21,S12,S22:
# Hz S DB R 50
1950000000	-7.14476860863993	-54.7531331979593	-79.114109282245	110.482495480577	-103.232969486926	85.9575655799986	-0.15129940571842	33.3493383956432	
1953333333.33333	-5.88818143192704	-66.2658964644728	-76.377672860995	-161.119830467202	-80.3916800131077	136.02011209298	-0.137171590487254	33.4197158908311	
1956666666.66667	-4.89117535824874	-75.6252126363009	-90.7716757186685	-148.11736988114	-82.3121139550431	-128.319997034984	-0.125707243905429	33.4860202958212	
1960000000	-4.11530647243769	-83.5988947438423	-81.3410922449118	-158.276420533502	-74.5232339539622	-146.829558763335	-0.114788120381044	33.5798667885791	
1963333333.33333	-3.52295306801415	-90.5620339171246	-84.2956985254083	64.1571521902034	-80.2866617020063	-97.9221822248719	-0.102922108807473	33.6753156805583	
1966666666.66667	-3.09226895331524	-96.504760672723	-84.0576448008557	-47.6806140409036	-73.1795176463967	144.854810710323	-0.0945921769130547	33.7517128057376	
1970000000	-2.73881567308924	-101.416832690428	-85.8526405681492	176.543965010386	-78.9676718134274	176.927844554113	-0.0834624951593521	33.9016340507009	
1973333333.33333	-2.43478505625983	-105.701451604521	-82.562913237855	-52.0414329607006	-77.3612566862021	-51.3938918173149	-0.0813864857058686	34.0114605041494	
1976666666.66667	-2.1764508331464	-109.521560293998	-84.9423620811465	177.708119811828	-83.9831847440468	-103.532577935465	-0.0803545245555336	34.1209998205168	
1980000000	-1.97553767824468	-112.906094316822	-85.5082690454046	67.4034906462288	-85.4638934893561	167.172767322391	-0.0744478846002739	34.220835213305	
1983333333.33333	-1.79776063953932	-115.882837496845	-88.7991515524388	-43.2014624514198	-76.4240037539049	-81.2082426755639	-0.0777867111029725	34.3198755995343	
1986666666.66667	-1.64867620991589	-118.579223401607	-88.8090057438441	-161.765887614475	-76.9374888937937	39.2070219139067	-0.0776455640974544	34.400648360851	
1990000000	-1.52423892981203	-121.108647477141	-77.0520153054819	-147.258980175232	-83.9835532649948	20.3829125402771	-0.0837165346566657	34.5606366178264	
1993333333.33333	-1.42718104964699	-123.614058197255	-79.0922731514748	60.5225140884485	-86.1176722332762	166.139251512084	-0.0955128100976636	34.6294271040767	
1996666666.66667	-1.38520407605657	-126.0539854276	-82.7313978090167	-37.848868631511	-82.6110895985711	150.380262918178	-0.105299172940752	34.6918340966659	
2000000000	-1.357203568941	-128.249890205401	-85.056356982553	-179.465649345015	-77.9592831739166	2.09611120150358	-0.122711889088683	34.7412175899782	
2003333333.33333	-1.35311228704968	-130.427804372068	-79.7199121662156	11.528599618957	-80.1255648605014	-98.6163805671765	-0.12809319528028	34.7794615568558	
2006666666.66667	-1.34085017044647	-132.60689805489	-78.9662027652212	-31.5778305902776	-76.5557001221153	120.633249016315	-0.145765689886746	34.8008218957062	
2010000000	-1.3287199801622	-134.916364829472	-84.0945586694212	22.8108141425878	-76.2232610165244	-81.8161507821108	-0.156418796887682	34.8095920850156	
2013333333.33333	-1.35751016443524	-137.063498071808	-82.9963235614004	176.873482574692	-80.846152415525	-90.3303885637884	-0.167749676108388	34.8060570392846	
2016666666.66667	-1.36363577280529	-139.101423063791	-90.1499539371007	-86.1916241918399	-73.0168917606325	-132.191538398378	-0.174817226810869	34.8011760526366	
2020000000	-1.35659195979782	-141.161142458075	-81.8041542440207	-63.3184582005296	-76.6312081959539	121.031827193482	-0.181529041105978	34.796251121377	
2023333333.33333	-1.34124900051774	-143.186379875653	-78.7595163944932	166.416867307332	-87.3083200799634	45.0999596532115	-0.185460338424674	34.8524170015878	
2026666666.66666	-1.32543987331028	-145.260211063722	-82.9121369324176	-163.779352082828	-80.6520191347214	-162.568011694254	-0.187587085795448	34.8679503123157	
2030000000	-1.31518012173955	-147.254125105452	-72.7271622673601	98.2194486433026	-91.9264381089569	88.6469373723977	-0.1852440347247	34.8828094294582	
2033333333.33333	-1.31048482116062	-149.124197971741	-77.5690135155508	-175.557741720971	-78.5719372946652	122.297022504015	-0.184889804312514	34.9251864067192	
2036666666.66666	-1.295820550965	-151.025003240244	-83.1523077951123	101.873918494538	-77.2685237831985	-179.241002168523	-0.170014188296729	34.9367405107592	
2040000000	-1.30423833181487	-152.994300485239	-86.6126868381113	-113.379600543032	-83.3907539042207	-143.796928485811	-0.166565543776188	34.9682646746923	
2043333333.33333	-1.33299062727642	-154.865789198288	-96.7721336598177	-113.796526064893	-78.9429191580138	157.679606147451	-0.162014429320411	35.0013312680108	
2046666666.66666	-1.37066387712282	-156.763952725721	-86.1885223313712	107.327085032402	-75.0858538173927	-176.469209886855	-0.1471339194986	35.0864432754218	
2050000000	-1.42921458140711	-158.644924786589	-89.1034002454464	-138.42748184091	-82.2489965596089	-143.339322543277	-0.136686293999092	35.1312441036371	
2053333333.33333	-1.49964133270738	-160.542782465062	-80.5173925148528	35.143328131733	-87.4474661158621	-143.286516787092	-0.126689314543405	35.2017965957777	
2056666666.66666	-1.59445805698583	-162.472646602436	-81.0873503901366	127.718458193663	-87.114577014859	-71.6923694358222	-0.113441387098837	35.2771781933887	
2060000000	-1.67488720149717	-164.616065009844	-84.931610042103	81.4667810794252	-82.7348743704206	-21.1796999870328	-0.102622525500835	35.3774192657847	
2063333333.33333	-1.78442472810393	-166.975513018462	-78.4980301421349	-134.645128383103	-82.2603454288634	-99.5573808013635	-0.0917763916126259	35.4715922450156	
2066666666.66666	-1.93033173204624	-169.382590354309	-78.6052386297696	-24.3427382082025	-84.84810614602	73.3693342558157	-0.0799386693923068	35.5840586633535	
2070000000	-2.07672364281435	-171.805558543223	-82.2952825945768	-52.8189931369481	-82.4270022126841	-20.039911700088	-0.0712459389076929	35.6744253040978	
2073333333.33333	-2.18963668349487	-174.147099415911	-76.5487215810281	117.71327523918	-78.922270865137	44.653406130218	-0.0685593063507406	35.7987263649251	
2076666666.66666	-2.28428637161242	-176.704675074893	-81.2343540022488	-43.6446670320966	-109.286504806634	-141.996848510114	-0.0605352272175755	35.9157473061701	
2080000000	-2.40297757466384	-179.45967856644	-73.949013231739	63.1742898389355	-92.4296668115241	95.7547058332975	-0.0645702569188583	36.0540469622704	
2083333333.33333	-2.52786141736579	177.746567155952	-77.5015385944117	62.0834129437036	-78.3194943307025	14.0282924240305	-0.0690946360084788	36.0896933706042	
2086666666.66666	-2.6666757562699	175.06387236415	-81.7951114619993	160.727190480908	-75.5647185275994	-155.255794770065	-0.0809171075269916	36.2042204047275	
2090000000	-2.79221509969251	172.165494576116	-82.1929441039144	0.0943209402937679	-81.716230903987	77.8787812560326	-0.0787953986088795	36.3013509810873	
2093333333.33333	-2.96173672833664	169.221413445773	-90.787075756657	141.121911245786	-79.4618822302286	-24.2795086435134	-0.0901045667441437	36.3481863200382	
2096666666.66666	-3.16211629124065	166.144015257623	-87.6722891595226	-106.236531039699	-77.1714366136556	134.906917567288	-0.105827611777928	36.434333461413	
2100000000	-3.42342490195828	163.145472841779	-77.6625669176325	32.7878336269396	-82.5355741815279	-93.4005166306441	-0.12288872052025	36.4484398176757	
2103333333.33333	-3.69103741948558	160.488170023098	-83.5004722929678	-54.6269413802992	-80.0230740113043	-147.439939033193	-0.130614721682257	36.4602319042897	
2106666666.66666	-3.92996351590269	157.473953816557	-79.2139469710307	-110.876106819602	-79.1472975589951	66.5782773941084	-0.146131511406682	36.4830748316852	
2110000000	-4.23002789563927	153.972013064427	-84.0943279603601	98.4742524427383	-76.1911333718841	-86.7696002268577	-0.153786239937412	36.4985432844449	
2113333333.33333	-4.60140040956906	150.199885948404	-81.2086816309718	-122.988024011867	-83.0116261214628	-107.914004811119	-0.165983777880317	36.4896946504657	
2116666666.66666	-5.04013902926617	146.392855439668	-78.4150550976431	-109.595300293031	-91.2452300097078	-61.2797513052051	-0.173467812673448	36.4766597960622	
2120000000	-5.46305123441793	142.411261704152	-86.9433194399367	110.444204623501	-94.5706165847398	-69.0529847787226	-0.17781478690928	36.4806868257339	
2123333333.33333	-5.91266567555116	138.307162043164	-74.7710207942357	-30.5126487969744	-86.71860192838	144.864917954548	-0.181361026188464	36.4991195067539	
2126666666.66666	-6.30062811331874	133.308684734155	-74.0027077921116	91.261805116306	-81.3554418398697	-116.934268534803	-0.182970959679128	36.5049735185097	
2130000000	-6.76592891747426	127.514203884866	-80.080544749641	-26.6267959097223	-77.1766533952158	-21.4829241822739	-0.181617938576017	36.5533124707826	
2133333333.33333	-7.380918639317	121.733794965547	-94.0840762265152	-118.884011599996	-84.1043560651701	72.4911896745235	-0.17855187657822	36.5490458961409	
2136666666.66666	-7.97166449268491	116.429167302332	-76.9059270894022	170.779943750441	-78.1674663903569	-87.4101628125655	-0.166972149741379	36.6079677016497	
2140000000	-8.52650671463017	111.095909196322	-84.9881103190955	-152.176689273708	-78.6373941723477	71.2781191283626	-0.158155042536205	36.6492527438956	
2143333333.33333	-9.01102577561138	105.65750494428	-75.4117625576208	-155.077640383044	-72.7644384649917	-0.406155060824372	-0.143454312311989	36.7102158907278	
2146666666.66666	-9.44989940326756	99.2971810885566	-86.8383393279036	51.2977841355162	-78.7334452614667	26.097629280163	-0.13594025090704	36.7571550809005	
2150000000	-9.91128623523551	92.1592766974979	-81.4396986254039	28.1855472402487	-82.8200233788443	42.1786210289811	-0.124454003239574	36.8561115238179	
2153333333.33333	-10.529548884052	83.9692914541685	-80.935512324146	7.77490578824459	-81.2993868020397	-19.5861985899558	-0.108775926148071	36.9325854296337	
2156666666.66666	-11.1551076181215	76.516062865787	-81.8830558559043	108.719680011133	-88.6279558543949	131.783713088996	-0.0975578427999671	37.0333842044676	
2160000000	-11.6012113341546	67.9872289455753	-80.3952881375637	-0.774226737571602	-82.3020407053573	64.1205867412641	-0.0854665759187116	37.1284498743234	
2163333333.33333	-12.0365498505399	57.7265804203455	-81.003739446517	-118.703883350672	-79.1290167553445	125.000170397181	-0.0774147453483893	37.255224141927	
2166666666.66666	-12.3990582009339	46.633077086609	-76.0873991419539	166.713843769095	-88.6024820079289	-142.064954175288	-0.0650882137947279	37.3706760006206	
2170000000	-12.7586910983119	34.9925814510988	-79.2957866166814	-38.4940637986118	-79.6314377396577	-84.5671960021711	-0.0601656425011279	37.4934074565598	
2173333333.33333	-12.9007315081475	24.6614555413931	-84.1887458195878	-70.470161451579	-78.8360492820443	-134.523123630179	-0.0551392941779241	37.6276165228618	
2176666666.66666	-12.7267001411178	14.9381085641369	-80.0674170358434	-103.420831226334	-84.393222053096	-122.047541843117	-0.0507918699624596	37.7236630555486	
2180000000	-12.4093354118728	6.31707627501334	-77.6164212896206	-61.6780605671048	-75.0774920375942	-101.447509775292	-0.0541753497353518	37.8144166768785	
2183333333.33333	-11.8616585408818	-1.40462847061334	-85.2736321702399	-122.275357799245	-80.6869873860084	-150.994973940501	-0.0537640990383328	37.9371813334875	
2186666666.66666	-11.3735767457924	-9.13381509386173	-77.7241366078257	-175.544675638186	-75.8572227654377	-179.131514035174	-0.0629017055320629	38.105272685148	
2190000000	-10.9249812598518	-15.5437862938588	-77.9092941092038	132.689399308378	-80.4336533034377	157.717633233023	-0.074125939063826	38.1454429347041	
2193333333.33333	-10.5315477150068	-20.5010135047786	-81.3772192328452	-171.558613684964	-76.8949851411975	175.287692256563	-0.0874871913503388	38.1980697775667	
2196666666.66666	-9.95504714641286	-24.8847092671336	-78.7103591774656	-59.8368726052848	-72.8006322969797	-122.2687157843	-0.100804788792338	38.2154283144379	
2200000000	-9.45872180237366	-30.1602502492271	-81.770931530516	-75.8616048422637	-76.5836183597098	-88.1807392783981	-0.119899238959565	38.2626611474191	
2203333333.33333	-9.15158357752849	-35.2352975792078	-84.8758267607016	-101.753359806766	-82.0856501286219	-148.844124558966	-0.131025722662606	38.2566782920533	
2206666666.66666	-8.88516072127552	-39.4202846675869	-88.5535915767496	47.4996144461778	-74.7236372838551	-87.489926028135	-0.142319625972502	38.2430490652716	
2210000000	-8.64581574902934	-43.583423959017	-78.8229994471162	6.45115406471512	-76.3678271650073	-83.8258928944208	-0.156427983705798	38.2352882122099	
2213333333.33333	-8.4570490733851	-47.1469691640672	-77.7533961656829	-85.5964784392756	-79.5731869167975	98.3369996819333	-0.167771537691202	38.2304881535899	
2216666666.66667	-8.11169562251962	-50.6930474834715	-79.3068972915035	-94.7014880232205	-79.4368639988531	114.768608049583	-0.175656890752099	38.2229294653008	
2220000000	-7.87684880671713	-54.8063974371903	-75.246318098868	-75.4731140894077	-83.8348139567062	43.872722404365	-0.179313051234819	38.2039034791076	
2223333333.33333	-7.72672780891703	-57.8241702727424	-78.6357389562591	-55.6590344148914	-78.3506555275393	-112.667090013681	-0.180934679720702	38.1943625033839	
2226666666.66667	-7.46366474459468	-60.2790390546689	-80.254297065211	-127.609986932449	-76.1033513684738	1.04776509162644	-0.186512337471617	38.2024897661047	
2230000000	-7.17549127729352	-62.773099258472	-90.3449177755935	-15.5020142081611	-83.111974814912	10.8501641561749	-0.179137307729681	38.2221004918485	
2233333333.33333	-6.90621420367549	-64.7985009383322	-94.0818587856501	-134.352873147559	-77.1118659016621	96.0281613069642	-0.170490583316873	38.2043495763031	
2236666666.66667	-6.56757356032748	-66.7205485829186	-81.5122609202478	92.823706686569	-79.506436087876	105.440883574059	-0.165821419757212	38.2310059699017	
2240000000	-6.2682636344241	-68.9431919210987	-82.8679694960901	-131.53321845358	-75.8914525532219	74.4163206675505	-0.153015116426347	38.263672949245	
2243333333.33333	-6.05553547249724	-71.2608979476013	-80.5288992435224	144.090042786309	-79.7590861127772	-131.728585279878	-0.141041256733098	38.34245153316	
2246666666.66667	-5.89763422074975	-73.1480519280476	-80.3404539232398	-42.939399170205	-72.8413224920037	-127.4997671292	-0.124216355965112	38.4089313297611	
2250000000	-5.74827227054503	-74.9337163549146	-77.9516807129126	-136.542651487622	-105.404358519544	104.446187197485	-0.113591191336693	38.4946198707372	
2253333333.33333	-5.65153584101482	-76.7476092832726	-83.932243603214	-163.963816272647	-73.1382573656251	165.397131360857	-0.0980790529685322	38.6075698949214	
2256666666.66667	-5.56866594266038	-78.3271361515773	-76.2397628229297	136.915742010719	-80.6535985211812	109.774991875565	-0.0860291976203484	38.7198930565847	
2260000000	-5.55731876021636	-79.7698253937356	-81.4049794740976	167.469398506517	-77.4809218141471	172.92139536925	-0.0720954036819897	38.8208403598577	
2263333333.33333	-5.46875404166466	-80.7356839038355	-77.0194330678773	161.006129525775	-79.7701904456624	162.810728554539	-0.0651225124657668	38.9654043187701	
2266666666.66667	-5.3478932355856	-82.2272048900655	-75.0134307878333	-139.031484011782	-80.1062294911758	174.788486439107	-0.0559251846947689	39.0820773827403	
2270000000	-5.26123648618792	-83.9730838321652	-80.6670598268435	-142.107556498022	-79.3956522838427	115.969650535126	-0.0481420037384257	39.231431893325	
2273333333.33333	-5.17259397178268	-85.8220668402467	-78.8402081937784	-153.916958238266	-84.0614007577723	-169.508434597115	-0.0405933260090597	39.3601677187142	
2276666666.66667	-5.12116300235648	-87.5365691554968	-77.8021790541021	-48.8046307257867	-92.0220160865737	94.8296679096947	-0.0416449499845049	39.492290327432	
2280000000	-5.03087670081557	-89.1583204070851	-83.8305514137077	-76.957045660411	-76.7268159423812	-101.774522848939	-0.0363997808465277	39.5726805325267	
2283333333.33333	-4.96128893333591	-90.7637336143954	-78.9790495143809	-142.466381131539	-100.051321545825	-125.108655702414	-0.0448953137755834	39.7208680930311	
2286666666.66667	-4.83104627422963	-92.1359913281523	-98.5230937629189	11.778827228448	-75.0230769477673	39.103281603539	-0.058033445290154	39.7944004963283	
2290000000	-4.75043419065475	-93.7538203487579	-77.6186821404534	102.741335738612	-87.8022726293481	6.86357252723253	-0.0669080403491294	39.9143687958662	
2293333333.33334	-4.71740382576622	-94.88562090754	-79.1584703795541	142.263385792095	-90.3864826631105	-121.664639658677	-0.0854721699819588	39.9492023776997	
2296666666.66667	-4.6326357130524	-95.4369270017302	-77.4382955072778	80.0307012840723	-79.2249879495721	166.834927867682	-0.0994036358093642	39.9937940924909	
2300000000	-4.49843668983899	-96.3041743320963	-84.244435692863	62.3027569140451	-82.4780894693941	155.92718663967	-0.113701548853954	40.0220314310722	
2303333333.33334	-4.40677703700636	-97.1588387558133	-86.2448463723103	-145.678203746764	-87.3504108530102	-153.971950429616	-0.129518223520325	40.0581561601398	
2306666666.66667	-4.34698899467706	-98.1093703406583	-78.5940290715107	62.1480438881257	-76.6577223420232	132.35238635155	-0.14505828297741	40.0404877315142	
2310000000	-4.31063442977608	-98.902088911268	-80.5476754989109	120.705774754004	-85.7596645455116	62.2910336408704	-0.157291889713057	40.0289408567035	
2313333333.33334	-4.27279111941901	-99.7664128851015	-79.5727305113871	33.8072494416431	-80.8515200094267	92.2211451367019	-0.165783503021795	40.0080316949364	
2316666666.66667	-4.24861657867489	-100.714599162862	-82.8708419336931	151.066069484933	-78.275221847187	170.598812118827	-0.174042542856799	39.9740592943965	
2320000000	-4.28004010048805	-101.706043547806	-84.6039849827218	85.3741349233373	-78.7871056349587	-56.5402137660682	-0.174002689049377	39.9557271452335	
2323333333.33334	-4.30784597488794	-102.617365056959	-71.2907069816982	64.587981451413	-86.3892913607818	0.0743615075810302	-0.179069284532847	39.9438592615585	
2326666666.66667	-4.33437251974765	-103.356529102695	-72.4659292824313	54.233604909344	-93.1125581822411	-16.777031376757	-0.175420582222847	39.8984796090244	
2330000000	-4.31148210043332	-104.219988956482	-76.1131944040496	114.719216723941	-80.8852937595208	-124.891429327885	-0.17523931948989	39.9325632618779	
2333333333.33334	-4.28228307440582	-105.388603588583	-76.2893460765791	105.175314924253	-84.3712744387576	-51.9513341940663	-0.167825665557374	39.9244858826148	
2336666666.66667	-4.2729117148645	-106.612600719871	-82.8680744626566	-136.505713828972	-89.8075704931164	92.998148918692	-0.156380472079554	39.9037709196861	
2340000000	-4.2631381728305	-107.742162289939	-88.8045242966827	-15.5302641388826	-77.4025693360649	-8.60888848385507	-0.144087851537354	39.9222441654445	
2343333333.33334	-4.23645912054496	-108.712215435498	-92.6288780914838	-107.0746577044	-79.4194073785953	75.8662308602174	-0.132757017345673	40.0036466079975	
2346666666.66667	-4.17451890713268	-109.625880392237	-74.4408631959399	114.021694681273	-84.1971603222772	-144.035148804981	-0.118017873482882	40.0524788807512	
2350000000	-4.099535028841	-110.521516126112	-81.6564248873696	61.1686127854303	-78.3826585375208	109.678598850924	-0.103732662872965	40.1408945586895	
2353333333.33334	-4.034267547796	-111.482754025908	-80.8506666212157	3.56714020554782	-89.8366696944321	31.6934397984271	-0.0903510051612687	40.2596543145891	
2356666666.66667	-3.97945043680128	-112.467435119789	-80.8945851088968	-23.2840465962707	-87.0685274050705	153.751290219914	-0.0753226544165361	40.3683215227494	
