!Agilent N9923A: A.07.32
!Date: Thursday, 02 June 2016 23:33:34
!Model: N9923A
!Serial: MY52412257
!GPS Latitude: 
!GPS Longitude: 
!GPS TimeStamp: 0001-01-01 00:00:00Z
!GPS Seconds Since Last Read: 0
!CHECKSUM:1269603980
!Correction: S21(ON U)
!S1P File: Measurement: S21:
# Hz S DB R 50
1950000000	-36.851708586493	137.641234564049
1953333333.33333	-36.7614309833164	126.900123905193
1956666666.66667	-37.5859934914531	110.274205759283
1960000000	-39.3246471380484	100.831953860448
1963333333.33333	-41.1996822336271	96.5191778830359
1966666666.66667	-41.9211943638952	102.101904544034
1970000000	-42.1064531189251	97.6947405839971
1973333333.33333	-42.520357957731	97.2748186882908
1976666666.66667	-42.5004514838802	99.31624271109
1980000000	-41.1444861707347	92.6683670305219
1983333333.33333	-41.2433353478553	78.1652157927444
1986666666.66667	-42.4759761411302	69.4590875695344
1990000000	-43.7953871704698	63.3467055294477
1993333333.33333	-45.2261370993234	61.7700740412154
1996666666.66667	-46.1311707745586	65.2464328377401
2000000000	-45.6174778900456	64.9983003341041
2003333333.33333	-45.8006398759584	61.0795434919479
2006666666.66667	-46.4049042307467	55.0852905154163
2010000000	-47.6597670959377	60.0437539829503
2013333333.33333	-46.8312179191585	57.9699275107974
2016666666.66667	-47.8107826420412	56.2146304501402
2020000000	-48.7603708026043	55.8640209432032
2023333333.33333	-49.467405331798	62.378363276289
2026666666.66666	-49.0699916101995	71.0283776610032
2030000000	-47.3358010573186	73.8685913603013
2033333333.33333	-46.4812094931108	61.8501827168955
2036666666.66666	-48.0017227602289	55.2709210374718
2040000000	-49.5411850697948	64.7308434650726
2043333333.33333	-47.4533869156904	75.5036011915169
2046666666.66666	-46.6846092132943	66.1863226491645
2050000000	-46.9085108586731	68.8399275989388
2053333333.33333	-45.6583633796239	66.1066586066588
2056666666.66666	-45.9935765074608	62.9279867671526
2060000000	-45.2229680470267	78.8843711816542
2063333333.33333	-42.6988456223279	70.3449799656427
2066666666.66666	-41.9340495885886	62.9604808155928
2070000000	-41.1389370969582	54.5034800389265
2073333333.33333	-41.3451166493744	50.0617280899849
2076666666.66666	-40.706959091016	49.4571167130567
2080000000	-39.6670062469918	46.2267209219694
2083333333.33333	-39.2913333308393	35.9566084193204
2086666666.66666	-39.6945010503635	35.8068993569708
2090000000	-38.4149805745351	35.9019764387747
2093333333.33333	-37.329697653341	29.433918843057
2096666666.66666	-36.4450084781181	24.002074317394
2100000000	-35.514820357902	13.9945411517695
2103333333.33333	-35.225621956257	2.94607238634645
2106666666.66666	-35.2747021457795	-0.00969918579826225
2110000000	-33.6571718474881	-10.1090864843803
2113333333.33333	-33.6356798780867	-28.495207186424
2116666666.66666	-35.207156647679	-37.0350765698074
2120000000	-35.6146646343971	-40.6760486098329
2123333333.33333	-35.3272963202599	-43.8965856618218
2126666666.66666	-36.2624247467677	-53.1226709506368
2130000000	-36.2925618291015	-50.081032451504
2133333333.33333	-35.2887713745017	-52.2927158326804
2136666666.66666	-34.2062119890917	-64.0571981342968
2140000000	-34.7804103351786	-79.6632497817474
2143333333.33333	-36.3532137147069	-81.3678066818972
2146666666.66666	-35.85295511707	-82.7675287410063
2150000000	-35.5060292343024	-89.9542310537645
2153333333.33333	-35.032671557672	-98.1449429149805
2156666666.66666	-35.0974872853381	-112.775195918587
2160000000	-36.6324336304697	-126.929213293648
2163333333.33333	-38.7464919492719	-134.321304978214
2166666666.66666	-41.1970801177513	-132.699581648898
2170000000	-42.6104287889773	-119.888705366785
2173333333.33333	-40.9737137035167	-100.543841408352
2176666666.66666	-38.216508061669	-106.758066131513
2180000000	-36.7282084005879	-121.241076413402
2183333333.33333	-36.5772579328503	-135.710755617658
2186666666.66666	-37.0278762602323	-150.842150594736
2190000000	-38.4384452582158	-166.276203803016
2193333333.33333	-41.0391299513922	-173.11960823202
2196666666.66666	-43.0773395398823	-173.70030187483
2200000000	-45.7016650665413	-170.987124989007
2203333333.33333	-47.2632959361523	-132.491028501481
2206666666.66666	-41.5700848879462	-125.457771993835
2210000000	-39.3056641495273	-141.563263305631
2213333333.33333	-39.1029483315901	-161.044894446819
2216666666.66667	-40.4405779733573	-171.267544121869
2220000000	-40.3448535760413	-171.736161547871
2223333333.33333	-40.0350559532214	174.65086553187
2226666666.66667	-41.9825527170469	161.909655615499
2230000000	-44.3710376308691	161.830731932862
2233333333.33333	-45.1072450162035	176.62625044985
2236666666.66667	-43.2563269403609	179.587626640186
2240000000	-42.0109878832636	170.199571128404
2243333333.33333	-42.2604012367393	154.971275397688
2246666666.66667	-44.7665473754416	145.967545632441
2250000000	-46.2144048333418	157.508208883573
2253333333.33333	-45.3541173935878	163.224678804945
2256666666.66667	-44.3102354453548	154.562959723397
2260000000	-44.8976107864293	146.69818452521
2263333333.33333	-45.9487063518812	148.097517421487
2266666666.66667	-45.4530797227088	150.964388733325
2270000000	-45.2185694146128	139.939604654845
2273333333.33333	-46.5052878851322	132.771505196636
2276666666.66667	-47.3972063707819	144.132631988039
2280000000	-45.5237803578776	140.173033734847
2283333333.33333	-46.3495011276774	128.18493406442
2286666666.66667	-48.6643558973956	131.147755965583
2290000000	-48.1348565356909	134.752361158217
2293333333.33334	-46.6803869215126	132.844879775749
2296666666.66667	-46.9362400349417	123.844356797769
2300000000	-47.2705212360839	127.018141013814
2303333333.33334	-46.7120591341063	118.042069097994
2306666666.66667	-48.5103164333264	104.860163476635
2310000000	-51.2715712360732	122.805627197642
2313333333.33334	-49.0717984531149	133.732142586324
2316666666.66667	-47.3170454685077	126.001047065987
2320000000	-46.7619913816268	111.480367785518
2323333333.33334	-48.4040528877542	99.7391403305435
2326666666.66667	-50.1860335868742	103.84959857283
2330000000	-50.70647641386	116.678185588524
2333333333.33334	-48.5844816523148	115.396885536295
2336666666.66667	-48.61042938241	108.639758244586
2340000000	-48.2906470325609	93.5417569370933
2343333333.33334	-51.9814174475397	84.1642359695603
2346666666.66667	-53.2888862035267	102.713647956712
2350000000	-52.4048835910614	115.683454745998
2353333333.33334	-51.2565929821637	118.325377577225
2356666666.66667	-49.725593559793	113.375350186949
2360000000.00001	-50.4434655172171	104.054004434256
2363333333.33334	-51.00351288864	105.889925809471
2366666666.66667	-51.3522106828849	106.808732545007
2370000000.00001	-50.9885123977941	116.674397338136
2373333333.33334	-48.2020088319044	111.508233535899
2376666666.66667	-49.1521623576159	99.6541413031586
2380000000.00001	-50.6652862132576	111.316945677491
2383333333.33334	-48.4192470231443	111.726311973012
2386666666.66667	-48.3506174158872	102.738261423644
2390000000.00001	-47.7692351226594	104.794435417349
2393333333.33334	-47.4188880888352	103.045322333547
2396666666.66667	-46.9680496108249	105.959654444206
2400000000.00001	-45.3376124933866	102.148140503193
2403333333.33334	-44.9025462737831	84.8698887697341
2406666666.66667	-46.2476851128352	80.8015662861033
2410000000.00001	-46.8710924017636	82.3011284791958
2413333333.33334	-46.1856531390484	87.5542804013431
2416666666.66667	-45.4759712939574	74.8954270323682
2420000000.00001	-46.1529521103664	73.719299830222
2423333333.33334	-45.4223014074718	72.3364317901039
2426666666.66668	-45.5202809574273	65.9613857459149
2430000000.00001	-45.2392307293762	65.639645953826
2433333333.33334	-45.3833532743326	55.3796487402455
2436666666.66668	-46.9275513007353	54.105071833881
2440000000.00001	-47.6314607730567	60.8445987992949
2443333333.33334	-47.2146587801151	70.37697357101
2446666666.66668	-44.7828361287673	71.7118672322449
2450000000.00001	-43.0018875898038	60.3500700530801
2453333333.33334	-43.6926072363269	44.7157412516357
2456666666.66668	-45.3763602763478	40.6889582727564
2460000000.00001	-46.4362434192451	53.1194768609659
2463333333.33334	-45.5558560958001	51.1008296407437
2466666666.66668	-44.2016965646677	60.7999350919368
2470000000.00001	-42.320802851433	51.1439202813043
2473333333.33334	-42.1897921575511	43.2228136893567
2476666666.66668	-42.510232695984	39.4312073272749
2480000000.00001	-41.3511520509873	35.25252736431
2483333333.33334	-40.6937378051022	25.0180352212646
2486666666.66668	-41.657415840063	13.4731543689023
2490000000.00001	-42.7864610704845	13.6768447600186
2493333333.33334	-42.3857563593354	12.0848139982419
2496666666.66668	-42.6808201787669	7.55348518024527
2500000000.00001	-43.2209764048903	9.98730357069905
2503333333.33335	-42.8068039465927	14.1726968300026
2506666666.66668	-41.2446888598788	12.5439404375217
2510000000.00001	-40.8196238112128	2.39500074002858
2513333333.33335	-40.7865112401864	-3.86011332312075
2516666666.66668	-40.8916149836421	-9.47748276443362
2520000000.00001	-41.1660277893242	-9.86662376802349
2523333333.33335	-40.2368105727096	-13.6040782104342
2526666666.66668	-40.2749544304154	-26.432436523329
2530000000.00001	-42.2560588423074	-27.5450647720233
2533333333.33335	-41.6593780651588	-26.0095263032705
2536666666.66668	-42.3493561056566	-29.5570546336712
2540000000.00001	-42.5101401561742	-25.344758428675
2543333333.33335	-41.5916557283694	-21.7175498444901
2546666666.66668	-40.5589567684388	-24.44031939376
2550000000.00001	-39.4141655526225	-30.5619102350653
2553333333.33335	-38.8889069216486	-36.9132125855721
2556666666.66668	-37.8743366135181	-44.5711274557061
2560000000.00001	-37.7594442815165	-61.8878070774298
2563333333.33335	-39.6078836372575	-73.2443575219077
2566666666.66668	-41.0907613141396	-74.6093317770677
2570000000.00002	-42.2040088356317	-71.7527157153254
2573333333.33335	-42.5082214505588	-66.4701056624835
2576666666.66668	-41.6422443711287	-61.3250152771544
2580000000.00002	-40.7702735084992	-62.2182066638554
2583333333.33335	-39.282342096287	-67.1495364320107
2586666666.66668	-39.1054199668387	-81.9334933253503
2590000000.00002	-40.8188525952354	-86.6743753874366
2593333333.33335	-40.3546659856367	-82.475536908498
2596666666.66668	-40.1736447364157	-89.5336785666354
2600000000.00002	-39.5796701163101	-90.8839948108373
2603333333.33335	-39.4809493113105	-98.6050227556865
2606666666.66668	-39.8537726805043	-109.93202689376
2610000000.00002	-41.8748407189153	-114.245803740501
2613333333.33335	-42.2105055278519	-101.570463472243
2616666666.66668	-40.5666309089892	-105.742888344998
2620000000.00002	-41.1065998784239	-114.565433425688
2623333333.33335	-41.9908325515388	-113.348311151778
2626666666.66668	-41.30141353964	-112.530170685368
2630000000.00002	-40.8890385740242	-115.697077814163
2633333333.33335	-40.5464874172754	-118.466247134106
2636666666.66669	-39.9781815937992	-126.204471834859
2640000000.00002	-41.1457898481572	-140.028120487502
2643333333.33335	-43.9674681504913	-127.885399050026
2646666666.66669	-42.1092174350754	-115.265892975043
2650000000.00002	-39.6812058521736	-122.310064865667
2653333333.33335	-39.1257886757782	-137.670846540553
2656666666.66669	-40.5955102682819	-149.611299131662
2660000000.00002	-42.6166282475949	-144.200920737529
2663333333.33335	-41.717969099514	-135.061401497313
2666666666.66669	-39.9310225519375	-137.020179671574
2670000000.00002	-38.9917216506994	-144.614418030089
2673333333.33335	-38.7119825539094	-155.840345721954
2676666666.66669	-39.723891722555	-166.735494728923
2680000000.00002	-40.774099562711	-165.60308654137
2683333333.33335	-40.3356130149894	-168.10145745651
2686666666.66669	-40.7854080754922	-173.89287196142
2690000000.00002	-41.8025882215149	-175.811371256706
2693333333.33335	-42.1056489805466	-164.029428862493
2696666666.66669	-39.9386184925673	-164.275582648863
2700000000.00002	-38.8806696294996	-174.983496423291
2703333333.33335	-38.4832768125562	177.532990193313
2706666666.66669	-38.1477528204157	159.928983364571
2710000000.00002	-40.6885825979191	146.429479447985
2713333333.33336	-43.8049331664429	150.131651583401
2716666666.66669	-44.2417414408848	-178.577503282127
2720000000.00002	-40.6293005337986	175.676753852511
2723333333.33336	-39.9546890250819	165.441786048309
2726666666.66669	-40.4313711129556	155.064384809732
2730000000.00002	-40.7613909349463	156.116097329916
2733333333.33336	-40.0710588813035	150.964148252928
2736666666.66669	-39.6993478812843	144.125132232081
2740000000.00002	-40.4127494266229	131.682900042914
2743333333.33336	-42.9517769482226	129.693977213335
2746666666.66669	-42.8000242237456	144.460691061564
2750000000.00002	-41.2651780081631	141.683268302813
2753333333.33336	-40.6953527403917	135.459229288289
2756666666.66669	-40.7393953041279	133.600847132027
2760000000.00002	-39.4074400710736	125.596210126237
2763333333.33336	-40.317638709823	111.775676391774
2766666666.66669	-41.1701576017536	109.1172451593
2770000000.00002	-40.8963838009557	101.73549497564
2773333333.33336	-41.9313482262014	93.8402294809633
2776666666.66669	-43.1272007726212	82.2380608129614
2780000000.00003	-47.0196465571952	74.367642788959
2783333333.33336	-49.7413786922709	89.7980741776466
2786666666.66669	-50.7398354908096	90.3057493546919
2790000000.00003	-56.5128406404417	143.482053607961
2793333333.33336	-47.4975353482973	174.362735002875
2796666666.66669	-44.0178786272209	156.420753255408
2800000000.00003	-44.6380879446735	153.948459269385
2803333333.33336	-40.7011252045252	157.832629157252
2806666666.66669	-38.7311477857303	140.80916034064
2810000000.00003	-38.3625370040449	128.223520358415
2813333333.33336	-38.0425973292139	118.473580617074
2816666666.66669	-38.2090130431891	107.207166541177
2820000000.00003	-38.7236581382153	103.329589889911
2823333333.33336	-38.7822162871756	99.5354930905262
2826666666.66669	-38.2371788520643	96.7082931716971
2830000000.00003	-37.6626664066528	89.3080430810641
2833333333.33336	-37.8490445901432	78.0554074390744
2836666666.66669	-38.9307458924946	72.8631523112377
2840000000.00003	-39.4212886278004	71.0288905973984
2843333333.33336	-40.0160020921009	72.1841915496231
2846666666.6667	-39.863898246243	75.1912567945911
2850000000.00003	-38.3722292537138	73.6154511927022
2853333333.33336	-37.7972202850791	63.2852990425185
2856666666.6667	-37.7668325522561	52.2929542244853
2860000000.00003	-39.0011083862832	43.8672850073928
2863333333.33336	-39.0270034182925	44.8242551908134
2866666666.6667	-39.3987731274705	35.4724882573462
2870000000.00003	-40.7876013575643	33.3080513273951
2873333333.33336	-41.7267332095864	35.8728265147424
2876666666.6667	-41.7597510897935	40.6301792270173
2880000000.00003	-41.2983376348915	44.515535274275
2883333333.33336	-40.2059557196899	42.803163601656
2886666666.6667	-38.8436468812046	36.3100141471465
2890000000.00003	-38.5171561745036	23.8019529813431
2893333333.33336	-39.9129087936078	12.5636097642134
2896666666.6667	-41.0796156935283	10.4904897469411
2900000000.00003	-41.9030812096801	8.93626978429876
2903333333.33336	-43.512928036902	12.644809624339
2906666666.6667	-42.9157481585688	19.8071889279218
2910000000.00003	-43.6548888857138	19.203078863502
2913333333.33336	-42.7708133129685	33.1964420930973
2916666666.6667	-39.9734884333315	32.7307980972832
2920000000.00003	-38.6698324149646	19.3629924803417
2923333333.33337	-38.4976305639009	7.91268867720311
2926666666.6667	-39.2394015387132	-0.353379175296685
2930000000.00003	-39.2640660737531	-3.57579373004161
2933333333.33337	-39.0033640012929	-16.492357046496
2936666666.6667	-40.7516292938355	-31.8886383870034
2940000000.00003	-44.4954796399847	-34.016851523509
2943333333.33337	-46.4608856684685	-7.6164619676245
2946666666.6667	-43.9948706088575	4.47204992064764
2950000000.00003	-42.3498740267299	7.41247431223012
