!Agilent N9923A: A.07.32
!Date: Thursday, 02 June 2016 23:08:57
!Model: N9923A
!Serial: MY52412257
!GPS Latitude: 
!GPS Longitude: 
!GPS TimeStamp: 0001-01-01 00:00:00Z
!GPS Seconds Since Last Read: 0
!CHECKSUM:1705495719
!Correction: S21(ON U)
!S1P File: Measurement: S21:
# Hz S DB R 50
1950000000	-33.5842527901814	-54.1430096126257
1953333333.33333	-33.7002901775178	-68.7238032299039
1956666666.66667	-34.7584406189906	-84.0895142343077
1960000000	-36.4118359358284	-92.3998421278818
1963333333.33333	-37.3462482028648	-96.6670991552614
1966666666.66667	-37.5934676295471	-98.2411959551142
1970000000	-37.3796832773765	-103.803452966463
1973333333.33333	-37.2589661972954	-111.241929650757
1976666666.66667	-37.2692012216033	-118.723753987774
1980000000	-36.6776368479127	-127.588892526352
1983333333.33333	-36.7056263951798	-143.546585452418
1986666666.66667	-37.7950390784498	-156.035951453531
1990000000	-39.262963544567	-163.20238041082
1993333333.33333	-40.2778184808203	-167.7775682936
1996666666.66667	-41.013854057386	-169.929811227309
2000000000	-41.5422420659439	-169.803049160182
2003333333.33333	-40.5923437902064	-168.958856317578
2006666666.66667	-40.2062446915079	177.852740718726
2010000000	-41.2700263243525	173.353288842337
2013333333.33333	-40.9267385912479	171.426228501984
2016666666.66667	-40.6896021015563	165.502406254182
2020000000	-40.2760182258747	162.978432612553
2023333333.33333	-39.6072105746359	152.743005008954
2026666666.66666	-39.6483591641899	143.431235939285
2030000000	-39.5999063173116	136.78339913316
2033333333.33333	-39.4009694475086	124.865781463479
2036666666.66666	-40.0727660147883	114.587496461945
2040000000	-41.1880615395898	103.503172808778
2043333333.33333	-43.3897532168596	108.355997653943
2046666666.66666	-42.1821485088499	119.875815572902
2050000000	-40.295290887426	118.386650276145
2053333333.33333	-38.9353723217101	109.675746112607
2056666666.66666	-38.0838689741375	98.133297498065
2060000000	-37.6480951691238	89.633263113031
2063333333.33333	-36.8030800134009	80.7780253263701
2066666666.66666	-35.9520483384886	67.2997444829133
2070000000	-35.9832713107914	52.3970373854161
2073333333.33333	-36.2549751116485	40.5548698273517
2076666666.66666	-37.1095190702011	30.9740058068065
2080000000	-37.380624728307	25.0518508736951
2083333333.33333	-38.1067955891789	15.2540133516153
2086666666.66666	-38.9639217191513	13.0414651784307
2090000000	-38.6682453381827	16.3493513152314
2093333333.33333	-37.4755543404748	12.8364025582295
2096666666.66666	-36.6017856596799	3.10726237129693
2100000000	-36.7285794226918	-7.9050838115447
2103333333.33333	-37.1610621928161	-13.1710655859977
2106666666.66666	-36.0420103759483	-11.2476739103095
2110000000	-34.3223688329127	-28.1854450050291
2113333333.33333	-34.5453929437351	-49.167738924968
2116666666.66666	-36.6139780138597	-60.369474880027
2120000000	-37.6472976207295	-64.1726109036057
2123333333.33333	-38.33967398826	-63.8801187239179
2126666666.66666	-39.7849981804366	-62.6081332939353
2130000000	-38.1309349554	-50.8449053355184
2133333333.33333	-35.8522285592123	-59.4679571580634
2136666666.66666	-35.1831325502434	-76.092308492453
2140000000	-35.949648954998	-89.8089078873112
2143333333.33333	-37.0961363140843	-88.788473350972
2146666666.66666	-36.3010393027374	-88.4024206043982
2150000000	-34.9576822646453	-95.665170668491
2153333333.33333	-34.2964525727363	-109.46499811986
2156666666.66666	-34.4498250118306	-123.199203640735
2160000000	-35.7987678380953	-135.379968346516
2163333333.33333	-37.2702373206554	-140.310853183525
2166666666.66666	-38.0121449059521	-143.377220900692
2170000000	-39.3443126505469	-137.476854975918
2173333333.33333	-37.7792315750217	-127.27293710853
2176666666.66666	-36.0297455805208	-138.980510406111
2180000000	-36.2374023029958	-150.980002264117
2183333333.33333	-36.6003485507861	-148.885980743813
2186666666.66666	-34.8784171023237	-156.549142711827
2190000000	-34.4691915151563	-173.938148136765
2193333333.33333	-35.6781830350806	166.466992811479
2196666666.66666	-39.9246019591894	164.178778677461
2200000000	-39.8742529482453	178.24663908712
2203333333.33333	-39.8613350451878	-171.681677368048
2206666666.66666	-36.9375221182563	-168.612091255706
2210000000	-34.8211139144382	175.68195886538
2213333333.33333	-35.2500435110632	155.476474014611
2216666666.66667	-37.0867210699321	146.637889237919
2220000000	-37.4693160817596	148.414175327949
2223333333.33333	-36.9782692489715	138.7389375567
2226666666.66667	-39.6139869834341	128.587978540361
2230000000	-40.4701728831518	142.327507502535
2233333333.33333	-39.3572161707453	150.830430270401
2236666666.66667	-37.3048222561744	146.816249030231
2240000000	-36.074862259505	136.315222084833
2243333333.33333	-35.9734022378837	120.92437706336
2246666666.66667	-37.0473020629041	106.379117935968
2250000000	-39.1186480348445	102.937412496601
2253333333.33333	-40.5187444410971	111.373662741547
2256666666.66667	-39.0229911321015	113.11425872622
2260000000	-39.0750718863193	104.115004983801
2263333333.33333	-40.3862546305121	104.204475080922
2266666666.66667	-39.4404106397455	109.343268492075
2270000000	-38.2935331145154	105.30218278519
2273333333.33333	-37.7678518421447	95.3020872344936
2276666666.66667	-37.8551785156754	89.38251092955
2280000000	-37.8048678143927	77.168305188829
2283333333.33333	-39.4687149884586	66.9067706460106
2286666666.66667	-41.5185999234497	67.4236879242426
2290000000	-42.2426640461426	79.1397104005064
2293333333.33334	-41.7964308490103	81.2576444586895
2296666666.66667	-41.8756106171813	94.0464358088241
2300000000	-38.3271133107522	95.922280837657
2303333333.33334	-36.7038239887163	78.6316767000994
2306666666.66667	-37.0533857946006	67.1617709505677
2310000000	-37.430649128749	55.8486267252023
2313333333.33334	-38.1445768217185	52.4834686135381
2316666666.66667	-38.6212438712538	47.4064799268872
2320000000	-39.094086396978	47.589355475405
2323333333.33334	-38.5337797254597	44.8677071304995
2326666666.66667	-39.0852894668177	36.5439594908536
2330000000	-39.8972237455124	40.5649512899162
2333333333.33334	-38.7403628361366	37.7251135827423
2336666666.66667	-38.2351402710637	26.5824018547906
2340000000	-39.4648395015652	14.0987921839299
2343333333.33334	-42.7208434735512	14.3479324870626
2346666666.66667	-42.6341511550643	32.6271686612319
2350000000	-41.0637441023241	37.907671868508
2353333333.33334	-40.1061684946679	38.1842950538956
2356666666.66667	-38.1446362073589	39.6202120939128
2360000000.00001	-36.2623776805301	27.2384099133575
2363333333.33334	-35.7654814746963	10.7226849520321
2366666666.66667	-36.6351031773208	-4.03352179474526
2370000000.00001	-38.134010716066	-10.8956270912522
2373333333.33334	-39.4577285514823	-12.2622923228961
2376666666.66667	-40.0496122363057	-8.61435146169669
2380000000.00001	-39.5296615384085	-3.84290986148251
2383333333.33334	-38.7893792713349	-6.58866355708672
2386666666.66667	-38.0685833181877	-11.8082392204478
2390000000.00001	-37.435167796941	-20.2149601251032
2393333333.33334	-38.0203209780075	-35.7868730642884
2396666666.66667	-39.7153837923094	-42.5059956192842
2400000000.00001	-41.6904550887072	-36.6863882350419
2403333333.33334	-40.8334966730022	-29.3569405856484
2406666666.66667	-39.4495781353076	-32.3318933056883
2410000000.00001	-39.6327468810224	-45.0740285711722
2413333333.33334	-41.4235009244141	-49.4208141675461
2416666666.66667	-41.4850198551464	-38.8856997046924
2420000000.00001	-40.1417897766163	-39.902058981685
2423333333.33334	-39.8422671836213	-45.2394684126229
2426666666.66668	-38.9145508441526	-48.0403211663381
2430000000.00001	-38.3191169176973	-61.9249963895311
2433333333.33334	-40.0896694815887	-75.3857562160633
2436666666.66668	-41.8175968557165	-72.4689975312656
2440000000.00001	-42.3075145464875	-66.836963619023
2443333333.33334	-41.4634964604046	-65.1056688918737
2446666666.66668	-40.9204712644752	-75.3492644903189
2450000000.00001	-42.3598465043563	-85.0858551860266
2453333333.33334	-46.703957560871	-81.6472311144791
2456666666.66668	-44.2025248935761	-38.2212298208975
2460000000.00001	-39.4795886729517	-46.8854241768063
2463333333.33334	-37.8567261415032	-68.1368364878902
2466666666.66668	-38.4380943449945	-81.9353596352023
2470000000.00001	-38.8437017003003	-89.2892153897969
2473333333.33334	-39.1314250430139	-94.1870000188829
2476666666.66668	-38.9070015836159	-104.081275106105
2480000000.00001	-39.7689792011235	-114.611296479385
2483333333.33334	-41.0128285280555	-124.628413983899
2486666666.66668	-45.1571235965237	-135.239158969587
2490000000.00001	-49.6699029990914	-86.7104181937346
2493333333.33334	-42.4009512068455	-70.7222508457651
2496666666.66668	-39.8062732221546	-92.4948567708239
2500000000.00001	-40.0311476053952	-105.03043453369
2503333333.33335	-40.7976679090953	-109.462899849423
2506666666.66668	-40.0208303882789	-110.609521861124
2510000000.00001	-39.8695253583468	-120.331578596911
2513333333.33335	-39.9734898238856	-130.418471980838
2516666666.66668	-41.0900471016079	-136.98769278712
2520000000.00001	-42.1997987535596	-140.626435909794
2523333333.33335	-42.8743434723845	-141.702468553501
2526666666.66668	-45.2408428532665	-143.429532131821
2530000000.00001	-45.7987122300024	-118.880600639636
2533333333.33335	-43.4182995547865	-117.883596133
2536666666.66668	-42.1798424347878	-114.771506821419
2540000000.00001	-39.9309943245487	-116.894155505579
2543333333.33335	-38.1997449042791	-129.791871963676
2546666666.66668	-37.8980392853002	-146.495711254853
2550000000.00001	-38.7682302715868	-156.207477451273
2553333333.33335	-38.6314284146308	-160.248963920956
2556666666.66668	-38.884608537114	-173.626022873639
2560000000.00001	-40.4468217001461	178.034109513805
2563333333.33335	-41.5166681244657	177.045486197941
2566666666.66668	-42.3680990394776	175.107274746858
2570000000.00002	-42.8235693301952	-176.739734014922
2573333333.33335	-40.961032096479	177.924478483009
2576666666.66668	-41.5858340094185	157.839494940902
2580000000.00002	-45.024948549023	152.444127332113
2583333333.33335	-47.1455814153281	161.400917740726
2586666666.66668	-47.7283682076653	178.597115723685
2590000000.00002	-45.7467759107478	-174.066113898729
2593333333.33335	-44.2979760239641	-178.323764977017
2596666666.66668	-44.1992891929141	174.20155286935
2600000000.00002	-45.8724500481027	163.854255105303
2603333333.33335	-47.298878548977	-174.670857582443
2606666666.66668	-45.1612957080679	-165.778094129964
2610000000.00002	-41.6560112782203	-167.351285740288
2613333333.33335	-40.2369010429119	176.473640307722
2616666666.66668	-40.2966846239561	162.654828700838
2620000000.00002	-39.4292731702282	155.078283024941
2623333333.33335	-39.6502757227812	130.218328262148
2626666666.66668	-43.9094309483263	120.710569947812
2630000000.00002	-44.0452671066629	128.24878171712
2633333333.33335	-46.2886047814643	118.35619161552
2636666666.66669	-48.8240002623051	137.755817073618
2640000000.00002	-49.413565317046	131.492195265787
2643333333.33335	-50.2031038425235	-153.487097245736
2646666666.66669	-41.9492726285691	-172.182446272779
2650000000.00002	-39.3982360200337	164.819813475021
2653333333.33335	-38.6342932019945	142.028051214414
2656666666.66669	-39.8560401585806	120.605752784019
2660000000.00002	-42.6178585366362	113.092570474322
2663333333.33335	-43.3276436641867	123.046380965585
2666666666.66669	-42.2101614874827	117.412774635863
2670000000.00002	-42.3802433578109	100.652855402712
2673333333.33335	-46.6198754834242	92.5607754200708
2676666666.66669	-47.2726459727046	118.201291049338
2680000000.00002	-47.3019244414266	124.553688872752
2683333333.33335	-44.3536824219693	141.079987801208
2686666666.66669	-40.7334773112738	130.859821817992
2690000000.00002	-39.9176212965664	105.377853525
2693333333.33335	-42.0285568074209	95.0234903209999
2696666666.66669	-41.634726761739	93.736360956113
2700000000.00002	-41.8419497318265	81.5864700589159
2703333333.33335	-42.7425416300173	68.5509934901114
2706666666.66669	-45.1496581213602	53.9261660267509
2710000000.00002	-50.8085146015137	64.9607920340251
2713333333.33336	-52.6713616013616	83.3166449932178
2716666666.66669	-50.125483036508	137.574399868718
2720000000.00002	-43.7054344217237	127.060338466972
2723333333.33336	-42.4544015960883	109.769312368096
2726666666.66669	-42.3995128592477	99.2044271046003
2730000000.00002	-41.9295008970507	103.106411191036
2733333333.33336	-38.8861514533071	91.8910608441585
2736666666.66669	-38.0524555227812	66.8663505896474
2740000000.00002	-40.1349787449908	48.5740423912105
2743333333.33336	-40.8058527231507	42.2488467629878
2746666666.66669	-43.0123459565913	19.7670334805421
2750000000.00002	-49.6042607437384	48.9046259409742
2753333333.33336	-45.2955085117271	65.9554707890984
2756666666.66669	-43.5639723709783	50.7816920413607
2760000000.00002	-45.5890910687893	34.9551476928713
2763333333.33336	-50.1634986533945	81.1543359126296
2766666666.66669	-42.4068799273222	88.9521796772553
2770000000.00002	-39.4130470800839	65.7524370495722
2773333333.33336	-39.0315820431827	46.3999416542796
2776666666.66669	-39.2777265761163	31.0871476472536
2780000000.00003	-40.7094093598399	22.3697549184425
2783333333.33336	-41.3839266941552	28.2701914474797
2786666666.66669	-38.6836127905865	27.3341213140409
2790000000.00003	-37.0664446547807	3.3732356733254
2793333333.33336	-38.2808681030466	-16.6788163742324
2796666666.66669	-38.2321863156995	-23.8610342863907
2800000000.00003	-36.810358927085	-48.1398539364586
2803333333.33336	-37.6399357511949	-91.0707138296695
2806666666.66669	-42.8397932180037	-141.884532953141
2810000000.00003	-51.6732444069925	159.251599372186
2813333333.33336	-53.1458197517785	68.5679550891181
2816666666.66669	-52.8264266576449	31.7264096797921
2820000000.00003	-48.7631159205511	32.9506336625094
2823333333.33336	-44.5182654026108	1.90179978357278
2826666666.66669	-43.0916905484888	-26.5964942312484
2830000000.00003	-42.7066757431418	-68.6060420621611
2833333333.33336	-43.9386838348684	-112.032867609229
2836666666.66669	-44.711165387672	-162.720773529407
2840000000.00003	-44.2904014051506	149.562739957203
2843333333.33336	-41.8401358780936	107.856144125952
2846666666.6667	-39.7159115665266	66.8645968442127
2850000000.00003	-39.8304235713184	32.1508671482636
2853333333.33336	-39.8084789919697	11.777686614535
2856666666.6667	-39.3044482026666	-14.9826692906988
2860000000.00003	-40.0372090197427	-46.1586507562022
2863333333.33336	-42.4211457984178	-73.8786450236712
2866666666.6667	-45.4011626230552	-93.4672933799216
2870000000.00003	-46.2709739569629	-115.908086680353
2873333333.33336	-47.4954623083642	-176.503030179731
2876666666.6667	-47.4161383254303	106.157760172469
2880000000.00003	-47.4824382007801	58.8361022480023
2883333333.33336	-43.5327389777314	40.3256784948522
2886666666.6667	-41.0800952687679	2.68481048678725
2890000000.00003	-42.2849621970278	-30.394270588171
2893333333.33336	-45.2907764041682	-32.8320114066387
2896666666.6667	-41.9290786763747	-30.3508294162372
2900000000.00003	-39.1693802012929	-66.7534768315733
2903333333.33336	-39.9429303325837	-111.880322040485
2906666666.6667	-43.2064158033016	-153.606407816178
2910000000.00003	-46.2043036457001	146.811809702933
2913333333.33336	-46.8806792293433	62.5481361255414
2916666666.6667	-44.405484501379	-3.55910814261972
2920000000.00003	-45.7026866963403	-54.9998110050654
2923333333.33337	-48.4277921674025	-63.9197968341396
2926666666.6667	-51.6070110786475	-59.9666409798096
2930000000.00003	-44.6034098627571	-48.2692300504648
2933333333.33337	-40.7496192428228	-91.3685081421626
2936666666.6667	-40.5649279621625	-130.288779572295
2940000000.00003	-41.7497251555931	-174.814784202986
2943333333.33337	-45.3842145976963	140.45847289851
2946666666.6667	-50.1228243483179	80.01766338938
2950000000.00003	-54.3915249270285	-16.530870058972
