!Agilent N9923A: A.07.32
!Date: Thursday, 02 June 2016 23:49:40
!Model: N9923A
!Serial: MY52412257
!GPS Latitude: 
!GPS Longitude: 
!GPS TimeStamp: 0001-01-01 00:00:00Z
!GPS Seconds Since Last Read: 0
!CHECKSUM:1403358189
!Correction: S11(ON U)S21(ON U)S12(ON U)S22(ON U)
!S2P File: Measurements:S11,S21,S12,S22:
# Hz S DB R 50
1950000000	-1.47488703544525	28.0820419108763	-41.839495666718	-15.491778397257	-41.8429674369072	-12.6474874925945	-1.68647559395121	26.2374909274127	
1953333333.33333	-1.49206521314615	24.72568469209	-40.7802767756697	-23.3945915361247	-40.6657429338083	-21.2999314462655	-1.65442647054979	23.3415560351727	
1956666666.66667	-1.52085157863916	21.4798693067004	-40.761557524061	-39.1435467287068	-40.9999781535601	-35.5207618765378	-1.60624368841902	20.5034455814088	
1960000000	-1.58626709567684	18.2270929289787	-42.1615087391482	-47.0285672785734	-42.3642298540338	-44.0336538901422	-1.57372403402356	17.6725293418749	
1963333333.33333	-1.6578922934633	14.9144346289759	-43.4709948561501	-51.1630706063831	-43.5251371565944	-47.1515444692706	-1.55376231402009	14.9311071166325	
1966666666.66667	-1.75292672875223	11.4485815072897	-43.9522378297996	-47.359995674366	-43.9203711368433	-40.6727886831979	-1.54977904687099	12.2985783409149	
1970000000	-1.85596352666273	7.96697384066127	-43.9691543415179	-47.8276267221356	-43.5449946671789	-43.614957640513	-1.55785242472819	9.84222524215397	
1973333333.33333	-1.93362551823881	4.43801657985352	-43.9123151192901	-46.2894820713107	-43.367752743579	-42.4762979292923	-1.56953266079637	7.43605817738072	
1976666666.66667	-1.9919089033459	0.781980671755006	-43.6051827621568	-47.1150625694774	-43.2361525157189	-43.4583323638335	-1.59232441280838	5.08359854584729	
1980000000	-2.01432379997227	-2.79771240909775	-42.174731588421	-47.0792744097163	-41.9185953841012	-44.3661055728248	-1.61532071530605	2.74878275336876	
1983333333.33333	-2.00728251071764	-6.36480484444838	-41.1463904434311	-60.0226424477816	-40.748413168662	-57.7047131960581	-1.64604884723047	0.432042148477405	
1986666666.66667	-1.96656531200745	-9.82606038033765	-41.6181968627332	-72.310531827961	-41.3688470530182	-69.8168565649606	-1.67894836087755	-2.00275540418583	
1990000000	-1.9191956147059	-13.1289373440336	-42.8747062326445	-78.6309437082245	-42.6993283256961	-74.6996843200281	-1.72226801172087	-4.33388390528463	
1993333333.33333	-1.85673498180423	-16.1499911546739	-43.4126548127916	-80.8741701252777	-42.9633056118882	-76.7926434899032	-1.76833271070749	-6.73459210835509	
1996666666.66667	-1.80503194580021	-19.0472486566024	-43.5063329107235	-81.4026739406576	-43.0870425608158	-79.4663791027753	-1.8168488176055	-9.15472000905538	
2000000000	-1.760848413103	-21.7564544892355	-43.4906375738694	-87.7952503137931	-43.1652315028931	-85.460693245354	-1.86105684923333	-11.4612693710804	
2003333333.33333	-1.73353293665218	-24.23847401487	-44.458473831703	-92.9142129520291	-44.0732264289092	-90.7424660153271	-1.87792141042748	-13.814209023124	
2006666666.66667	-1.7144069176382	-26.6267135025105	-45.3295055252208	-91.5636641477783	-44.6866068164876	-90.084926030113	-1.89894316671868	-16.1349395196811	
2010000000	-1.73298060120394	-28.9876610336	-44.9785978874985	-87.75141891269	-44.3263801535093	-86.2930274468687	-1.90322584931406	-18.4795324252917	
2013333333.33333	-1.77963716894094	-31.3674081270266	-44.1082865918689	-95.6264930596956	-43.7869042762792	-95.176182949194	-1.89294463614489	-20.7373554775748	
2016666666.66667	-1.84981976415327	-33.8019263054146	-45.1960726213021	-103.844837449003	-44.766563374764	-100.533619362436	-1.86974261337981	-22.9979481397125	
2020000000	-1.93441493890624	-36.3276989103172	-45.7128999050876	-98.7339386986148	-44.8448400633098	-95.7150959617233	-1.84715712765936	-25.1616582106405	
2023333333.33333	-2.04374596238652	-39.0558428334633	-44.3269585360204	-100.862036215591	-44.1754583068792	-98.1344776723073	-1.83154284144499	-27.2072384983132	
2026666666.66666	-2.12907924019134	-41.947049287324	-44.1681900135108	-106.572963809553	-43.9205435487952	-105.235192494967	-1.81344242528002	-29.0436854067911	
2030000000	-2.2442050019329	-44.9459050659039	-44.4864823661088	-114.147408649882	-44.064593461418	-112.207262016411	-1.75657165029976	-30.7827825956943	
2033333333.33333	-2.31361720620321	-47.9728894366018	-44.4134364205742	-121.049112968647	-44.0903137822876	-119.550417891645	-1.70529287100926	-32.541325416236	
2036666666.66666	-2.36577895296764	-50.9752435478836	-45.0419991055945	-127.716396000615	-44.3454517055162	-124.649209103918	-1.66631444674652	-34.2656188575709	
2040000000	-2.41480430272662	-53.9802474951037	-45.9473416487005	-134.261278575284	-45.1914975089827	-129.613379088805	-1.64746513028561	-35.814669410128	
2043333333.33333	-2.43925522887646	-56.6993734987032	-47.55568781042	-130.363302590066	-46.9606879705205	-132.312478839084	-1.6185097037424	-37.2735351958418	
2046666666.66666	-2.44147812315961	-59.2951687186698	-47.5053713852747	-126.265548891492	-46.9761981024299	-125.989676249896	-1.58443507971447	-38.7281519553847	
2050000000	-2.4328235433666	-61.8461557367055	-47.1830312736281	-127.675172534359	-46.8479053169322	-126.115779580228	-1.57127793090344	-40.161965846446	
2053333333.33333	-2.45204377857456	-64.4298079337436	-46.1050194966827	-130.118499364515	-45.5256729568732	-128.468721005053	-1.57744076544686	-41.575709233407	
2056666666.66666	-2.50292375222803	-66.9654201921903	-46.0054857524409	-136.730815892366	-45.8632020843633	-138.564078830743	-1.5911603384329	-42.8988828927416	
2060000000	-2.6227178016744	-69.4848606744643	-46.3356751903344	-150.595235703426	-45.5752714140211	-148.352435159932	-1.61375668739285	-44.2016240211885	
2063333333.33333	-2.7903979406141	-71.9174666903083	-47.1519466304729	-162.397074710984	-46.4483383924223	-158.308971318494	-1.62200790605448	-45.5772782148585	
2066666666.66666	-3.0126787036991	-74.418045197436	-49.7687217660901	-171.963195485504	-48.4812655644273	-170.255504700439	-1.6576247200307	-47.0544065234995	
2070000000	-3.31889680027487	-77.2206979201082	-52.819955889873	-162.231619226077	-50.5859194593299	-158.009637563648	-1.72208593536525	-48.5112856824231	
2073333333.33333	-3.75206172901829	-79.9510694696971	-51.8252863138522	-149.675030463975	-49.7202207924915	-155.841331943605	-1.78914360608625	-49.8594643936358	
2076666666.66666	-4.24999226703456	-82.3749749072972	-49.9607328976626	-158.687793762299	-48.9058950578707	-157.739901056127	-1.8404106963605	-51.25484499428	
2080000000	-4.75702705857168	-84.9361967464102	-50.7553164862131	-176.482272271951	-49.1188635162783	-175.706365804493	-1.88764385665312	-52.7305956959243	
2083333333.33333	-5.31003515774314	-87.5189226636897	-53.0087711312187	175.63352346817	-51.0260731436599	176.435270223178	-1.93879871652196	-54.4567648754599	
2086666666.66666	-5.87469350495619	-90.7026830377536	-52.9254165248451	164.478653027515	-52.0717710065932	163.302290023463	-2.01672985998916	-56.1602429285455	
2090000000	-6.60215597876418	-94.1935111043891	-54.9608240292186	142.86696426124	-53.9287393853101	151.643762124932	-2.07909026465818	-57.6996319528482	
2093333333.33333	-7.55016000081541	-97.0440507457337	-55.5244533909992	118.182946513959	-55.3901762787182	141.498642700701	-2.12638583776865	-59.2542089392916	
2096666666.66666	-8.57489859306755	-98.2153991277179	-52.1169955070229	75.3512195092369	-52.1111609159491	102.982368940319	-2.15894767445296	-60.8268281459051	
2100000000	-9.74608800797002	-98.1987126919411	-47.5156950536563	14.0940491365331	-49.2483964930019	31.8367640702129	-2.2016411362031	-62.5442470757052	
2103333333.33333	-11.0375592328352	-94.696111879871	-47.2311509229142	-28.1874772087848	-49.8337885603755	-14.9376804819142	-2.25318921895811	-64.0873477714896	
2106666666.66666	-12.1219446492177	-87.0506200503634	-48.6637767803082	-41.3596314304161	-50.2975945258949	-28.7422153757195	-2.2813411646734	-65.374054832138	
2110000000	-12.6755381135191	-76.6526473427922	-45.4362917798123	-53.5145134842623	-46.4846857837286	-45.6676207344528	-2.27220809640637	-66.7588066891301	
2113333333.33333	-12.6309783451394	-64.9588534204259	-45.8590140414289	-78.7372718565794	-46.7199439633159	-74.53245133993	-2.28068207123257	-68.3188421269075	
2116666666.66666	-11.9537439457687	-53.6157096998658	-49.6572597851134	-79.0701086829682	-50.8227122027629	-76.4155400880719	-2.33055134185262	-69.8221897092875	
2120000000	-10.7713724830014	-45.8118187901231	-46.7336419169414	-56.08840530447	-47.6734869490868	-46.5933354831649	-2.39660556481081	-70.9654174853452	
2123333333.33333	-9.6701134653133	-41.3702414757255	-44.7394801542066	-63.2882072120953	-45.7370718311185	-56.2188076634925	-2.45397105699005	-72.0535525832619	
2126666666.66666	-8.62408107637112	-38.4506974318381	-42.7045428877654	-70.3570517990077	-43.4460783188478	-61.6380634337925	-2.54162390438035	-73.0022273807446	
2130000000	-7.67438747807887	-37.1597198683223	-42.7554594275317	-80.369695715861	-43.1864816124474	-72.8290678266061	-2.62371871520007	-73.8127137640213	
2133333333.33333	-6.90842665911312	-37.4187044205323	-41.4323357423556	-71.9832614056822	-41.4802877145398	-68.1257918609565	-2.73430864628638	-74.6671476929337	
2136666666.66666	-6.33594423403656	-38.2432509027415	-38.5770689826282	-86.8743318668892	-38.7457256266216	-84.3176518526142	-2.87184728336977	-75.2335339736985	
2140000000	-5.92419221358543	-39.269146395089	-38.5188879639917	-104.942736328724	-38.7511106674208	-102.447744244553	-3.01961210989285	-75.7538620653144	
2143333333.33333	-5.52873781250397	-40.4788611163431	-39.5156817212587	-111.778814493314	-39.6273297681771	-109.024471842041	-3.21704293938248	-76.0728689132588	
2146666666.66666	-5.14873312447476	-42.0752719427221	-39.1784999769994	-109.894350880028	-39.4025738726575	-108.188055905473	-3.43905847360287	-76.0497332789818	
2150000000	-4.86502765256626	-44.7480345862419	-38.0564144737063	-115.895144198628	-38.5236883809947	-113.446254525517	-3.65578944389892	-75.5330887500502	
2153333333.33333	-4.70023947900691	-47.2243467769325	-37.6723306254404	-121.471168486648	-37.9274402322637	-116.513033837447	-3.83424876489313	-75.0345687470747	
2156666666.66666	-4.48257273519053	-49.2357212780185	-36.2734698523958	-127.479815619316	-36.5585658610179	-123.800996858398	-3.98850014100839	-74.1817591298483	
2160000000	-4.239934286408	-51.6879234046682	-35.6512404292531	-140.021284122524	-35.7209237730588	-136.620051177591	-4.0926061152771	-73.4721685538311	
2163333333.33333	-4.05990239519527	-53.9613056764163	-36.0044549801913	-154.082469291752	-36.060163412517	-151.984331145716	-4.23627993114228	-72.7081974856641	
2166666666.66666	-3.86060389773914	-55.7961857964946	-36.7719226930013	-159.998147342695	-37.0089039776135	-157.655873736705	-4.28907136205061	-71.5908569126746	
2170000000	-3.63760935131947	-57.3707858317081	-37.3383201131827	-168.334765842055	-37.4363057373146	-165.286812766956	-4.26884862020169	-70.7558027219986	
2173333333.33333	-3.40681704526021	-58.8301102674533	-39.2384797785619	-168.424525552038	-39.5330084972523	-165.222218588669	-4.20427581240437	-70.2946060255483	
2176666666.66666	-3.21432205968556	-60.2103000935827	-38.8094975852838	-156.315760986479	-38.8468487090088	-153.205073142828	-4.11903330316736	-70.4283668843928	
2180000000	-3.03141307633583	-61.3843857496914	-36.9663958616976	-159.145726649633	-36.8400324120666	-155.778349632883	-4.0847408373113	-70.5927231946002	
2183333333.33333	-2.8770434190353	-62.5411030226158	-35.8089899890375	-167.595441386346	-35.7207961053869	-165.016607941973	-3.99199824957372	-70.7100769692383	
2186666666.66666	-2.783318228959	-63.7100216532988	-35.5247898869357	-179.699018857408	-35.4815502328272	-176.996386414242	-3.86986829013043	-71.046970924298	
2190000000	-2.73527228337744	-64.6005167498214	-36.0318960085163	170.56156551471	-35.9127937507515	173.670445005496	-3.74013185838937	-71.7736107752277	
2193333333.33333	-2.69471523010642	-65.5576349559775	-36.705845719253	166.90403014711	-36.5998769493903	169.272306830158	-3.62876340617885	-72.6254384833539	
2196666666.66666	-2.69439928902039	-66.3376137761838	-36.9858365754395	164.063817220946	-36.855884726511	166.262347238054	-3.49591087241971	-73.4324356128236	
2200000000	-2.70534147800574	-67.476273884382	-37.2725246759141	159.880206503579	-37.0785869194601	161.815102962701	-3.37005734506034	-74.4887993641302	
2203333333.33333	-2.75832620231111	-68.5548401639415	-37.7655961414084	157.248506322682	-37.5576542019424	159.003053770469	-3.28825066599064	-75.3731179593464	
2206666666.66666	-2.80680050475693	-69.7035101197163	-38.1116027923545	155.891047415016	-38.0013314715326	157.54833536101	-3.1802507273839	-76.0514682107385	
2210000000	-2.82245838481984	-70.9407906612586	-38.2474611532468	160.536381434174	-38.400929912589	162.113004555345	-3.06744628519906	-76.7390055501297	
2213333333.33333	-2.81356893285181	-72.5344615150359	-36.9374462045851	163.752119573722	-36.8381887228237	165.932404589353	-2.93165556533037	-77.3325802867385	
2216666666.66667	-2.82534899003638	-74.2652892027925	-35.8230520238027	155.155796122126	-35.7817584458309	158.208791493248	-2.80990228288764	-78.0481505797117	
2220000000	-2.82044193618815	-75.6578056278675	-35.3330429321118	147.430774311565	-35.1190817561555	150.025088061045	-2.70386026300189	-78.7452719703422	
2223333333.33333	-2.77858919261323	-76.9802320922273	-35.3190352234944	139.450324891141	-35.2022238413382	141.596735620474	-2.62128123101302	-79.3751846414087	
2226666666.66667	-2.71196472799953	-78.1402325311428	-35.3832729224916	131.978137324028	-35.1894557301929	135.091035018865	-2.56069862684063	-79.9247022992802	
2230000000	-2.61147415644919	-79.0960221550114	-35.857809878309	123.280175008924	-35.6108378334138	125.807144527969	-2.50245041676704	-80.3809908736422	
2233333333.33333	-2.507934188073	-80.079784032705	-37.0174219148857	120.516629111531	-36.8008141312309	122.858890960495	-2.45477191647239	-80.810554791649	
2236666666.66667	-2.4278485892758	-80.9476512972256	-37.2308026839772	122.706389392234	-37.165209672718	125.861778817116	-2.41764030496066	-81.2239512027598	
2240000000	-2.39251099637678	-81.4895212546163	-36.7150625864601	121.107329092895	-36.430745124335	123.80300181333	-2.39598100902035	-81.7596211095338	
2243333333.33333	-2.34987439113674	-81.753328930613	-37.11217823384	114.874003461606	-36.6952825589438	116.776368565487	-2.3798990209572	-82.1575578881072	
2246666666.66667	-2.28955741329419	-82.1535697581132	-37.6297971441421	117.039016824861	-37.3466734136514	118.226291535996	-2.36955113210932	-82.7304387117699	
2250000000	-2.26691004710525	-82.6364687081295	-36.9016143280481	118.462430595824	-36.6406500495687	118.728687368859	-2.41653540265246	-83.4049059908182	
2253333333.33333	-2.27480302655869	-83.2977296181668	-36.275376060181	112.399340349932	-35.9921350722394	113.478386753958	-2.46158528626925	-83.8993182550306	
2256666666.66667	-2.33680661539389	-83.981939006125	-36.1822264455895	106.566960562839	-36.077516612623	107.322930578031	-2.50573456085322	-84.3648852929022	
2260000000	-2.40990855383113	-84.5535656517037	-36.266364730343	101.508805496985	-36.013399145812	102.329857033606	-2.54276558553155	-84.99095825083	
2263333333.33333	-2.49025685751246	-85.4371333878878	-36.5910414469624	96.5861938843564	-36.4817508287476	96.5428738312512	-2.58441540877567	-85.7299038410562	
2266666666.66667	-2.58117285318484	-86.4100109336586	-37.3830449163564	93.7252642041307	-37.0607960875291	94.3646194024717	-2.63812402611251	-86.5753186640541	
2270000000	-2.65156509505922	-87.4535462788919	-37.1515001193822	96.1221847945563	-36.9004527842875	97.3407882872402	-2.70490138605555	-87.436246889827	
2273333333.33333	-2.72427469374129	-88.6936023509275	-36.5418154855381	89.9119896012187	-36.3427383616615	91.1220633243448	-2.75775682502438	-88.2157191197603	
2276666666.66667	-2.78854101205493	-89.8057274276754	-37.3878615020812	82.8324515946666	-37.1860183394305	83.7595930571814	-2.77916201173597	-89.1024050080842	
2280000000	-2.78402221020394	-90.8531968235417	-38.3348570684293	85.8962583640195	-37.932271604548	85.1366437075339	-2.79951067804729	-90.1891199261902	
2283333333.33333	-2.75318531758622	-92.0454826332503	-37.7899031813146	89.4747886962274	-37.5805177641301	90.0892835613307	-2.83436973606128	-91.1775398193666	
2286666666.66667	-2.71793983057518	-93.1213836215323	-37.1078753908858	86.0560415027094	-36.79433134444	87.4006642182575	-2.85551969187979	-92.2248066533626	
2290000000	-2.68547147659834	-93.9005049114968	-36.8541368301975	82.9400468103177	-36.4968824139106	82.0745631376235	-2.88955530445355	-93.1706114805679	
2293333333.33334	-2.59284256836769	-94.4015528107433	-36.6969975297559	77.606538377036	-36.4615187496565	76.1637105952354	-2.89723151935163	-93.8541334386362	
2296666666.66667	-2.51399345637881	-95.0072961164563	-36.9530649112377	73.4379644697618	-36.8060370469854	71.8494319571595	-2.85283736407208	-94.5515297273378	
2300000000	-2.45952245889765	-95.3800108497691	-37.5234837546561	73.917311972531	-37.3800893053233	73.564214414481	-2.80971575796983	-95.4393308110588	
2303333333.33334	-2.42467856496767	-95.6364786568518	-36.982241007256	75.3307211794446	-36.8425797758516	75.4405426876429	-2.78909384096591	-96.1493850785194	
2306666666.66667	-2.41727907144594	-95.8017831505541	-36.1733786212481	71.2781017876057	-35.9595346194319	71.0638281318105	-2.76521691687903	-96.6766823029616	
2310000000	-2.41416191720722	-96.0020929398076	-36.2650622152582	64.2941193902223	-36.083694095856	63.4959859825926	-2.71482984120734	-97.109918213522	
2313333333.33334	-2.46472474562037	-96.4037699612797	-36.4602423608429	61.884477102648	-36.2226388080834	61.6818529241587	-2.66710194801597	-97.609805860821	
2316666666.66667	-2.53936510486513	-96.6755087526025	-36.357022791448	60.3505436380182	-36.1867311894312	59.213481116331	-2.6422518142959	-97.9717198529178	
2320000000	-2.63838143671717	-96.9908937559101	-36.3719064017049	58.4939396434654	-36.1980960427135	57.7193689585809	-2.59104844575442	-98.2810596420909	
2323333333.33334	-2.71643795481137	-97.4837798740799	-35.8081447001752	57.007038900885	-35.6219419076744	56.5237565612209	-2.57439509171906	-98.667470716542	
2326666666.66667	-2.80144896831595	-98.238640447171	-35.2467911732603	47.7136407344515	-35.080691608078	46.396458247808	-2.58304750648969	-98.9809676210681	
2330000000	-2.90786194214304	-99.2952290306648	-36.822903715559	37.7695634713315	-36.6304847170528	35.855983798027	-2.58110548609407	-99.2043830107883	
2333333333.33334	-2.99932734869573	-100.407977382332	-37.9638855467853	48.793060153218	-37.9888509690904	47.337652629392	-2.59960380251752	-99.5960097499068	
2336666666.66667	-3.06889919142029	-101.626224547974	-36.41289388602	52.2293894993615	-36.5699653195619	50.852352985579	-2.66932335985104	-99.8594963373902	
2340000000	-3.14706029125531	-102.780560606164	-35.2823800699894	47.1415236621545	-35.2728140411476	46.4922490089045	-2.73573754050034	-99.8485414164815	
2343333333.33334	-3.18330236341451	-103.749637138622	-34.9937064269492	36.541495795901	-34.8678327707666	34.6523246383509	-2.76168544313272	-99.8654221739575	
2346666666.66667	-3.18138044998497	-104.581598484593	-35.9982734976568	29.9926197224539	-35.9608480771662	28.6822721946349	-2.7919687509661	-100.216928981205	
2350000000	-3.12856822626958	-105.173710732818	-36.615386986125	32.0509079240266	-36.7228934199686	30.6822729426817	-2.85188836620136	-100.761046213712	
2353333333.33334	-3.0486621182782	-105.690592325856	-36.0988794316682	35.4416021283801	-36.3571252351583	35.2169236867723	-2.9460519324802	-101.396394698495	
2356666666.66667	-2.96945422491575	-106.067405340355	-35.1489424541059	31.78580164147	-35.2886400187242	31.881892125614	-3.06865068565831	-101.960834325123	
