!Agilent N9923A: A.07.32
!Date: Thursday, 02 June 2016 23:48:24
!Model: N9923A
!Serial: MY52412257
!GPS Latitude: 
!GPS Longitude: 
!GPS TimeStamp: 0001-01-01 00:00:00Z
!GPS Seconds Since Last Read: 0
!CHECKSUM:0004197519
!Correction: S11(ON U)S21(ON U)S12(ON U)S22(ON U)
!S2P File: Measurements:S11,S21,S12,S22:
# Hz S DB R 50
1950000000	-1.47987924520886	28.030776236003	-42.3139088488934	-15.5593904771638	-42.5236648082088	-14.7949241037612	-1.67544950133278	26.2690637829224	
1953333333.33333	-1.49447421563548	24.6606537481869	-41.4360574049909	-23.2780614424332	-41.4590046628938	-23.7317310161836	-1.64032662235191	23.3346903057697	
1956666666.66667	-1.52645209077161	21.4020818925828	-41.6977241001854	-37.8223935262492	-41.5343276232221	-37.7050540771446	-1.59996115675905	20.4809774484875	
1960000000	-1.59300662345155	18.1283596919083	-43.0239826907693	-46.049275835553	-42.9782539872223	-45.6178036160189	-1.56568382864126	17.6691476499984	
1963333333.33333	-1.6668814407877	14.86896946863	-44.4729138242943	-48.1566781177262	-44.3772075038391	-47.231297187704	-1.54858403717824	14.8997771069308	
1966666666.66667	-1.76114329720222	11.4353799205389	-44.9714510402542	-43.3250453690534	-44.6838745020103	-41.6525174049548	-1.55026272280548	12.2852041107921	
1970000000	-1.87090025766699	7.89043874559715	-44.5525917130764	-43.3196569209057	-44.5980050609268	-42.5564283851217	-1.5549747347113	9.79456968445283	
1973333333.33333	-1.94643273021316	4.38323031902046	-44.4220435219415	-42.21476853261	-44.3988946122748	-40.3504307747749	-1.56582644548866	7.39468847778638	
1976666666.66667	-2.00631063934146	0.722485925491827	-43.8950830318283	-42.3301641620192	-43.9341400808342	-40.524496810257	-1.59033438427033	5.03200601087409	
1980000000	-2.02716462938111	-2.83252510412524	-42.6171979433689	-42.1728381025227	-42.6353352209882	-41.3439027767194	-1.61013669115613	2.68172704660612	
1983333333.33333	-2.01962420024698	-6.41754717225477	-41.2338889705873	-56.1852581989521	-41.2583982717516	-54.8408991534551	-1.65230739561154	0.372630856758843	
1986666666.66667	-1.97991715333377	-9.85190180556911	-42.0604850830356	-70.1404016156765	-42.0557074951695	-69.3528628099812	-1.67688843384857	-2.03600649806748	
1990000000	-1.93382616382772	-13.1554406918581	-43.2201264143522	-76.0898183942406	-43.3610461061888	-74.9746673289484	-1.72412765727575	-4.37289804553388	
1993333333.33333	-1.87579708550885	-16.1897249931152	-43.8870740242428	-74.2801011369433	-43.938660477106	-74.0113123950988	-1.77049737670063	-6.79308988154777	
1996666666.66667	-1.82016121835513	-19.0189924361618	-43.3690146584444	-74.9389782158128	-43.2555248334819	-73.8821577636999	-1.82209565456905	-9.19864455100872	
2000000000	-1.7769610955148	-21.7064936841166	-43.5572955984823	-84.2076261379257	-43.3295929899843	-82.8599326368285	-1.86623590527237	-11.4754422824599	
2003333333.33333	-1.74757034005802	-24.1843288175265	-44.5929074730421	-87.0868192820598	-44.4100855291923	-86.6851890743895	-1.88126334255305	-13.8356291929091	
2006666666.66667	-1.72401601868621	-26.5969783480805	-45.2600313393795	-87.688575198249	-45.1177386008391	-85.931340222296	-1.90749292448005	-16.1713014622503	
2010000000	-1.74469577143769	-28.9590044277029	-44.7668059979971	-83.5719948104647	-44.4853410421386	-82.6798139565539	-1.90241205846082	-18.5101937561773	
2013333333.33333	-1.78643137787602	-31.3485510606271	-43.8966705592048	-93.4324469631227	-43.9168545208995	-91.8952900286805	-1.89632732286961	-20.7892875566206	
2016666666.66667	-1.85949098272174	-33.7550427603675	-44.8913515815732	-100.441582937862	-44.6798440296243	-98.1455628298865	-1.87373510745176	-22.9851633424562	
2020000000	-1.9457533078305	-36.2875128997063	-45.8461325270601	-96.5847639206438	-45.4174674350013	-95.6566607123443	-1.84936777869781	-25.1463224475373	
2023333333.33333	-2.05132218399725	-39.000717111394	-44.7992736613213	-97.4114336422376	-44.8046363619351	-96.1365606532688	-1.83353918466942	-27.1985857500271	
2026666666.66666	-2.1383288793179	-41.9407642854716	-44.3065064682545	-104.407041897831	-44.0815317067319	-103.721651626603	-1.81664055174685	-29.0383086276573	
2030000000	-2.24953279972265	-44.9007686487456	-44.4842578825537	-108.524823032386	-44.4941312268632	-107.385942300622	-1.76356290597894	-30.7838290704408	
2033333333.33333	-2.3197605104874	-47.9281490138167	-44.51379857109	-115.188719698907	-44.192755325863	-115.657317344423	-1.71333606001948	-32.5404582156819	
2036666666.66666	-2.37146571220485	-50.9553548644202	-44.9464239548036	-122.627829486969	-45.0621247922796	-124.142361954556	-1.67410211430042	-34.2522462342339	
2040000000	-2.42531754328629	-53.941552337623	-46.1406693391962	-128.6420542625	-45.8549897664592	-127.21650725582	-1.65341413167061	-35.7962695265143	
2043333333.33333	-2.4460920713295	-56.628577931673	-47.6370562332399	-128.656670034962	-47.1158039031946	-129.288207677801	-1.62405678130755	-37.2542353806051	
2046666666.66666	-2.44570287652797	-59.2380789575083	-47.657393390804	-126.323530144654	-47.3454983986522	-124.444299427385	-1.58916563323039	-38.6942843653928	
2050000000	-2.44125776958713	-61.7659639408883	-47.9158349276375	-120.518188358643	-47.8417496391957	-121.354878335513	-1.57779993014573	-40.129065126154	
2053333333.33333	-2.45856388946425	-64.3142354204175	-46.4256210755419	-124.726060197749	-46.2945091659341	-122.939855516778	-1.58407076607354	-41.5012368572536	
2056666666.66666	-2.49958151909551	-66.8224687281412	-46.2601942755162	-132.799083582071	-46.3439777700475	-132.527225854291	-1.59231158030202	-42.8375410959288	
2060000000	-2.60890381994639	-69.3735370220495	-46.5261938970218	-143.069668340639	-46.5432068675371	-143.940210065486	-1.61610294934138	-44.1590086932448	
2063333333.33333	-2.76953724368032	-71.9269823922027	-47.912207320826	-150.357536260379	-47.750927363393	-152.726666095951	-1.62604266591876	-45.5267566958126	
2066666666.66666	-3.00164051728797	-74.4597215520387	-50.4274771164803	-157.240606506686	-50.2930235804834	-159.124409309201	-1.65859546771051	-46.9883194419152	
2070000000	-3.3107210847457	-77.1989832685264	-51.4819510575931	-145.335971272213	-51.1973345062434	-145.211402811012	-1.72107936145744	-48.492874826269	
2073333333.33333	-3.72951875106438	-79.9710780591731	-51.1983567248638	-147.645621431439	-50.733016114575	-146.577928888274	-1.78927292343425	-49.8075198694669	
2076666666.66666	-4.22773959429864	-82.4794451209052	-50.8083570682659	-146.697747754872	-50.6918958980722	-149.571771680568	-1.83958249790724	-51.1922325211434	
2080000000	-4.7388925805988	-85.0711503341518	-51.8155327159486	-160.430009085227	-51.3104145305683	-161.537085260464	-1.88672122598653	-52.6961191152887	
2083333333.33333	-5.29011428061691	-87.7073292526917	-54.4043792782374	-147.347978295646	-54.2758086938421	-147.564114438257	-1.9395704725271	-54.3880954642873	
2086666666.66666	-5.8582698061883	-90.8661609257617	-54.2325915058353	-158.609788137553	-53.7018037277177	-160.401305801622	-2.01524149906906	-56.0791080901807	
2090000000	-6.57333122234146	-94.5110096565675	-56.9310346163487	-159.523351884109	-56.1646260608897	-158.786146297398	-2.07369361073619	-57.6393279051946	
2093333333.33333	-7.52512936712122	-97.6408756254405	-57.9294705908439	-161.472341983113	-56.7978288202291	-162.336627448655	-2.11859725004584	-59.1956970822637	
2096666666.66666	-8.58840993344012	-99.1304622024865	-63.171159316123	116.527058778027	-62.0758579016711	121.215828614671	-2.15092235959244	-60.783237484125	
2100000000	-9.85022411027495	-99.2034116748605	-52.3579811437163	-15.2582999249771	-52.5895203125281	-15.9245635571414	-2.19337652447434	-62.4922626151659	
2103333333.33333	-11.2394016518533	-95.3436275312966	-49.1118424804492	-63.7545769925487	-49.0253582802037	-64.6451156004022	-2.23939849509182	-64.0599247553355	
2106666666.66666	-12.3548085631154	-86.9358948533709	-51.1441346162357	-76.3120320214368	-51.0077863152693	-75.7274332010913	-2.27486530685628	-65.3960819844723	
2110000000	-12.8781783049437	-75.8905416134564	-46.9317761576049	-69.5019943647172	-47.1236495292837	-69.3394337745801	-2.26977781344167	-66.7670070333372	
2113333333.33333	-12.7481096074376	-63.7000166536909	-45.8591112021453	-94.8435376887063	-45.8249678910495	-92.8355064589421	-2.27993016603002	-68.2882378755851	
2116666666.66666	-11.989413678936	-52.5434051646095	-48.5429652023098	-110.799416463962	-48.2804922267786	-108.438588313673	-2.323340349569	-69.7635996379837	
2120000000	-10.7743373503434	-44.8301997715671	-49.1080771479316	-84.2311527282604	-49.1686406571607	-82.7187435849225	-2.39467249864236	-70.9692734400138	
2123333333.33333	-9.62577064100683	-40.3710784788961	-47.0885146130202	-83.2516936057574	-47.1857348628042	-82.7459231326102	-2.45053842152474	-72.0288324377092	
2126666666.66666	-8.54362468067887	-37.7524303009411	-44.3891356738292	-86.2588681139243	-44.5231252681942	-85.2683249784977	-2.53577450668491	-72.9970326826755	
2130000000	-7.60660027430522	-36.6094568012812	-44.6526077583098	-97.7499346005981	-44.7788289361101	-98.610680413594	-2.61639875756505	-73.7992222130046	
2133333333.33333	-6.81515886625885	-36.8812890537574	-44.0216873935542	-85.3193923914976	-43.9803171097889	-84.7467120839052	-2.72790586195211	-74.65405520382	
2136666666.66666	-6.20952532702128	-37.9879402318095	-40.5785078378951	-96.6766684003309	-40.6112978201361	-96.1375828312475	-2.86561878558896	-75.2520933740849	
2140000000	-5.80340818477242	-39.259718292853	-40.8353295466662	-116.008461113922	-40.7780968380202	-114.464228385557	-3.02024668013939	-75.7784212312968	
2143333333.33333	-5.42045422666331	-40.644540924917	-42.3823576517294	-118.725904467779	-42.0253841018585	-118.933288307811	-3.22283851416166	-76.0889343406566	
2146666666.66666	-5.07902230935573	-42.3993952448968	-41.3370122077171	-109.983952652463	-41.4248773240906	-111.087053785375	-3.44056779045883	-76.0704773191531	
2150000000	-4.7821782610633	-44.9909608347903	-39.7667131400656	-117.532831598206	-39.8501401489029	-117.793791176311	-3.65687994873286	-75.5197056040024	
2153333333.33333	-4.61437830839015	-47.6169790788771	-39.3263197231688	-122.801453924599	-39.2886127621153	-122.69591521871	-3.82939776686505	-74.9593387381235	
2156666666.66666	-4.43018776058095	-49.7787676331867	-38.1551738784459	-128.148498333561	-38.1802661908396	-127.980021736543	-3.97961865733204	-74.1889689004341	
2160000000	-4.2111096553061	-52.1386632509802	-37.0507632234668	-140.212516999464	-37.1024534931645	-138.873055048416	-4.09152542515162	-73.4499457359387	
2163333333.33333	-4.03448092426323	-54.3470473081004	-37.1936772822014	-154.836109386873	-37.1868907027739	-154.13608806403	-4.22116652054065	-72.6707363928296	
2166666666.66666	-3.83835347426807	-56.1929957160694	-37.8608540445732	-162.318925019601	-37.9486649090241	-161.709340276877	-4.27202065267458	-71.673019979515	
2170000000	-3.62722281782266	-57.7970629641885	-38.5980180052089	-170.535744887713	-38.5675748752187	-170.204837071239	-4.26482991809662	-70.8917071019112	
2173333333.33333	-3.40441160156211	-59.2350457199114	-41.206415376073	-172.009402507849	-41.3025662722689	-171.762888625515	-4.21084187833248	-70.3910114319673	
2176666666.66666	-3.2130462323081	-60.6265209047622	-40.7644239041301	-154.921170605001	-40.7394243704099	-153.588534114738	-4.12364950446506	-70.4180851987929	
2180000000	-3.04233782243492	-61.7676190494666	-38.5668204263251	-154.972515907831	-38.4737885063386	-154.838614723081	-4.07819194864103	-70.5810890471026	
2183333333.33333	-2.89504927105446	-62.8843038148017	-37.0749248198942	-163.686584096924	-37.0456475011761	-162.484993834344	-3.98280303420344	-70.7525241654297	
2186666666.66666	-2.8070609126603	-64.0327581435215	-36.6786852434353	-176.289765877128	-36.5979132314139	-174.887643754229	-3.86834526828117	-71.1263005675515	
2190000000	-2.76230694474698	-64.906383034801	-37.1023570869008	175.179628921047	-36.9847274457663	176.253756285088	-3.73706424502769	-71.8112142829884	
2193333333.33333	-2.73158390474895	-65.8219589435742	-37.4652236051811	170.718464766421	-37.4965838757161	171.563639981275	-3.62722698103949	-72.670080858886	
2196666666.66666	-2.73887460795829	-66.5329658125393	-37.7458935016848	165.956885965908	-37.7059497297633	167.100358839978	-3.49217425664648	-73.4891612854614	
2200000000	-2.74488056032627	-67.6145905120914	-38.0871278472356	161.957189891486	-38.0774772442245	162.326840459701	-3.37507291436608	-74.5647430264668	
2203333333.33333	-2.78522996488888	-68.7062318542092	-38.6660651681422	158.304212298593	-38.6334207528019	158.605288142126	-3.29202243598327	-75.4185816978222	
2206666666.66666	-2.84212294090492	-69.8782784820702	-39.1082527774821	158.066906868706	-39.1278290384303	159.584552680087	-3.18049287309321	-76.0767809523944	
2210000000	-2.86199682614934	-71.073106975752	-39.6408129197584	162.656794913188	-39.8208262349675	163.882078371532	-3.06688343335866	-76.7882372022509	
2213333333.33333	-2.85495484994787	-72.6168968919226	-38.2483495936374	169.50295226077	-38.2634905425796	170.783812361169	-2.94225261208525	-77.368149089507	
2216666666.66667	-2.86528296813573	-74.3542142160426	-36.9585569517818	162.198159727104	-36.9025134664248	163.260301146038	-2.81571237800864	-78.1074142198269	
2220000000	-2.86544473046386	-75.7110524361538	-36.2450139192817	154.87670090252	-36.2716478781527	155.260592264092	-2.71480986403232	-78.7927125120285	
2223333333.33333	-2.82050809600418	-77.0323849230139	-36.1750821010543	146.160750724555	-36.0820464226509	147.391417262532	-2.63407647276518	-79.3838135479416	
2226666666.66667	-2.76303324199078	-78.1988762681018	-36.1558147668186	139.267926907941	-36.1469338327437	140.463164760341	-2.57320824939869	-79.9081618067391	
2230000000	-2.66077701136203	-79.0957076513301	-36.5606166375169	130.975140878674	-36.5384670704052	132.505718917496	-2.51183162813285	-80.3201367901825	
2233333333.33333	-2.55162326257134	-80.078416006765	-37.6232891745983	128.755974050947	-37.5951120641704	130.142037741848	-2.45963943043059	-80.7816239359779	
2236666666.66667	-2.48136704287746	-80.8991828731145	-37.6522621453876	130.559496628014	-37.5928282457711	132.601605122926	-2.42208341717955	-81.2257786919152	
2240000000	-2.44194213508902	-81.3685824805651	-37.2778866012519	128.865474565323	-37.1448242601087	129.467633514138	-2.40199579707842	-81.7108987622691	
2243333333.33333	-2.38887637595192	-81.6163029274388	-37.5316162941979	123.51142952445	-37.4171823491508	124.548466140826	-2.38819276714491	-82.1011498409364	
2246666666.66667	-2.32899819171039	-81.9998252518515	-37.8371949500852	127.077923628152	-37.8941015007855	128.206717208029	-2.37971197543975	-82.6702030799086	
2250000000	-2.30089944968814	-82.5175889081315	-36.8086546424144	127.302531295048	-36.7081298508395	127.696526409599	-2.41740319186713	-83.3275366418294	
2253333333.33333	-2.31782287096459	-83.148451275112	-36.1783108423482	120.14064820136	-36.1068198024069	120.422432320893	-2.46979126665225	-83.8475392552947	
2256666666.66667	-2.36909389627471	-83.7755798115811	-36.1118458436724	114.032591139357	-36.0450363947485	115.151295676425	-2.51206102324335	-84.317931151221	
2260000000	-2.42946473255193	-84.3036593971627	-36.2021549712935	108.89978880132	-36.0392658760892	109.179129730926	-2.54125848140551	-84.9252712327816	
2263333333.33333	-2.50716888993613	-85.1583592436849	-36.6410685509563	103.7877091813	-36.6053949735065	105.0669449125	-2.58290339112056	-85.6868328581556	
2266666666.66667	-2.58645223393809	-86.106004694596	-37.098133084308	102.566363914086	-37.0298816076675	102.929891457525	-2.63933936938902	-86.5344890093692	
2270000000	-2.65705183382331	-87.1551854393787	-36.8257660645114	104.47404116136	-36.6480805134967	105.053416665361	-2.70134341752643	-87.3725343602811	
2273333333.33333	-2.7197674019973	-88.4407788469548	-36.1462635253152	96.5103257451451	-36.1031343638206	97.781456350287	-2.75002004768443	-88.1558698508734	
2276666666.66667	-2.78115388580923	-89.5999001636062	-36.9774738828005	90.4241465253241	-36.9231429629153	90.8550708328891	-2.77427956095649	-89.0417345663595	
2280000000	-2.77873445296501	-90.6515988590498	-37.6468311625539	93.7511981868195	-37.4001447338909	94.5178859337967	-2.79553404336136	-90.1011692080524	
2283333333.33333	-2.74957049310228	-91.8188617701834	-36.8228220674087	97.3380718278118	-36.8664908975585	97.5682847219325	-2.82010828543011	-91.1166576809019	
2286666666.66667	-2.71344111225422	-92.8626711394033	-36.1326009310986	92.0215791883257	-36.0039101053433	92.8979762601211	-2.84316130183909	-92.1973184350097	
2290000000	-2.6730218716895	-93.6258791384068	-35.8426935557258	87.6184990582228	-35.7041835265393	88.8237968671288	-2.86974350761118	-93.1386400080431	
2293333333.33334	-2.57733341504381	-94.1579574746166	-35.6892759789384	82.7685448176429	-35.5439269035242	83.4558603082106	-2.88045439923182	-93.8605026917957	
2296666666.66667	-2.48694277934629	-94.7805626262633	-36.0173858354919	77.0692773691081	-35.8293551934437	77.6819667416898	-2.83885856289342	-94.5224784405818	
2300000000	-2.43526207560151	-95.2356894359586	-36.4726630149715	77.2295573366649	-36.3767223209385	77.3051509501727	-2.79866946161818	-95.4154570003336	
2303333333.33334	-2.40149218232584	-95.5242532030591	-35.9856226861326	78.1457773159837	-35.9286994938007	77.769849247482	-2.78281735002398	-96.1625410806191	
2306666666.66667	-2.39377314029607	-95.7192448841012	-35.2652525740042	74.158414670994	-35.1847524711195	74.4840646965832	-2.76349057985512	-96.6564770146196	
2310000000	-2.39116982646105	-95.8927945895701	-35.2592031630071	68.0521649838118	-35.1648937502133	68.3561245096894	-2.71001292564314	-97.04927936504	
2313333333.33334	-2.44141153854707	-96.3283075995477	-35.3230155132146	66.285772809207	-35.2261836849129	66.2863886547037	-2.65472881177969	-97.5589613508176	
2316666666.66667	-2.51981706888515	-96.5831530948393	-35.0655625195394	62.5683283483836	-34.9358253062663	62.7276235959888	-2.62847251476061	-97.9510091499865	
2320000000	-2.607187702009	-96.9216847207416	-34.9956942717107	59.4849173427932	-34.8537027726866	58.6360259093859	-2.5811966611197	-98.2928577470888	
2323333333.33334	-2.69907760793423	-97.441146436344	-34.5193974274524	56.432338124625	-34.483755001247	56.301066453189	-2.56466675070143	-98.6946984765869	
2326666666.66667	-2.77516426447335	-98.2518239190083	-34.2121472094685	47.6849912066623	-34.1202772025369	47.3454111284201	-2.57141464479807	-98.994625159608	
2330000000	-2.87393685832909	-99.2890786502212	-35.5428599234045	37.9154595685049	-35.4145264801902	38.0446194434199	-2.56650838582629	-99.2697198632479	
2333333333.33334	-2.95774149513092	-100.41837475758	-36.4344525629601	45.5486660977484	-36.4551466972614	45.4456513373457	-2.59751045007977	-99.6684338220853	
2336666666.66667	-3.03474900967923	-101.682504445369	-35.4605879476344	48.5801777352428	-35.403293973067	47.8815576918823	-2.66952806552394	-99.9146298477383	
2340000000	-3.11706985838032	-102.873930920969	-34.3896530975342	43.747736566399	-34.3465258677184	43.8917446919701	-2.73245402400338	-99.9297400081869	
2343333333.33334	-3.15029583370759	-103.820708676208	-34.0898090083169	33.4577371300205	-34.0304215824366	34.219798115515	-2.76362905749257	-99.9261268647752	
2346666666.66667	-3.1374046433986	-104.693728390843	-34.8908849160375	27.1661956971682	-34.8914260571205	27.6049823768216	-2.79436716693739	-100.265163880896	
2350000000	-3.09074347366697	-105.361126150547	-35.5333833924487	27.0761581183569	-35.4730516144409	27.2277995833209	-2.85226066422438	-100.804044294165	
2353333333.33334	-3.02846270506303	-105.908251999736	-35.3587427163903	29.4921361698407	-35.3369805062758	29.8131082232845	-2.94372195882403	-101.407333919928	
2356666666.66667	-2.95524680669585	-106.271470018096	-34.3598321925876	27.4720157418705	-34.3541664657696	27.814925035008	-3.06708837037367	-101.996254719761	
