!Agilent N9923A: A.07.32
!Date: Thursday, 02 June 2016 23:38:02
!Model: N9923A
!Serial: MY52412257
!GPS Latitude: 
!GPS Longitude: 
!GPS TimeStamp: 0001-01-01 00:00:00Z
!GPS Seconds Since Last Read: 0
!CHECKSUM:1535708344
!Correction: S11(ON U)S21(ON U)S12(ON U)S22(ON U)
!S2P File: Measurements:S11,S21,S12,S22:
# Hz S DB R 50
1950000000	-1.5500714673078	27.7978108800735	-37.396028642295	138.690195995347	-37.3874350975883	138.524623643045	-6.98802913483278	-58.5765232227118	
1953333333.33333	-1.55750167877123	24.3356132029973	-37.4520881133356	128.582294878077	-37.6049390133439	129.499445655592	-5.78764239476838	-69.2708688142492	
1956666666.66667	-1.58972416113718	21.0538116360765	-38.3066592808818	114.483480239555	-38.3093275462567	115.38349667856	-4.85619734665524	-77.8593523735805	
1960000000	-1.65402443004595	17.7201074838797	-40.008507506011	106.242844300403	-40.1297687832977	106.459403325771	-4.14880400415908	-85.3807160183491	
1963333333.33333	-1.73221079997495	14.3914289668555	-41.5985171168272	105.980002966903	-41.6417181083568	107.283976490101	-3.64817421869105	-91.9947075547801	
1966666666.66667	-1.82253129954624	10.976320447394	-41.718659620416	107.134296145446	-41.6987354964011	108.93527564991	-3.30470531832029	-97.7657149677717	
1970000000	-1.91736923979549	7.48825009412287	-41.8868437430783	102.559617313698	-41.7543546206454	102.640935566846	-3.05148669189816	-102.60747116604	
1973333333.33333	-1.98384745628657	3.93979714819192	-42.0618235605365	101.346882126907	-42.0544898833069	101.134320153499	-2.81597311162537	-106.96899910345	
1976666666.66667	-2.04280236066839	0.289903345139976	-42.107322394702	99.0362541908782	-42.0767396164296	98.4177732868257	-2.63096477376277	-111.032049176787	
1980000000	-2.06538460206903	-3.2882041698757	-41.5024860313826	92.120411381888	-41.5401894736324	94.0629606132155	-2.46783127689516	-114.736408758197	
1983333333.33333	-2.05675810531771	-6.85883544255128	-41.4552532179449	79.9148776961659	-41.296480234926	80.5974733601892	-2.32145982755046	-118.090222767237	
1986666666.66667	-2.03225397260292	-10.3221418370785	-43.1133691905732	71.4062967179486	-42.8706654698811	70.8998648173908	-2.18442740307027	-121.332495621785	
1990000000	-1.99625648314113	-13.5192800143004	-44.1720155146711	71.259095780098	-44.3225595452705	72.3085689529214	-2.07036980917887	-124.261955365966	
1993333333.33333	-1.94295547570049	-16.4558569743326	-44.264585576445	70.1616390053344	-44.4977799844873	70.5084303096607	-1.95476767606838	-127.062111476582	
1996666666.66667	-1.8794350835387	-19.2590409281823	-45.2795291271912	67.3748713170559	-44.9673631520669	66.4392995461977	-1.86418668977051	-129.7092181575	
2000000000	-1.82896895949988	-22.0375839350347	-45.8365009225185	64.9946979014548	-45.6197680517426	66.4015398767	-1.78330887865348	-132.051329743118	
2003333333.33333	-1.80783650610652	-24.5929181958802	-46.4832927291148	66.3844889567388	-45.9595983090736	67.2862454160375	-1.69236288452249	-134.212274142403	
2006666666.66667	-1.79718641228877	-27.0111857246682	-46.7658133793369	63.2401345647857	-46.7524512498669	63.3085309055857	-1.60615219716282	-136.263327116567	
2010000000	-1.81131394965659	-29.3665337712466	-47.1041730931803	72.2542390707194	-47.3571122911995	70.5176081782411	-1.53178177680554	-138.366298209106	
2013333333.33333	-1.84953113117662	-31.8028242879892	-45.577722324305	66.7016689490145	-45.419199490256	66.5699382500797	-1.48134431582231	-140.323675473259	
2016666666.66667	-1.91914294008345	-34.2341044906829	-47.1847951972224	61.3420214242418	-47.0554464732912	62.4579698434874	-1.45083505430249	-142.166670396377	
2020000000	-2.00668548867717	-36.8488066912596	-47.2874957942891	64.7632835907227	-47.7102319441578	63.0131409833605	-1.42631727909151	-143.968375752207	
2023333333.33333	-2.12267201469872	-39.5516804531035	-47.1015523649792	66.5887566949873	-47.4010625459459	65.8411664863955	-1.42341094605131	-145.712434515996	
2026666666.66666	-2.21212543453562	-42.3689751932193	-46.8566600008208	69.5790929284135	-47.3947366263301	66.9190228838968	-1.41994386536371	-147.459164004853	
2030000000	-2.30068556449892	-45.2644790658103	-46.6039004424116	70.2712230399265	-46.8777865896438	73.8674319697056	-1.44545022668315	-149.239887067368	
2033333333.33333	-2.36461343857935	-48.3578670416505	-45.6236348379992	62.7802811371235	-45.6662745859251	66.6258519622235	-1.48403569677641	-150.998412037541	
2036666666.66666	-2.42334162153871	-51.3419794735338	-45.9328247092811	56.5162037407635	-46.5249817471817	59.7458880546961	-1.53200390293906	-152.765491199039	
2040000000	-2.46740025817729	-54.2476277115828	-46.7067480530743	55.6544136653358	-46.3861249748424	59.2959181262926	-1.60321146254196	-154.586068337672	
2043333333.33333	-2.48642057041279	-57.0111574614962	-45.7927251787993	58.4939637969429	-45.7107179868174	61.4895768941111	-1.68036896053477	-156.505917265102	
2046666666.66666	-2.48387873042395	-59.6412685809347	-46.3899677780753	55.5616218142461	-46.4783738576927	55.9850995357447	-1.76122669622838	-158.501690675137	
2050000000	-2.49002148478335	-62.2430050404656	-46.5646931768051	56.9210161360215	-45.9185590052996	62.1989054081215	-1.85276107219958	-160.675807509437	
2053333333.33333	-2.52032133090691	-64.8522001150656	-45.4803661520301	57.6216315130907	-45.1716890030491	62.1449513561567	-1.96088124074915	-162.974459912789	
2056666666.66666	-2.58523301092182	-67.3193347820626	-45.4257938267545	54.2327172970231	-44.9536327517753	57.8036866674259	-2.0750310806947	-165.196452650753	
2060000000	-2.69143740069129	-69.8756381411739	-45.0946215598898	64.2080519094573	-44.5738290653726	64.2117903037373	-2.18122716919442	-167.42089809456	
2063333333.33333	-2.86649428878107	-72.3774957919473	-43.2575331291475	60.2721133152813	-42.8401597281575	60.6305203112631	-2.26339020241877	-169.817593360217	
2066666666.66666	-3.09826427783548	-74.9030060802367	-42.4193192628861	54.8660422346793	-42.0791832647947	54.1178413106503	-2.35537125876379	-172.503310906097	
2070000000	-3.39550912087293	-77.568553986701	-41.4594331495104	48.7010789569423	-41.3282417493446	49.0152786752042	-2.49282666656635	-175.001927716282	
2073333333.33333	-3.78071848270233	-80.3876162066252	-41.3994924404515	40.1436491257783	-40.9957737888838	41.3888707472644	-2.57852688511881	-177.336448118874	
2076666666.66666	-4.27502630123586	-83.1631695913877	-41.5133671550647	37.1317211418609	-41.164038931927	37.5708155667794	-2.63332900423132	-179.864938320364	
2080000000	-4.79959072090307	-85.9475724652211	-41.2929452964957	36.1456467151326	-40.9633694867329	35.0188231588667	-2.71326458974025	177.344065636156	
2083333333.33333	-5.40671848095237	-88.6384904902656	-41.4606332690361	29.1743819565629	-41.241445410368	26.9000506682729	-2.81361456267189	174.442812507796	
2086666666.66666	-6.01016491415188	-91.4406244879268	-42.0477919112471	35.1100840898001	-41.8638628198758	32.1775760580746	-2.96388465935543	171.690551479864	
2090000000	-6.73332876951094	-94.6294252938854	-40.3206851612754	39.0136964462644	-40.3545858808563	37.7021114635483	-3.09231722078284	169.061239765735	
2093333333.33333	-7.61289035475993	-97.3435138118052	-39.0303067261002	36.2166516186975	-38.9703285475326	35.6417568120965	-3.2342470142292	166.419894282105	
2096666666.66666	-8.69894891277446	-98.8213165705595	-37.3002688711701	31.8776211553352	-37.3358616163447	30.5761380078188	-3.35935534069932	163.555643610049	
2100000000	-9.88920560741034	-98.0347607974275	-35.615541663878	21.8145519048009	-35.8912795578618	21.0623487706865	-3.57240480725388	160.452515334031	
2103333333.33333	-11.1132609695919	-94.4244020146682	-34.926810546996	6.79412349449593	-35.2199968462771	5.89659425411646	-3.82507199330649	157.629978858455	
2106666666.66666	-12.1574342843851	-86.9798196146413	-34.9535166771449	-1.00772192429361	-35.1057334306652	-0.346043059696139	-4.06010487710177	154.811005454087	
2110000000	-12.738976271179	-76.7689800042858	-34.3102119658953	-12.16227970621	-34.4475677573059	-11.9397093300719	-4.34052534204839	151.499580471182	
2113333333.33333	-12.7024914690287	-65.098614085459	-34.4632447303225	-26.1801031804713	-34.5762689212112	-26.0996955497984	-4.69363578195379	148.08853939965	
2116666666.66666	-12.0352034203771	-53.7435318253116	-35.7759443814742	-32.893131404816	-35.8884857265345	-32.7905215605571	-5.08505482453219	144.633982039612	
2120000000	-10.8502254538375	-46.0387960264407	-35.7086847433774	-37.3931456016726	-35.6518831191456	-37.0071803789298	-5.54958730323168	140.904983170902	
2123333333.33333	-9.74349684026762	-41.5533045469182	-36.0055855494429	-42.400297533466	-36.2076486561502	-42.5252273370559	-6.0207768816096	137.420973967201	
2126666666.66666	-8.69685855427408	-38.7961411224898	-37.2024479773796	-43.7811384099905	-37.2648329257619	-42.4157403005375	-6.44907116240236	133.06253939589	
2130000000	-7.76535654430314	-37.4791110982224	-35.4799531929048	-39.605905166394	-35.6070754244695	-38.3682727165649	-6.95995357071423	127.57942531647	
2133333333.33333	-6.95810526976123	-37.6710813058967	-34.0991838564558	-49.0653192656416	-34.2146809678736	-47.8833665559351	-7.6763360337965	121.725756168771	
2136666666.66666	-6.36385638982124	-38.8854672126217	-33.5992158297374	-65.9061975553228	-33.6347755860307	-64.2681185241958	-8.42114193506009	116.662478258728	
2140000000	-5.95195093736394	-39.9993084260968	-34.7436260897646	-80.1002215544775	-34.8337499757987	-78.6367545100686	-9.01007219495667	111.107146524927	
2143333333.33333	-5.58471471992729	-41.5159215684993	-35.867282371836	-80.468841281584	-35.9070548403847	-78.3383122614798	-9.58613619838881	104.702941590881	
2146666666.66666	-5.28195102480824	-42.9589784735815	-35.8428680190674	-84.0340506766531	-35.811750166124	-81.9705940862408	-10.051112852467	97.2324026649193	
2150000000	-4.96298645749864	-45.2923329801216	-35.4265945977641	-89.0946842529199	-35.1387229554064	-87.2437346741495	-10.6037247839984	88.3331036384596	
2153333333.33333	-4.77278195325155	-47.673540968901	-34.955218777869	-97.1436226752597	-34.7344727932117	-96.3139584604838	-11.1907709364032	79.4887816796808	
2156666666.66666	-4.55432310349796	-49.7134974642321	-34.7601588861558	-110.495435947758	-34.6422935752293	-110.660471559984	-11.705980311331	71.3188251493808	
2160000000	-4.29771341380541	-51.9382336469077	-35.7387284406603	-126.075342911463	-35.6759398834389	-124.445615322984	-12.0487427101475	63.1275280678583	
2163333333.33333	-4.07389955067129	-54.2120147426019	-37.6899023605885	-137.297968446444	-37.6146606266731	-136.687368652889	-12.1679875624747	54.5423348050329	
2166666666.66666	-3.85710776704284	-56.2922660933658	-40.3935864586468	-138.946643182356	-39.9487902546364	-138.199968979126	-12.2842217038951	44.9141399226954	
2170000000	-3.64997297757613	-58.0805177413986	-42.4672418410538	-132.739216440731	-42.2552847119538	-132.94022311364	-12.4587239149165	35.6898636429494	
2173333333.33333	-3.45330989990404	-59.7182504336945	-43.1149472797232	-111.351197142009	-42.8178070785206	-113.203754167058	-12.5527303685876	27.3753964688136	
2176666666.66666	-3.29987175530155	-61.082666281462	-39.9289465242151	-105.713058131003	-39.8992757068409	-107.51273446246	-12.5514455494537	19.0762389819298	
2180000000	-3.15645052952669	-62.0914354185991	-37.9786497062166	-116.840675901697	-38.0146123973331	-116.679513330609	-12.4544915198938	11.8007140296921	
2183333333.33333	-2.99374372726258	-62.9897251420161	-37.4138929763544	-129.89706743148	-37.3792753364569	-129.325858554156	-12.0706083497271	3.63231792124641	
2186666666.66666	-2.87974634060166	-64.1809995313039	-37.4253945569987	-143.292667203113	-37.4116810113942	-143.231183336002	-11.8144404400281	-5.94103069827952	
2190000000	-2.82028310898476	-65.1928554402988	-38.0391046782405	-155.286477496354	-38.0372830561279	-154.484484105736	-11.7475519995372	-14.6186815726657	
2193333333.33333	-2.78688720733848	-66.26062444438	-39.2969392292567	-167.255589467025	-39.2841280839318	-166.505842873825	-11.754546411228	-21.0537898614738	
2196666666.66666	-2.8118967091016	-66.9642300971865	-41.3609923030534	-178.332959791058	-41.2065212536609	-177.721942448062	-11.2563656607304	-25.9676899215663	
2200000000	-2.81128845777127	-68.0122179904386	-44.7313424977176	-177.031569110054	-44.6061358152572	-178.953317435113	-10.6957869766181	-32.8141465679653	
2203333333.33333	-2.84451276463894	-69.1404768755782	-47.6292771694216	-149.006630822108	-47.7745682740567	-151.171809894211	-10.3675553147824	-38.9990305522033	
2206666666.66666	-2.88373182178663	-70.3187519891215	-43.685775176811	-132.666724146168	-43.493462586938	-131.590747298371	-9.9480536447773	-43.7877587572317	
2210000000	-2.90161148985775	-71.7008181773628	-41.3502209060561	-143.726958033428	-41.1059213117803	-143.453723335361	-9.50202416139556	-48.0913458132122	
2213333333.33333	-2.91975887235573	-73.0969403916628	-40.9316189729812	-156.589576094511	-40.8438804024888	-155.356043568744	-9.05995598697202	-51.8322232641817	
2216666666.66667	-2.91212935803594	-74.6843921042006	-41.0559417932726	-161.960771950352	-41.10655206058	-160.388313299631	-8.53780073785086	-55.3444089303434	
2220000000	-2.89497207664095	-76.0759970870422	-40.4389542497382	-167.138768119084	-40.460206065573	-166.158063398891	-8.13970313703547	-59.2491114637585	
2223333333.33333	-2.8526885447251	-77.4161942062387	-40.4066010015381	-179.830553866341	-40.3089838646361	-179.461139996015	-7.87124719442434	-62.0535384394924	
2226666666.66667	-2.79207234387947	-78.5693905094882	-41.6872315598045	167.756603523501	-41.8302142329892	168.936869058815	-7.55287311282365	-64.2355659855983	
2230000000	-2.703161781663	-79.543671982309	-43.5642250503326	166.384869806008	-43.6696073335772	167.407933246162	-7.26790558148284	-66.5650876098358	
2233333333.33333	-2.60824243139127	-80.3868963807131	-44.2712152988658	176.360563667319	-43.834388169039	177.493243617144	-7.07735067186888	-68.2779487404543	
2236666666.66667	-2.52426976448435	-81.183720615726	-42.811875106896	173.50801758426	-42.3927016804872	173.085701499325	-6.83019179904819	-69.3193791825148	
2240000000	-2.47986076455705	-81.7842102605404	-42.6379110808312	164.132580045938	-42.6695522879405	162.436997930234	-6.50888168624006	-70.8471225501662	
2243333333.33333	-2.44320969168233	-82.1102418013206	-43.0753988405741	153.138958579597	-42.8572777900305	154.071213450133	-6.27150205067642	-73.1228451864896	
2246666666.66667	-2.38034260049295	-82.4764413551412	-45.7475508231879	145.206299690637	-45.3302845568423	145.65508079036	-6.1743900479136	-75.2061076982007	
2250000000	-2.3532240728138	-83.055104901441	-47.2897345577145	157.894249132854	-47.2198721600484	156.89958430872	-6.10822823641816	-76.9357597196039	
2253333333.33333	-2.36645593274354	-83.7092604716561	-45.5468332125453	168.362093309714	-45.7527273920994	166.768658271336	-6.07582696616493	-78.297857944399	
2256666666.66667	-2.41161944579758	-84.4597099284916	-44.9209218577227	157.255508287096	-44.731314618236	159.894164170183	-5.9826555597653	-79.7370737623632	
2260000000	-2.48764339200654	-85.1249146891591	-45.6915794731052	152.236367131515	-45.6087450842351	152.912110812558	-5.96401338735498	-81.5332763376481	
2263333333.33333	-2.5758500698555	-85.9221274812585	-46.8105995436483	157.887465531149	-46.3328149132848	152.356840817122	-5.98478334031296	-82.7284463110251	
2266666666.66667	-2.65925611408083	-86.7441805802433	-45.4400892333979	160.627071479932	-45.813425225769	159.969360793994	-5.8945186018325	-83.8294974098792	
2270000000	-2.71125804671248	-87.6897933644609	-44.1798909025066	154.218798736076	-44.213853804925	150.675314933402	-5.78188065213926	-85.4539206749589	
2273333333.33333	-2.75479078317152	-88.9849694230749	-45.0226239134592	139.48346225588	-45.5197332888869	139.740467201092	-5.65934754273358	-87.6936849083778	
2276666666.66667	-2.80001823503923	-90.2612818430717	-46.3470439862075	143.610268183727	-46.5438909120926	143.37439517848	-5.64183489584923	-89.8436433418877	
2280000000	-2.80778548506142	-91.3927638290623	-45.6462097931409	140.670375982744	-45.2532447478032	138.058659474868	-5.60014503427203	-91.891020080388	
2283333333.33333	-2.79060504535442	-92.6313654970992	-45.7955909617506	131.833487207835	-46.1182972948873	131.340008301553	-5.58846786385715	-93.5486018486869	
2286666666.66667	-2.77571215917648	-93.6666300635098	-47.9422429137328	130.076566039997	-48.1259201985098	129.510497447394	-5.49485112217388	-95.2319253012212	
2290000000	-2.73839737213301	-94.4646393874643	-47.8586220985087	137.762556836503	-48.162676049809	139.359172961778	-5.44643356743981	-96.9971889690393	
2293333333.33334	-2.67924490292613	-94.9777109863053	-46.8601662762612	139.33596571079	-47.1030923332963	140.651569850985	-5.39706609355968	-98.3923401267391	
2296666666.66667	-2.61335634057184	-95.3805435505611	-46.3320439205464	135.740710171715	-45.9655270495032	136.332684238166	-5.29057608964393	-99.2947189128724	
2300000000	-2.54946885849421	-95.7203867091851	-45.6642487206497	128.833161534861	-45.5235317439572	132.237082222842	-5.10662202927202	-100.54423304445	
2303333333.33334	-2.51056515444811	-96.0319680262652	-45.0664406421525	119.262841476429	-45.1658525757998	119.919434828007	-4.97720135492402	-101.861207328695	
2306666666.66667	-2.50853015022845	-96.2933139989159	-46.811007077969	108.660373960585	-47.0402872460112	108.058774334011	-4.86241881943127	-103.154816484801	
2310000000	-2.52473455261574	-96.3997676203979	-48.4569358556276	114.22194016227	-48.5344051349419	116.11277803046	-4.77817696531615	-103.998751911643	
2313333333.33334	-2.56102537624106	-96.6853080595955	-48.1812868585937	119.917720267771	-48.5726995911668	121.855242217171	-4.65076180740562	-104.785117354078	
2316666666.66667	-2.60504557694304	-97.0611006179603	-47.0442917368162	122.997190699692	-46.9863907578486	125.349923882387	-4.54854605488982	-105.693817571095	
2320000000	-2.68109760742891	-97.619070090323	-46.8205932699486	109.122877750087	-46.5427451320178	109.040071598952	-4.4855724829149	-106.467017760683	
2323333333.33334	-2.79112191908911	-98.2378719041342	-47.7196257866739	103.807790300834	-47.8378950704223	104.725469688598	-4.4378566242031	-106.994319589696	
2326666666.66667	-2.90279857843709	-99.0238086507337	-48.5897943956481	106.358933996924	-48.3996814940266	104.490782172418	-4.41552092739761	-107.556047567076	
2330000000	-3.01255408425476	-99.8468398146663	-47.8677071935877	111.756074001539	-48.2338328685661	114.123185962543	-4.38611055265416	-107.717167960354	
2333333333.33334	-3.10487693031014	-100.721597518225	-47.2802662130525	102.568741063525	-47.1759532267012	102.930389954196	-4.32050920600475	-107.934502608883	
2336666666.66667	-3.14597561158478	-101.709000220184	-47.5480690418634	94.4875737867001	-47.343692500298	94.2347625059197	-4.23494622014393	-108.649648647441	
2340000000	-3.17762683689752	-102.873078280663	-47.6791107375249	84.0640005192288	-47.9024890282937	82.9341855537904	-4.23974192016994	-109.700522184147	
2343333333.33334	-3.19772896304335	-103.974881825259	-50.3733583953914	75.248592399332	-50.080063928334	75.7041944079243	-4.31094369916451	-110.581597014496	
2346666666.66667	-3.18199794336409	-104.90279934652	-52.4591055495254	79.9394532025387	-52.6831990865317	78.7715845804952	-4.38809132235603	-111.049287125673	
2350000000	-3.1448762606011	-105.659519635695	-53.6272550593662	93.33864737282	-52.9960529978198	98.6060859881338	-4.41932122768368	-111.65717421393	
2353333333.33334	-3.08698304365237	-106.267548647736	-52.2981506330366	102.999974119364	-52.4253827056706	102.040783591672	-4.46964465633904	-112.501512135856	
2356666666.66667	-3.03100742907052	-106.640918918919	-50.8613845926381	100.165286467657	-51.0712092528274	97.7742424892591	-4.5418931272792	-113.552927806072	
2360000000.00001	-2.9724301129496	-106.983417629538	-51.7497556924677	92.2389159071942	-52.2220270140324	92.7137071916766	-4.64229065348409	-114.290646411942	
