!Agilent N9923A: A.07.32
!Date: Thursday, 02 June 2016 23:10:05
!Model: N9923A
!Serial: MY52412257
!GPS Latitude: 
!GPS Longitude: 
!GPS TimeStamp: 0001-01-01 00:00:00Z
!GPS Seconds Since Last Read: 0
!CHECKSUM:0299466998
!Correction: S12(ON U)
!S1P File: Measurement: S12:
# Hz S DB R 50
1950000000	-33.5265871090962	-55.1962390624541
1953333333.33333	-33.5305116608327	-67.610714445325
1956666666.66667	-34.4235003202782	-83.2720440298012
1960000000	-35.952662125646	-92.1638058736734
1963333333.33333	-36.7815766184246	-98.0667715394041
1966666666.66667	-37.2058715994991	-100.162909155071
1970000000	-37.1910631372108	-105.909551906305
1973333333.33333	-37.1589324586014	-111.595034486909
1976666666.66667	-37.0348394650495	-120.063496412029
1980000000	-36.3295345406856	-127.99092410776
1983333333.33333	-36.4402049805519	-143.699005161475
1986666666.66667	-37.5941226952371	-157.890052190542
1990000000	-39.0696364778248	-164.471142454457
1993333333.33333	-40.0464063562743	-168.802439457873
1996666666.66667	-40.816339191779	-171.815209154343
2000000000	-41.2817596457127	-171.99538645418
2003333333.33333	-40.5109957072233	-173.067231633747
2006666666.66667	-40.2086443037241	176.076171223172
2010000000	-41.3048640389374	170.636465437917
2013333333.33333	-41.2370817863266	170.368092618968
2016666666.66667	-40.9758327847079	166.272760782368
2020000000	-40.3712139307992	161.723338313595
2023333333.33333	-39.6679781318425	153.489202726506
2026666666.66666	-39.4674275860849	145.060852571931
2030000000	-39.4634814749318	134.906414586719
2033333333.33333	-39.2671772074373	123.682615683749
2036666666.66666	-39.9920976868639	113.854913610675
2040000000	-41.1390956910059	100.296940038712
2043333333.33333	-43.928946945104	105.985684287613
2046666666.66666	-42.5599641961985	120.329805764698
2050000000	-40.5081962268065	118.574589405963
2053333333.33333	-39.1951041881889	109.477202771564
2056666666.66666	-38.2454743761057	98.3133644273535
2060000000	-37.7726308035998	90.0760457121308
2063333333.33333	-36.8980998643045	81.1879165889731
2066666666.66666	-35.9281734989475	68.3694080077477
2070000000	-35.7563284299232	52.4652331396352
2073333333.33333	-36.3528574635612	40.3029577111934
2076666666.66666	-37.0773454811148	32.0142876714868
2080000000	-37.19390425166	24.3516172327095
2083333333.33333	-38.0855960019538	16.0916563674321
2086666666.66666	-38.8669967447151	13.6207130394087
2090000000	-38.5237144024593	14.8144669896068
2093333333.33333	-37.6487478037623	12.4301812939797
2096666666.66666	-36.5326281355869	3.51445391067973
2100000000	-36.5137061415865	-8.92658363656333
2103333333.33333	-37.0971604332697	-14.4967821481386
2106666666.66666	-35.9084418366669	-12.1973858748988
2110000000	-34.1989053731872	-28.8505504802068
2113333333.33333	-34.5509750588194	-50.549998802715
2116666666.66666	-36.6652426608277	-61.716093840488
2120000000	-37.9858089316622	-63.9418128533303
2123333333.33333	-38.3822766334772	-60.725805809192
2126666666.66666	-39.2852820652938	-61.0735723951177
2130000000	-37.8514629960197	-54.2173126004182
2133333333.33333	-36.1146844041904	-60.6384178301042
2136666666.66666	-34.9712038637161	-76.168839852234
2140000000	-35.4426594252587	-89.339241035145
2143333333.33333	-36.5164261963533	-94.2997340674856
2146666666.66666	-36.5006665247159	-96.7184204042111
2150000000	-35.6740378332041	-99.2082367678757
2153333333.33333	-34.7647115963579	-111.21936849205
2156666666.66666	-34.9763915384218	-125.382792770806
2160000000	-36.3183206841342	-135.867665613513
2163333333.33333	-37.8602675837833	-139.822647543957
2166666666.66666	-38.256747529957	-140.823082840255
2170000000	-39.5367362041287	-138.062656689001
2173333333.33333	-38.1605734131777	-127.721157237147
2176666666.66666	-36.597175757511	-138.377762010647
2180000000	-36.5617132899428	-149.04344745163
2183333333.33333	-36.8360930062257	-147.456786885113
2186666666.66666	-35.2398633878473	-153.898538423067
2190000000	-34.6389945021642	-171.118719991468
2193333333.33333	-35.7931415172383	169.852141779439
2196666666.66666	-39.5986517466294	164.951425878592
2200000000	-39.8315973575603	176.998169702008
2203333333.33333	-40.3854437105309	-171.076706506302
2206666666.66666	-37.2071074600033	-167.850588487796
2210000000	-35.3629718271704	177.477035027985
2213333333.33333	-35.5943190030398	158.603522452742
2216666666.66667	-37.103802204575	150.417503964665
2220000000	-37.4429279029342	151.453653017507
2223333333.33333	-37.1211097239764	140.271693591259
2226666666.66667	-40.094869862978	133.500509868481
2230000000	-40.5994221161913	149.889577958348
2233333333.33333	-38.6995357804629	157.577543347051
2236666666.66667	-36.6456978704029	148.92645080103
2240000000	-35.8698021125229	136.010595882901
2243333333.33333	-35.9825150647961	123.15156272662
2246666666.66667	-36.8101363706792	110.819494630051
2250000000	-38.6396858644304	107.023859254272
2253333333.33333	-39.8657695193105	113.315019808413
2256666666.66667	-38.5330976290414	113.988675558289
2260000000	-38.7541275932775	106.246693956081
2263333333.33333	-39.8350290995218	109.047635796592
2266666666.66667	-38.6108841942031	111.391354089504
2270000000	-37.2929789943414	105.315735575495
2273333333.33333	-37.2186636203626	94.0159567620779
2276666666.66667	-37.3054402685657	88.5504202226225
2280000000	-37.314073866512	76.3352911828509
2283333333.33333	-38.6458495377261	65.7893865380276
2286666666.66667	-40.8790124311043	63.3536728663806
2290000000	-41.7488709822764	76.5271418368507
2293333333.33334	-41.3484816637269	77.8200191155887
2296666666.66667	-41.5783843728037	87.6986850140713
2300000000	-38.2944918937068	90.9771803907745
2303333333.33334	-36.8500295073553	73.9892726912596
2306666666.66667	-37.1228010299281	64.1170089894571
2310000000	-37.5104976286862	52.4256509975136
2313333333.33334	-38.4975095314652	49.447309906573
2316666666.66667	-38.9077014925106	45.733023137475
2320000000	-39.3978047232171	45.0447114529277
2323333333.33334	-38.7900524536387	45.3581845986962
2326666666.66667	-38.8963943296426	36.4270748481126
2330000000	-39.6878291837593	38.0311001392364
2333333333.33334	-38.5577401507662	35.0321209444102
2336666666.66667	-38.0232659641829	22.2832247031136
2340000000	-39.704433508989	6.62211633075195
2343333333.33334	-43.4406793110561	8.36218887343115
2346666666.66667	-43.7010228277251	33.7677837334738
2350000000	-41.5371264025075	38.155671310284
2353333333.33334	-40.5956974726859	36.6198460528748
2356666666.66667	-38.5988712146999	37.8222502169834
2360000000.00001	-36.9730256596551	26.1162523437063
2363333333.33334	-36.3895321831375	10.2089145957993
2366666666.66667	-37.242664757741	-3.5870783646174
2370000000.00001	-38.5060452294452	-9.66946342449813
2373333333.33334	-39.692037374859	-11.5605951904167
2376666666.66667	-40.6827191343057	-10.3157689869784
2380000000.00001	-40.515205655091	-1.82257954679159
2383333333.33334	-39.2280968585384	-3.04088067809225
2386666666.66667	-38.132341254551	-10.2099276247186
2390000000.00001	-37.8424194559195	-21.0051374374515
2393333333.33334	-38.3652358978015	-34.6992630612378
2396666666.66667	-40.4706973365504	-41.8785677109502
2400000000.00001	-42.5162447213276	-32.2593862867798
2403333333.33334	-41.3326373282641	-24.300858308969
2406666666.66667	-39.5506677393542	-30.6903736547619
2410000000.00001	-39.7318167959501	-43.8674462961598
2413333333.33334	-42.0502135066533	-46.790526387312
2416666666.66667	-41.9177943997244	-32.4329363483777
2420000000.00001	-40.1762395906974	-35.32928401395
2423333333.33334	-39.7314490872566	-40.2599525402678
2426666666.66668	-38.9404848322693	-45.5133633663478
2430000000.00001	-38.3467770518531	-61.1370805312808
2433333333.33334	-40.3248243153719	-74.974367151499
2436666666.66668	-42.5576970526794	-67.5682288919443
2440000000.00001	-41.9322909818003	-61.2142690133524
2443333333.33334	-41.2348712356339	-61.2398448225339
2446666666.66668	-40.919534131543	-70.5649137499921
2450000000.00001	-42.333293918652	-79.5580014727601
2453333333.33334	-45.7293623968566	-72.9730458664412
2456666666.66668	-43.4392164436584	-37.9820941659443
2460000000.00001	-39.141954080289	-45.684990652691
2463333333.33334	-37.7391026185992	-64.1196069748642
2466666666.66668	-37.9461699716249	-78.5818811723045
2470000000.00001	-38.4043405324182	-88.0299377784974
2473333333.33334	-38.8280572697838	-90.7235304387692
2476666666.66668	-38.2378355909607	-101.777555838078
2480000000.00001	-39.57719644768	-113.744213945141
2483333333.33334	-40.6622662434402	-122.086390172728
2486666666.66668	-44.6354824414846	-130.78411831474
2490000000.00001	-48.1746239362413	-87.2875200099675
2493333333.33334	-41.7354544170161	-74.0762733883663
2496666666.66668	-39.350483461253	-94.8823303677061
2500000000.00001	-39.7848904296121	-105.807420879498
2503333333.33335	-39.9141006028512	-110.15189087689
2506666666.66668	-39.6083639915007	-114.395550543243
2510000000.00001	-39.7085461232276	-121.925258681677
2513333333.33335	-39.7820869901815	-129.574551827215
2516666666.66668	-40.8555395439691	-134.664480812366
2520000000.00001	-41.1739739298418	-137.151208806675
2523333333.33335	-41.7321942632255	-143.489036250939
2526666666.66668	-44.1394711877771	-149.647554666195
2530000000.00001	-45.1564863763622	-125.353367966074
2533333333.33335	-43.2366067520988	-124.119864100672
2536666666.66668	-42.3887807386572	-116.631384558049
2540000000.00001	-39.7497740684222	-119.126742699885
2543333333.33335	-38.0855056032995	-131.287122200268
2546666666.66668	-37.606003053721	-147.14504286254
2550000000.00001	-38.0586893149222	-159.799233628104
2553333333.33335	-38.5113009243741	-167.95986719247
2556666666.66668	-39.203916089274	-179.693925682883
2560000000.00001	-40.6237183093396	174.978353233106
2563333333.33335	-41.88651972319	175.559908566996
2566666666.66668	-42.5669741148448	171.398585919875
2570000000.00002	-43.1386345408796	-179.420159896216
2573333333.33335	-41.168083050413	177.00866891743
2576666666.66668	-41.4650162664632	157.831215875359
2580000000.00002	-43.972227742132	148.417068213103
2583333333.33335	-46.4416778700528	148.157429446732
2586666666.66668	-48.1788803514866	164.138324712851
2590000000.00002	-47.2650138896431	176.806461242257
2593333333.33335	-46.2073835430965	176.235742498751
2596666666.66668	-45.4621169167059	174.410429039875
2600000000.00002	-46.5644585576943	156.6447438218
2603333333.33335	-49.6034590038477	-173.676230310661
2606666666.66668	-45.7096345327824	-162.907482194169
2610000000.00002	-42.496848633312	-166.938115581867
2613333333.33335	-41.386868455516	179.612945487082
2616666666.66668	-40.9809390811238	167.724315860143
2620000000.00002	-39.828033456761	156.756958221421
2623333333.33335	-40.0282120119416	131.17814998289
2626666666.66668	-44.9547115610393	117.087377949893
2630000000.00002	-45.3147826799118	130.589315485646
2633333333.33335	-47.722319931312	121.310650181168
2636666666.66669	-50.0806505524859	143.196734172556
2640000000.00002	-51.0274072725704	139.203421547041
2643333333.33335	-49.4998772002398	-137.692936205943
2646666666.66669	-41.1609026227506	-163.49955384771
2650000000.00002	-38.9079592404947	170.019918523092
2653333333.33335	-38.5923772588617	146.098819636406
2656666666.66669	-39.9805859651279	124.007319928547
2660000000.00002	-42.2963186356646	119.467309866075
2663333333.33335	-42.8100670878897	130.35706205761
2666666666.66669	-41.7220190794108	122.155195774888
2670000000.00002	-42.3834681380435	104.897863068661
2673333333.33335	-46.2493305042382	99.5806355265647
2676666666.66669	-46.4520307791013	122.55433761945
2680000000.00002	-46.4918005191255	126.426893924173
2683333333.33335	-43.996085183541	144.137853202183
2686666666.66669	-39.9563477589513	134.015701167294
2690000000.00002	-39.2717051418008	108.0855558719
2693333333.33335	-41.230594578668	97.3886296804338
2696666666.66669	-40.6650985813148	94.7427097032125
2700000000.00002	-41.0259037523978	80.0274983528052
2703333333.33335	-41.9677630967845	68.9600911831202
2706666666.66669	-44.5354474436629	54.4916072364379
2710000000.00002	-49.6196179112999	60.9895980135816
2713333333.33336	-50.5846102831913	84.349943959673
2716666666.66669	-49.4561355377632	135.789811180146
2720000000.00002	-43.456544758341	125.620315164223
2723333333.33336	-41.4498063818448	107.447980397301
2726666666.66669	-41.6149083987875	93.7262861148164
2730000000.00002	-41.5605938006032	97.4633760860431
2733333333.33336	-38.8622045100482	89.1400220045409
2736666666.66669	-38.2597684204859	63.2390796050686
2740000000.00002	-40.3962854749259	49.1228660376253
2743333333.33336	-40.8688733583271	43.8202476482562
2746666666.66669	-43.044872784404	25.1744428717384
2750000000.00002	-48.3194059422526	44.6164337458955
2753333333.33336	-44.720818790541	59.569886168985
2756666666.66669	-43.8044748562801	44.8170612446816
2760000000.00002	-45.7106943843716	33.831577078818
2763333333.33336	-50.504110781164	70.2411088063466
2766666666.66669	-42.792444477518	87.7249122313885
2770000000.00002	-39.512182234914	63.8912456889613
2773333333.33336	-38.8383950174135	45.5239279765423
2776666666.66669	-39.4190021073023	31.6775788052842
2780000000.00003	-40.5332803301049	19.5508091700536
2783333333.33336	-41.4588461822363	24.3864187198727
2786666666.66669	-38.7809410902131	25.5972319695724
2790000000.00003	-37.1001080689457	2.93743299596152
2793333333.33336	-38.2699177606844	-18.9023367758607
2796666666.66669	-38.7190410347639	-25.1337754646394
2800000000.00003	-37.0609519451845	-46.269594149943
2803333333.33336	-37.8767654207981	-88.5788867286959
2806666666.66669	-42.6719404337594	-140.403118124692
2810000000.00003	-51.2757279116994	166.405118947264
2813333333.33336	-53.9794123565827	70.0060707217953
2816666666.66669	-53.2536001014599	30.4517301993129
2820000000.00003	-48.8234381005947	28.3691734498648
2823333333.33336	-44.887982945756	1.14751981398557
2826666666.66669	-42.9732446378723	-27.5271617177271
2830000000.00003	-41.8755833200082	-67.6906465303273
2833333333.33336	-43.3519933344994	-109.425787788869
2836666666.66669	-44.346661008907	-157.201429919153
2840000000.00003	-44.4476357069348	153.986301429012
2843333333.33336	-42.6475605672505	113.87164262329
2846666666.6667	-40.5797709564303	73.0306972370757
2850000000.00003	-40.0419427288585	38.4954956184612
2853333333.33336	-39.9709708108286	13.8375776223499
2856666666.6667	-39.6533990659467	-14.9341626969465
2860000000.00003	-40.1114198910302	-45.2388349974133
2863333333.33336	-42.7084599957714	-74.7579341169844
2866666666.6667	-45.3039943294739	-96.9637630836119
2870000000.00003	-45.3616296617029	-126.895550762125
2873333333.33336	-46.0097049392984	173.968773203411
2876666666.6667	-45.6967433696588	108.054081940755
2880000000.00003	-45.4382103043954	64.629995714805
2883333333.33336	-42.9271093430436	43.3597651544692
2886666666.6667	-40.6235513809091	4.9925986062858
2890000000.00003	-42.1207605678972	-28.1168976227061
2893333333.33336	-44.629999648293	-35.8317458984653
2896666666.6667	-42.1111529745401	-34.9586579867035
2900000000.00003	-39.691211399089	-69.017725065101
2903333333.33336	-40.699401208695	-114.65223981097
2906666666.6667	-44.349315942018	-158.349495932825
2910000000.00003	-46.8112022014741	144.032510158171
2913333333.33336	-46.8087690276677	65.4141136385224
2916666666.6667	-44.5139815890326	-2.81618722095923
2920000000.00003	-46.3376817257775	-48.0367239496728
2923333333.33337	-49.2653143601515	-54.5079444703737
2926666666.6667	-50.3310537092939	-36.4333683119393
2930000000.00003	-43.1055234759632	-46.2997901454955
2933333333.33337	-40.3519790627027	-87.3966404974748
2936666666.6667	-40.2899942896452	-129.227464823915
2940000000.00003	-41.4691876142993	-172.183374190041
2943333333.33337	-44.741008809894	141.592754033104
2946666666.6667	-49.3892417119501	82.936559818852
2950000000.00003	-53.8317325653452	4.29191519551525
