!Agilent N9923A: A.07.32
!Date: Thursday, 02 June 2016 23:00:20
!Model: N9923A
!Serial: MY52412257
!GPS Latitude: 
!GPS Longitude: 
!GPS TimeStamp: 0001-01-01 00:00:00Z
!GPS Seconds Since Last Read: 0
!CHECKSUM:0699048533
!Correction: S11(ON U)S21(ON U)S12(ON U)S22(ON U)
!S2P File: Measurements:S11,S21,S12,S22:
# Hz S DB R 50
1950000000	-1.47424630600717	28.5190548660363	-88.2539615925276	103.257114565476	-84.4626416401476	49.6514959530768	-0.155909565869674	33.3397003784791	
1953333333.33333	-1.48262952303649	25.7089186053196	-76.9924257253933	-34.7447925720565	-84.7444241660562	87.6777587482361	-0.138740275049366	33.4038821299446	
1956666666.66667	-1.482696621615	22.9188140360957	-86.4750579316116	-68.7201183118529	-86.1604061918899	51.4954532322237	-0.128082218216074	33.4797923809833	
1960000000	-1.50183409687431	20.102176681731	-83.6682151844246	-161.460000788638	-84.6544917099112	-139.023743784736	-0.11465235843801	33.5758202316533	
1963333333.33333	-1.53385173299612	17.2128202471086	-88.3534923420645	-144.498100248216	-79.7085696109366	-40.8689794351179	-0.101906810323715	33.6709103814088	
1966666666.66667	-1.58795979465015	14.3262704172719	-85.0764360155951	137.231458554877	-86.164995060748	-128.995362509985	-0.0869505949147831	33.7766983652449	
1970000000	-1.64514348537547	11.5189241979758	-83.0465195718227	-157.445309478163	-74.693787962823	-19.7191229421466	-0.0822648866406868	33.8845397417114	
1973333333.33333	-1.67094791706949	8.72294840742104	-84.9584632411192	-158.941988821248	-74.4812516199646	88.1111145672557	-0.0747431321553731	34.0185618052356	
1976666666.66667	-1.70437682094914	5.92728053191397	-75.1606602443591	-108.183369179816	-75.0621846637845	59.3328566844936	-0.0719742015757674	34.1171932593148	
1980000000	-1.71951352302027	3.23342279470782	-81.528586011628	149.138397582687	-78.4513025283208	86.1279342427244	-0.0688701124055457	34.2710635896935	
1983333333.33333	-1.711806743867	0.542752580824565	-78.0861723977916	-85.3840818811588	-78.1412595433783	59.8522517503815	-0.0686225884575877	34.3648108880692	
1986666666.66667	-1.69241081378194	-2.07291360560608	-77.2722848590332	67.8019774769227	-78.2626015084178	-36.4789338326295	-0.0778527058121833	34.4369340365633	
1990000000	-1.67118526475552	-4.57977834724831	-85.2793007978041	-99.4422509308368	-80.2070487919958	146.375599815952	-0.084675312212049	34.58544968963	
1993333333.33333	-1.64133288613282	-6.92023114347514	-81.9423499417662	85.942522728388	-75.3778704093028	-130.625476844195	-0.0943776006055818	34.671882093285	
1996666666.66667	-1.61256226062202	-9.25271002359509	-80.5365139230569	125.038624934952	-79.3410460026969	124.374280582518	-0.105742107775387	34.7380452220573	
2000000000	-1.58518445396577	-11.4366664798761	-77.3745806608077	34.6141842533838	-76.0340596431291	121.2695382074	-0.123789855912688	34.781027807718	
2003333333.33333	-1.5571589597257	-13.5839487964541	-76.8833605240523	-140.399790738274	-78.909479792565	-83.2529554531788	-0.130939317390619	34.8224402213292	
2006666666.66667	-1.54464283814207	-15.5951452192365	-85.5847145163122	32.2015578362107	-88.5019395487184	-170.645208652074	-0.152003586081639	34.8427189710932	
2010000000	-1.54050758950048	-17.5342407497874	-79.4978156031724	166.52973292614	-91.5589828449119	-2.42236662930397	-0.161283627133791	34.8569410999322	
2013333333.33333	-1.55438303582453	-19.5104493926655	-86.7523834944976	106.397428166219	-75.938142781445	48.62752114894	-0.172264018543578	34.8376969359838	
2016666666.66667	-1.5811370479728	-21.2730316571016	-84.1846522887913	42.8727681424059	-81.4379897071048	140.08844717704	-0.185574569006618	34.8524306427299	
2020000000	-1.60645459415896	-23.1043804212779	-73.2260039096599	148.478853735029	-80.9485990114272	110.810193059511	-0.191339705761303	34.831142859766	
2023333333.33333	-1.64818978420311	-24.9683389372813	-86.8863783011785	-79.3328716693112	-79.2739059244789	-15.3789706942365	-0.196219563085809	34.8868508718197	
2026666666.66666	-1.67406780892995	-26.8446914385523	-80.4784815844279	135.189592257297	-78.7448795309485	128.578919919351	-0.19831959123174	34.8794262088268	
2030000000	-1.69183284219546	-28.777424138443	-78.640890118517	88.0591915877127	-78.6586446668233	-175.244845026964	-0.196117399970693	34.8855915639149	
2033333333.33333	-1.71226146412474	-30.8067651528686	-84.5959028952154	14.50384679257	-83.5156712380307	-30.2096900278032	-0.193998850921426	34.9063478686119	
2036666666.66666	-1.71368260183006	-32.7542308149338	-78.4955879684786	-165.006605496264	-80.0885973388066	-173.571556591943	-0.178093401407617	34.9214135853153	
2040000000	-1.7254724758165	-34.6555551559435	-76.8170406182134	25.6939420115748	-73.3341004281172	70.8226691015431	-0.174447205333359	34.9538005738733	
2043333333.33333	-1.70937133762787	-36.4411414312987	-85.0281898011424	3.58569092135648	-78.1712432442457	-112.413604474338	-0.167035529647961	34.9932389379662	
2046666666.66666	-1.68301649646113	-38.1962165866426	-78.5006791458533	4.81023974245415	-77.1871508235239	91.8461618370178	-0.152215132416274	35.0752120374444	
2050000000	-1.66268827654187	-39.862737041369	-81.9281472507645	-41.7846462540029	-80.4186392803351	80.4989120023213	-0.13997311565512	35.1230371212981	
2053333333.33333	-1.65309927695694	-41.4746846694933	-83.1215633343626	124.579600436484	-82.6158483955529	-71.1671766489491	-0.128560890377842	35.1912031516062	
2056666666.66666	-1.64227499875209	-42.8970138813122	-85.3078953495229	81.9186545466998	-84.2435808298599	52.2619688291611	-0.113840358345307	35.2784917927212	
2060000000	-1.62417000284271	-44.1569474066892	-101.888511928661	153.423657866429	-84.9849584409167	63.1295179811653	-0.0988412716229111	35.3694629889005	
2063333333.33333	-1.5928184448511	-45.5500861083477	-89.2384731228719	-110.81869854375	-85.4987253828786	12.0979417842464	-0.089086845850788	35.4918492329303	
2066666666.66666	-1.58307807121161	-47.0205469827987	-84.6193520032083	7.34364333122097	-90.1737260348289	-7.40540849862314	-0.0791483939207555	35.5955225202695	
2070000000	-1.6109591872413	-48.355314277271	-96.3459967374934	-21.2289457489073	-74.770081836665	38.5512015506946	-0.0674123719030569	35.6826296194701	
2073333333.33333	-1.62960990480501	-49.5898084304487	-78.2239021241428	104.406866577786	-77.0360499080221	12.5380254536075	-0.0633887694538785	35.8192766857027	
2076666666.66666	-1.66681162090543	-50.8877969336338	-76.812190517207	43.0328753609702	-79.6751578354162	-64.336726020311	-0.0584148559648356	35.9457560427466	
2080000000	-1.69609744899847	-52.4006749956239	-76.2540812067637	126.579355002485	-77.2367777274827	-5.16220656248029	-0.0605577102778086	36.0518226032389	
2083333333.33333	-1.74396620500691	-53.9239429122937	-93.3736773869337	-57.9087163904353	-88.1028356038288	-177.788816371754	-0.0620409220885437	36.124951100074	
2086666666.66666	-1.80914347861666	-55.5007802699446	-80.6248461968145	174.58519992684	-91.5455483907389	70.2272846306123	-0.0727761218311203	36.2734174663982	
2090000000	-1.86907432858855	-56.9066337964568	-81.0114106214706	117.771533538785	-91.1965284568222	-31.4049106522886	-0.0793763065451211	36.3515638768335	
2093333333.33333	-1.89690262841861	-58.4230967782844	-91.5980919831495	-33.5200129178753	-73.8126334074592	-100.976038409943	-0.0913381450101002	36.4030154827006	
2096666666.66666	-1.9305604006395	-60.0699277722964	-88.3614297095043	139.771406674049	-77.1430846161263	177.720746920034	-0.107268992466549	36.4853210155584	
2100000000	-1.97083301930009	-61.6388309901974	-76.945889152344	102.443404564996	-86.6574903594212	75.8442728772916	-0.123617631932184	36.5001243759561	
2103333333.33333	-2.01972170818051	-62.9917826321119	-81.4622002046395	25.8349115442022	-97.5415216293056	-111.51627142554	-0.133955821036021	36.5102616837485	
2106666666.66666	-2.03322763176795	-64.2117344843823	-80.7433350425784	89.5242727797722	-83.7970843616279	-84.6892645422362	-0.151923504147722	36.5227566635448	
2110000000	-2.03624125523422	-65.5006941706561	-75.1416650054994	-44.7246179591318	-94.0830640678679	-128.456006410566	-0.159662842539228	36.5309175296609	
2113333333.33333	-2.06860179060841	-66.9290703168405	-83.9179290984815	158.886236540461	-88.9278197152074	118.644318298027	-0.174792046047693	36.520991625689	
2116666666.66666	-2.14059690337339	-68.1306128809388	-84.2372885057514	75.4454759327074	-79.3740531954344	-33.7925213111633	-0.182073149025184	36.4942038342391	
2120000000	-2.21408165645496	-69.0910500631505	-82.1948050000275	55.1377463761098	-79.4402457495035	-34.9636889851795	-0.189983060001241	36.4935813764928	
2123333333.33333	-2.29767521095515	-70.1253369219441	-76.3773282798709	35.3157437751831	-79.4401443736634	-140.151963305278	-0.194659945072317	36.5054922650262	
2126666666.66666	-2.39650192406597	-71.057427783035	-86.5609013752656	45.7107948431071	-79.9876769508064	174.342817417584	-0.190997924932001	36.5332426808122	
2130000000	-2.50791758733696	-71.9780492609523	-74.861366352671	-28.5554694846521	-75.9590542111469	-31.7274446876922	-0.188375986268898	36.5444808966436	
2133333333.33333	-2.67671578321943	-72.9760791774557	-78.0057987665922	12.3379352968297	-90.5448639742738	94.023638765478	-0.184690565605924	36.5526544223824	
2136666666.66666	-2.87336407303548	-73.6403374141337	-81.3357225566555	20.6015390259229	-72.0931646555696	7.51386805928122	-0.173610385084913	36.6019895204876	
2140000000	-3.06445276967635	-74.2968446797867	-81.6598594860332	-40.3920530318124	-77.3017559082304	-66.5976052894684	-0.162603407609129	36.6177362201312	
2143333333.33333	-3.28724407925942	-74.8585948532117	-78.7435338120129	-132.476082667524	-91.9497501574689	99.5133997488721	-0.149279826677021	36.6877904927554	
2146666666.66666	-3.51220665477724	-75.2407497956917	-82.0404539314097	-89.9410836229302	-77.5707247017001	11.2513700543057	-0.14050867823015	36.7342271359947	
2150000000	-3.72756866307638	-75.2486988881397	-78.9511761656691	24.1949887047171	-87.4451777392434	-40.8255155343451	-0.127890456875825	36.8570690625942	
2153333333.33333	-3.90921786289126	-74.9304999875166	-81.0192853542554	-21.4180658444099	-85.9671001065446	38.2335314539745	-0.109992428523884	36.9210495473971	
2156666666.66666	-3.9874257949335	-74.3297734873574	-88.0682318465995	118.421022718753	-89.2027851113277	6.99368120339286	-0.0965694504819613	37.0280393110995	
2160000000	-4.01233226951134	-74.0387389322186	-99.8122774818845	-104.570754808064	-83.8242383390794	107.502591480089	-0.0833392270385568	37.1509136360884	
2163333333.33333	-4.04620179492786	-73.4359622790161	-85.2289911281765	-47.864638997217	-79.8135007605902	1.42452495088133	-0.0732958417817635	37.2559580257064	
2166666666.66666	-3.97812394200434	-72.7143676494655	-84.8223404269489	-177.757053194316	-76.1319954844205	-142.221484995987	-0.0631953695413415	37.3721795622851	
2170000000	-3.86931109544352	-72.1972080016581	-88.6703406092757	164.39586966246	-91.4773055500067	11.4537538309627	-0.0567721989619664	37.5184432844378	
2173333333.33333	-3.73486735327604	-71.841325973272	-87.8210266221148	-84.5533672312749	-81.326755211214	57.724556002957	-0.0518618466748809	37.6436748644754	
2176666666.66666	-3.60539858933966	-71.6275089688072	-85.5730556294464	32.2159318127303	-81.6035039378588	-68.5989577202126	-0.044512362227125	37.7675133079683	
2180000000	-3.47876546776052	-71.5190629271178	-80.6856013517992	121.887345680611	-83.7134266911636	-17.5706867167872	-0.0499832928634136	37.8721942864545	
2183333333.33333	-3.35399729944151	-71.4831442103015	-80.9079831372574	-39.2848878258008	-86.491098576849	-114.720957707558	-0.0533068721823251	37.9875223602212	
2186666666.66666	-3.23252174845463	-71.5513620263856	-76.9839350634785	-79.6256319646122	-82.3055083507646	158.246033504071	-0.0664216774625073	38.1399628656492	
2190000000	-3.11208386494157	-71.7628825777473	-82.5006914368626	153.983728528571	-81.2975575367757	-45.1282032226638	-0.0700803009213761	38.1811485796057	
2193333333.33333	-3.03287941493354	-72.2537607421407	-79.376726966049	-26.6679285330617	-76.3273526621487	-131.217737272374	-0.0852549137369291	38.2548737877004	
2196666666.66666	-2.94990764621614	-72.5094888651153	-93.8142374108367	33.3278527829149	-77.1530532029958	137.058744802542	-0.100517148076634	38.2612582439139	
2200000000	-2.88899869549202	-73.294858888436	-82.6121214105275	14.4268520118613	-78.3809025175484	-78.7048190444693	-0.122137127363602	38.3149094631037	
2203333333.33333	-2.86785836717901	-73.8994496350215	-76.443685419543	-42.5654566924796	-72.4212135624511	-137.791159798473	-0.13647814717292	38.3001502634191	
2206666666.66666	-2.82813598949499	-74.5624145327841	-73.8160254543555	10.874713958497	-79.8689426530372	-128.017464795604	-0.148183975303851	38.2887524408558	
2210000000	-2.78007480154847	-75.4492100211861	-81.4105807121968	-58.5577601633271	-73.576082366723	5.09057159083471	-0.166198964729719	38.2703946613832	
2213333333.33333	-2.75102400240685	-76.4877095323971	-78.3291805164207	-69.7246770867109	-83.3612805712297	155.431166061439	-0.176391807230156	38.2510019083098	
2216666666.66667	-2.70905870860614	-77.4587751731757	-76.1123605766122	-94.3491697505405	-86.3583986797396	-142.684412160177	-0.188432259673482	38.2190176134514	
2220000000	-2.66384011852035	-78.5367628659115	-80.8513776158045	-100.988384368334	-77.4540596066517	-14.0770486151857	-0.18984860531174	38.2121050573889	
2223333333.33333	-2.64312334538298	-79.4844263542867	-79.164603549986	64.4761187134268	-79.7116373454954	-160.776228988907	-0.18973719302839	38.1979187194731	
2226666666.66667	-2.60553589060209	-80.3047416661815	-107.568367743319	-149.702591173926	-75.7218024882309	88.0747257995947	-0.199782892482997	38.1585306435781	
2230000000	-2.56003132431362	-80.9469489538037	-87.312420411715	-156.022517550302	-82.3786409797511	-146.052527920348	-0.191470921339454	38.2112394560958	
2233333333.33333	-2.49178493480134	-81.5586431153281	-75.8665215304416	-173.628255128388	-81.1980983486455	164.605326463808	-0.180149322783425	38.1843929212271	
2236666666.66667	-2.45176676892073	-82.1898552082521	-81.8521719456154	123.828338746281	-84.5097544855559	-176.0869675753	-0.172970503886268	38.2205448790355	
2240000000	-2.41693430998699	-82.5764840659698	-80.0209276850594	75.045497623579	-77.360742926359	-175.005560660763	-0.159082638390798	38.2508231767731	
2243333333.33333	-2.36533103745874	-82.9443126233879	-89.7272527815013	45.6434446190886	-81.1083176146003	145.222614601187	-0.145888618493283	38.3055086432894	
2246666666.66667	-2.30529454381349	-83.6218443453052	-78.3196053106618	75.8412871535944	-78.2071589453184	137.292663742978	-0.130095009794697	38.3912330749993	
2250000000	-2.29702490303181	-84.3942237280432	-95.9990835059631	94.1744919852892	-82.1647217142353	-78.8601536585555	-0.11618808660956	38.4765253686889	
2253333333.33333	-2.3264921426966	-85.0754055275943	-81.0804105995559	177.096210720473	-88.0987330307551	116.0312987554	-0.099606618150446	38.5921299811685	
2256666666.66667	-2.34951828497305	-85.690160414936	-86.8714275556584	164.9203540228	-83.3152638105958	-143.867562073841	-0.0859709499156955	38.7121646544155	
2260000000	-2.39351075952143	-86.1386928558305	-88.2620149743744	-158.637327008565	-79.711235015208	-162.995857507711	-0.0719167012068751	38.8284662863202	
2263333333.33333	-2.41994768997608	-86.9045668053697	-78.7522775030229	67.6680837994744	-84.9941299751249	1.62943810654059	-0.0603617208258406	38.979754504817	
2266666666.66667	-2.47007149962418	-87.6464382706388	-75.7775582911209	-86.3460921362295	-97.280342252813	66.1252527621101	-0.0488497354006458	39.07808552638	
2270000000	-2.52234485698894	-88.3750111764888	-83.4064099748443	-140.283370396539	-94.4849830370833	-9.89098372284174	-0.0427017284626073	39.2556092196909	
2273333333.33333	-2.54614066388245	-88.9368991231219	-79.5373080188641	105.664661638835	-78.0335430940579	175.08050132231	-0.0395916892797987	39.3970081831681	
2276666666.66667	-2.52420847919476	-89.7688971735495	-80.9710606570488	129.31280835232	-82.6022292100954	-162.906562249433	-0.0368828723342615	39.5249228414811	
2280000000	-2.52045760934123	-90.8206642409836	-76.1557019974127	-110.297984605584	-80.638582113874	175.480505593534	-0.0351965630277021	39.6355211021834	
2283333333.33333	-2.53582293962821	-91.6922158822076	-84.8951857587453	62.0734561232591	-80.9091933607183	100.167080346321	-0.0387151624638155	39.7579191449023	
2286666666.66667	-2.53560037093656	-92.4298459742918	-84.3475765190284	-102.664781312421	-77.9714020181086	72.3976381466811	-0.0554421287189356	39.8834523480466	
2290000000	-2.52172378571066	-93.0317882251916	-75.7106527348056	100.143921043909	-95.9168069410386	-111.499816006853	-0.0704322774973852	39.9816772653303	
2293333333.33334	-2.49705293845754	-93.6338711433933	-72.3051773521894	-18.2686959907211	-74.5266640632139	-41.7046280703167	-0.085049032666594	40.0177518371467	
2296666666.66667	-2.46691720738808	-94.0802682691643	-81.8779607339669	66.5227526243572	-88.5034667357867	-132.16125039711	-0.100481089175091	40.0530325522699	
2300000000	-2.45746012369139	-94.5891814880516	-88.9892406710271	74.567514875566	-79.3776953984672	134.885691010247	-0.117749816875923	40.0837665860547	
2303333333.33334	-2.45994217203241	-94.9267520186291	-80.5838758247565	-174.401687971147	-79.0199875223178	131.939698333128	-0.136918567937561	40.1034371857484	
2306666666.66667	-2.46465749402343	-95.2499878305252	-84.3936681092036	132.848756328685	-75.3331033231196	62.2174036351255	-0.153307891641391	40.0824911587827	
2310000000	-2.47907035663445	-95.6020755331049	-99.91008227319	96.5023830945083	-79.9757989906032	-125.517432915149	-0.163718297266117	40.0629482520782	
2313333333.33334	-2.5064843825732	-95.9801503346321	-86.9493577843818	135.651374957651	-74.9699005692203	115.945887274953	-0.177732610912999	40.0307018027727	
2316666666.66667	-2.5213955794859	-96.3664603511879	-83.3969838639892	-16.3802853178809	-78.6607180303922	1.0385281316874	-0.185702457630131	40.0127300869797	
2320000000	-2.58211914812149	-96.9178089683075	-78.7566521590513	161.012898761385	-78.8189902029123	27.931223481518	-0.183339664256231	39.9690634515408	
2323333333.33334	-2.62627973073733	-97.4510975003872	-74.8046079091168	-66.058280001559	-85.2538428266955	-42.6981378007057	-0.189924198179863	39.9419121615768	
2326666666.66667	-2.67049381457554	-98.0519346907923	-77.0694096824272	89.848929031985	-72.3772579625814	105.384098787426	-0.19340866278249	39.9121536037741	
2330000000	-2.71703155076313	-98.8823122232116	-79.8797979231767	-163.065535344149	-74.1547284655376	162.873528974793	-0.190446308219706	39.9048709708304	
2333333333.33334	-2.78959728058355	-99.8375554527475	-88.0258708667657	179.823901913433	-91.7286333701732	64.3982816280617	-0.179174385808729	39.9000128118452	
2336666666.66667	-2.87229191970122	-100.489179381131	-72.6461917892436	-153.426991008464	-80.5010615421386	177.418556004304	-0.167602756315093	39.8774278289215	
2340000000	-2.91350364361347	-101.011419237158	-73.0793941552062	94.6826316418023	-82.0961521857851	-16.0308461549125	-0.149998538259307	39.8841908297699	
2343333333.33334	-2.9116535588255	-101.632522049543	-78.9981954902524	-135.37454107493	-77.3505207031466	93.0867366135892	-0.139513551893249	39.9785765815112	
2346666666.66667	-2.90706678949868	-102.419264320028	-80.505053610379	-116.275545502744	-79.8826978784746	72.4521424282272	-0.123283534311007	40.0256246342171	
2350000000	-2.90169520617827	-103.082248998258	-82.2696344101031	146.146178289187	-92.8334697299556	-132.103923764346	-0.105360905004151	40.1222052964597	
2353333333.33334	-2.90161914977169	-103.6231323019	-75.9617082574395	132.571307674675	-82.3792582578106	-121.256737443805	-0.0914063314072423	40.2293886952509	
2356666666.66667	-2.88709236633799	-104.048122128495	-88.2218826880015	-118.061825406742	-86.8072462741489	-62.4710416404564	-0.0737945315523339	40.3539874466611	
