!Agilent N9923A: A.07.32
!Date: Thursday, 02 June 2016 23:09:56
!Model: N9923A
!Serial: MY52412257
!GPS Latitude: 
!GPS Longitude: 
!GPS TimeStamp: 0001-01-01 00:00:00Z
!GPS Seconds Since Last Read: 0
!CHECKSUM:1932435674
!Correction: S11(ON U)S21(ON U)S12(ON U)S22(ON U)
!S2P File: Measurements:S11,S21,S12,S22:
# Hz S DB R 50
1950000000	-4.5183695033482	14.8000662900245	-33.7430877704519	-53.5215700231346	-33.5516934689102	-52.6007516476312	-6.95082621914154	-58.4501169418838	
1953333333.33333	-4.59956575775929	4.2468945687329	-33.7363917923598	-65.3076866756069	-33.5242462640031	-64.6708106968193	-5.78030883496468	-68.9227521994757	
1956666666.66667	-4.66521598810611	-5.94301131726452	-34.6359763675265	-80.4426045477768	-34.4521400711679	-80.8508392829263	-4.83866891429213	-77.5145297648139	
1960000000	-4.71509658031793	-15.9051792383639	-35.8193769659528	-88.941027172115	-35.5992988112804	-88.8660754416111	-4.1468427062251	-84.9959994256747	
1963333333.33333	-4.6925657382353	-25.6500649154808	-36.6173605266465	-95.7658818779935	-36.5145882268742	-95.8779097646085	-3.63547382098755	-91.4228856518346	
1966666666.66667	-4.63185891148785	-35.2072360610291	-37.082459227926	-99.1167104809229	-36.9501453342925	-98.9569320116311	-3.27347757438807	-97.0091708925332	
1970000000	-4.51000042253197	-44.3709237225792	-37.0703569051063	-104.977893577884	-37.0596544511794	-104.012651222334	-2.98631945667881	-101.727528324128	
1973333333.33333	-4.32091532065804	-53.0958546292542	-36.927322656668	-110.382499483279	-36.8845179174166	-110.663212299872	-2.73494514249428	-106.04643578897	
1976666666.66667	-4.12528012471138	-61.4402823050753	-36.9212148819198	-118.876105587286	-36.7473808972159	-118.109910474786	-2.54183170149074	-110.052768375606	
1980000000	-3.94121482799549	-68.9201902873757	-36.229968771879	-127.270293898132	-36.136994660895	-127.492937169415	-2.37767637653145	-113.645268870231	
1983333333.33333	-3.71417520263181	-75.7356701186902	-36.2688041996158	-143.618526014723	-36.1518579450869	-143.702347095604	-2.23456934221748	-116.894760245378	
1986666666.66667	-3.50621762098412	-82.1163565368034	-37.4674269927391	-156.152223654277	-37.4288657335646	-157.304864155534	-2.10760555315545	-119.988133774191	
1990000000	-3.33568276059088	-88.0502940286179	-39.0635524670557	-162.641912698835	-38.9191245991481	-163.310927072411	-1.9933590180545	-122.818394631239	
1993333333.33333	-3.20088964678813	-93.5982949824173	-39.8881654997562	-166.914459482027	-39.7168118148891	-167.906482428165	-1.89025109285344	-125.572963236385	
1996666666.66667	-3.10355563494406	-98.855608062859	-40.5651560223596	-169.329018553344	-40.7075755009798	-169.601114849829	-1.81271669877527	-128.135295281911	
2000000000	-3.0518323544202	-103.942531517672	-40.9185637883985	-171.320687859563	-40.8982232867578	-171.563196459067	-1.73823264323651	-130.428615517118	
2003333333.33333	-3.01871683144596	-108.807277641163	-40.47649937751	-172.277649044127	-40.3896701304208	-171.409537531536	-1.65924047176102	-132.616957405398	
2006666666.66667	-3.00491817084967	-113.88265151443	-40.1122321399899	176.558754658394	-39.8820566756098	176.704857164569	-1.59247722482437	-134.754873843271	
2010000000	-3.0411372232932	-118.926307726961	-41.1605593630016	171.948811734065	-40.9202882418554	172.096937618286	-1.53906280320303	-136.890098901613	
2013333333.33333	-3.07930037956242	-123.601789380027	-40.819338698475	169.671020565668	-40.8389227750021	169.892256312306	-1.50683207559995	-138.863394224544	
2016666666.66667	-3.05983109108535	-128.441698920647	-40.5748066588539	165.865293952142	-40.491294300116	165.521452053969	-1.48089190807675	-140.743503149782	
2020000000	-3.04493126526518	-133.59244078623	-40.2182840492235	161.883378614367	-40.1663246167749	160.190614379088	-1.46373759493825	-142.574467175861	
2023333333.33333	-3.04415943284422	-138.724911406322	-39.5515093007309	152.854905949617	-39.4740389184779	152.12586455958	-1.45899398662825	-144.390640568028	
2026666666.66666	-3.07505809308081	-143.710796936775	-39.3891687931033	142.646261372284	-39.2769572773018	142.480268757425	-1.46043490112175	-146.244979202804	
2030000000	-3.11739015738051	-148.337197704555	-39.3176266805942	134.020601141289	-39.3318544093569	134.735693489164	-1.48320601064894	-148.069173188906	
2033333333.33333	-3.13853367031997	-152.700183742294	-39.1373411050969	123.7336925407	-39.2443003373787	123.640783056001	-1.5170442923767	-149.874445546728	
2036666666.66666	-3.13810666182575	-157.062688081656	-40.0431037346991	113.292344376235	-40.0691765537248	115.341879643585	-1.54992292838897	-151.740207722904	
2040000000	-3.16965609502682	-161.632140921575	-40.9523294602984	101.179337846803	-41.1332739882952	102.22198559798	-1.60806051194051	-153.621263913528	
2043333333.33333	-3.26947436770891	-166.070142161476	-43.8667211563686	106.758515210624	-43.7125203981892	107.484956858305	-1.67218612063614	-155.606778106618	
2046666666.66666	-3.3804272866693	-170.613365245162	-42.6187520936974	120.711912647791	-42.2926378558642	119.498214454611	-1.74970428438103	-157.639967456164	
2050000000	-3.55935385369298	-175.266864663552	-40.2835608945833	118.200325933889	-40.2794714580071	116.996823877559	-1.83450163411687	-159.766360543726	
2053333333.33333	-3.77034828488474	-179.828190232425	-38.7783809668211	108.044040567801	-38.7696380018768	107.66945286884	-1.92170145571154	-161.967059069473	
2056666666.66666	-3.99911840608383	175.20849813825	-38.1872519011876	95.8042872013754	-38.14570833157	96.816688281297	-2.01648087000401	-164.130717351787	
2060000000	-4.24178169030306	169.859392269883	-37.8045420151862	88.2782707354671	-37.6759773013076	88.7445318940991	-2.10804688626957	-166.375295062039	
2063333333.33333	-4.50618523552899	163.943310562022	-36.9310589131883	80.1083132326991	-36.7483968627851	80.6019211641434	-2.19271299427024	-168.71310184994	
2066666666.66666	-4.83002176922344	158.115997967587	-35.994860716468	67.0023411127082	-35.7848469363679	67.4979938910417	-2.28377038569175	-171.253616510781	
2070000000	-5.03889887401662	151.908301131598	-35.8480709263351	50.698360185729	-35.773595605398	51.7435455233027	-2.39961608744885	-173.696899542613	
2073333333.33333	-5.30203534229467	145.139949748535	-36.4534099407496	38.5352921303959	-36.334702025612	39.3000279951421	-2.49088581629681	-176.08915606601	
2076666666.66666	-5.59466960084929	138.647812765736	-37.2586163340939	30.2688586683993	-37.1335672918778	30.7407484195934	-2.5636231957842	-178.621300468412	
2080000000	-5.83004343284351	132.514937982409	-37.5182380442301	23.7180366517325	-37.4418714506745	23.6654397141616	-2.65703214213126	178.524444350731	
2083333333.33333	-5.99267677980742	126.011980120412	-38.1177835637404	15.9435849922196	-37.9820764001763	16.8579648426236	-2.791195920167	175.656255248013	
2086666666.66666	-6.18397403310583	119.318812628615	-38.8880955126591	13.3069636049453	-38.7624598721605	12.6358013690219	-2.96727351722674	172.986637972386	
2090000000	-6.41111143724642	112.461060651203	-38.6844750769348	13.825175069824	-38.5794071798881	15.1286914140449	-3.1036942283574	170.345660982122	
2093333333.33333	-6.68346823949966	105.494894737545	-37.8474291285204	11.1450762594982	-37.6612251675923	12.6203054818776	-3.26444462690481	167.599513558739	
2096666666.66666	-7.03772809741697	98.6953415318205	-36.6811773733171	2.42810054512093	-36.4303331016944	3.31355466381211	-3.41611953502382	164.658668366403	
2100000000	-7.30771643992536	91.7069006906101	-36.7795629126641	-9.95524675391702	-36.5037782289419	-9.37564464949515	-3.6360622127614	161.480451685837	
2103333333.33333	-7.5936546180968	84.4474035127581	-37.2864994078271	-14.5920704505823	-37.0302240403111	-15.3777889823476	-3.90248603789023	158.484100651003	
2106666666.66666	-7.84839278422465	76.4883599641092	-36.0488131837802	-12.9572164455291	-35.955072087523	-12.8874145003991	-4.15097874691057	155.475246175976	
2110000000	-8.11419918757296	68.5697891938931	-34.4750635486961	-30.0755213933211	-34.1281718302888	-30.2332328009899	-4.4378729066816	151.994960464128	
2113333333.33333	-8.25593274245067	61.0841695163558	-34.8666394452705	-51.353800980108	-34.648224165366	-51.9288098482834	-4.78897558506123	148.384793367507	
2116666666.66666	-8.14213939106471	53.2247017949637	-37.0853575689307	-62.221294047213	-36.9286404856585	-63.1537664922306	-5.20052154942732	144.774531741779	
2120000000	-8.04698348674772	44.7004693942561	-38.4560205774363	-64.241605215334	-38.196617383708	-64.4730022853881	-5.63000500926474	141.094355066649	
2123333333.33333	-7.90189590817065	37.2159613696119	-38.6452050796135	-61.9434436341435	-38.7468188971852	-62.2191440560098	-6.07499178778165	137.284569250044	
2126666666.66666	-7.68780443586087	30.0192780517053	-39.7860438067651	-62.6766277834761	-39.8536598208545	-59.9005198138809	-6.50056863321364	132.780090904367	
2130000000	-7.478120640667	23.1897804047643	-38.4074829920432	-52.6072637628271	-38.1204252445211	-52.130832038635	-7.00747991093537	127.163799444629	
2133333333.33333	-7.3536909882381	16.8496580119575	-36.3386447711498	-58.7402269018661	-35.9715702016164	-57.6289857588038	-7.74123206685004	121.570285849592	
2136666666.66666	-7.29889114839173	11.6092694613939	-35.1443325451844	-74.2023609417604	-34.8597480619573	-73.9499134833443	-8.39928955910538	116.683270647876	
2140000000	-7.18280958368537	7.4960105467789	-35.7885174308724	-89.7210174225909	-35.2667640629109	-88.9480903921493	-8.9874029209709	111.003575367831	
2143333333.33333	-7.03019319801572	3.29872603655018	-37.0551857452044	-92.7124580600989	-36.5950889247814	-94.2168716937312	-9.54708928839393	104.805666551831	
2146666666.66666	-6.81652344470804	-0.614655927271663	-36.8422354335401	-93.5486552069397	-36.5242085629891	-95.9591927478606	-10.0215738498469	97.2513855390598	
2150000000	-6.62718391289596	-5.60027572645558	-35.846515284396	-96.5491833571571	-35.5957953254618	-97.9173356178134	-10.6097256041112	88.7441064470564	
2153333333.33333	-6.54991448579617	-10.2539016208942	-34.9004149594727	-108.731091066536	-34.6995229192966	-111.053864244695	-11.2428624376365	79.9715622622672	
2156666666.66666	-6.40561960018571	-14.7148799553451	-35.0530226171339	-123.251260556743	-34.8015106496792	-126.072916806621	-11.8093943720796	72.2791066417485	
2160000000	-6.27583933829901	-19.4584903542333	-36.409889711338	-135.026659550756	-36.089104913854	-137.84143131286	-12.0718323817809	64.1245976101119	
2163333333.33333	-6.17860692500857	-23.8341776160077	-37.9033139632615	-138.941577060415	-37.8961750053048	-142.14846170854	-12.1795778873663	54.5576261134427	
2166666666.66666	-6.03303635829887	-27.8311953159979	-38.5370219419803	-140.112922392727	-38.6520391935318	-142.761437392816	-12.362396199385	44.3487475572649	
2170000000	-5.90711665293875	-31.523453841056	-39.7685696777614	-136.416631398894	-40.1745134458705	-137.901789630696	-12.5291835746506	34.8578056782861	
2173333333.33333	-5.76242309788713	-34.6183639082439	-38.3763983702783	-125.41884196387	-38.4387854531784	-124.570850052594	-12.6090725058528	26.0200453257343	
2176666666.66666	-5.57177128591035	-37.1324042021245	-36.6513397622834	-136.080164119671	-36.6254506980637	-135.324017073394	-12.5670497826577	17.6612699993103	
2180000000	-5.34831039142259	-39.7030106641156	-36.7447374798773	-146.955337209732	-36.5102056161355	-146.580169812707	-12.3597350329194	10.2562289829091	
2183333333.33333	-5.12615313764995	-42.1135972146983	-37.0512287224864	-144.767734372704	-36.7958267315561	-145.971569493198	-11.9045863044065	1.86754259020975	
2186666666.66666	-4.93211463680244	-44.8161487085923	-35.1846862836684	-151.175666370145	-34.9911561308947	-152.033898263523	-11.6708793542029	-7.58296881035251	
2190000000	-4.84570576806158	-47.4425429492913	-34.4813865906837	-169.154662814206	-34.3475040973678	-171.18220309667	-11.5972843634113	-15.1772903195431	
2193333333.33333	-4.83339196412208	-49.664247934439	-35.6108914434699	171.50420704039	-35.5794256067409	168.861788342373	-11.4051875856242	-20.4471648710899	
2196666666.66666	-4.81941445708571	-51.0502561633946	-39.4688243238706	165.316617737151	-39.4252561874266	162.960608476119	-10.8133086453009	-25.7892608907087	
2200000000	-4.75876754242848	-52.8611279064675	-39.9605918524021	177.697411090996	-39.9848719421485	175.153301193565	-10.2867167413673	-32.3379183336973	
2203333333.33333	-4.74572264128681	-54.4688159618925	-40.3239300802519	-169.798591968161	-40.6423698634499	-171.775390038883	-9.97776855623865	-38.5176193683365	
2206666666.66666	-4.68304455836888	-56.1159030217955	-37.0826069935986	-166.195044118236	-37.3865830158426	-167.4269817477	-9.632000952285	-43.0361412400356	
2210000000	-4.62838242858501	-58.2027182157122	-35.3308758211157	177.542631546078	-35.4207913272198	177.291926959982	-9.25263771924772	-47.1707182067268	
2213333333.33333	-4.53721709331745	-60.4376830003742	-35.6452940260775	159.445172179127	-35.9149666791199	158.627629611219	-8.88553688616308	-50.7352918086862	
2216666666.66667	-4.46263118260624	-63.1050634214782	-37.15709301531	151.048007409917	-37.2082625011861	152.021011436939	-8.43852608352843	-54.1827737302203	
2220000000	-4.43993948324002	-65.7066245379973	-37.5049360432278	153.125065522325	-37.4794846295664	153.233033246738	-8.13388827868035	-57.8643352569428	
2223333333.33333	-4.45941532800564	-67.8738620370653	-37.2220562222751	142.544632568106	-36.9280085493676	141.413072759084	-7.91051778654518	-60.2389428531094	
2226666666.66667	-4.39525569676148	-69.3274158726517	-39.9233640944181	134.95564559496	-40.0335090196356	132.928489378319	-7.58067757071729	-62.1952942850832	
2230000000	-4.27611985472703	-71.091678041777	-40.5294234182273	151.355995145318	-40.6848111858633	149.521612632076	-7.2807058555071	-64.6678462825624	
2233333333.33333	-4.20791874902774	-72.683598117512	-38.4344296525207	158.504610039262	-38.7287023069623	157.348210976378	-7.0801055430248	-66.5124322558207	
2236666666.66667	-4.13664740609242	-73.8545464768595	-36.3631063354394	149.635553634179	-36.6888702324109	148.932790391921	-6.81120305462052	-67.9398628061344	
2240000000	-4.05193916320575	-74.8378908318704	-35.7248944276236	136.740500426685	-35.882205049474	135.961610411867	-6.52442317374033	-70.0784469819058	
2243333333.33333	-3.98213355591194	-75.5707576306034	-35.8554404377361	124.229239781199	-36.1293389638609	123.044508857863	-6.36119041827044	-72.3532743544521	
2246666666.66667	-3.86560494509908	-76.4735329458466	-36.6822396806882	112.255676749231	-37.1048289448914	109.992278309786	-6.23992963940029	-74.1062079551708	
2250000000	-3.77478963562045	-77.7869336459759	-38.5862213788659	106.774197785045	-39.2284203872724	106.818743155952	-6.13967578969211	-75.902094156682	
2253333333.33333	-3.80408637074592	-79.2424044230651	-39.9077539400032	114.085611227756	-40.2527988321321	116.393011842254	-6.06540481328835	-77.3860023106905	
2256666666.66667	-3.83520122930862	-80.0375423151493	-38.5282025332424	116.912881474555	-38.690800693097	118.118301070884	-5.96312517970058	-78.9817393053229	
2260000000	-3.83362939360032	-81.0284975212132	-38.3699842630567	108.021695096164	-38.5935596463483	108.587369656508	-5.94189032752578	-80.6961905131862	
2263333333.33333	-3.85589375486447	-82.4150107257938	-39.2188601992914	109.633550308887	-39.5267336996697	110.956324698261	-5.91285696126368	-81.6426118653651	
2266666666.66667	-3.91478981944996	-83.6651592527371	-38.0410682507816	109.614830935745	-38.2161052219165	110.973016755324	-5.76688095053257	-82.8504548529333	
2270000000	-3.9360574649071	-85.028209996179	-37.3251262728705	103.876088015276	-37.4519988693204	104.040265000085	-5.64214857880309	-84.5602538562256	
2273333333.33333	-3.98182692727821	-86.5735810514343	-37.0651075124569	93.7574686579057	-37.3100026097341	93.1749555566889	-5.51815641136928	-86.678598103429	
2276666666.66667	-4.0219474364025	-87.8521069324864	-37.3024325552265	88.9216913084678	-37.5354224805331	89.6669842917728	-5.49111200348894	-88.7132665618871	
2280000000	-3.99760570680717	-88.9821296525234	-37.1876524190382	76.8218235057497	-37.392732571734	77.9626182683094	-5.45605720199667	-90.572056695212	
2283333333.33333	-3.92831103176615	-90.3544313921638	-38.4858900828897	66.9115487348118	-38.7039659220801	67.5411642354037	-5.44677322990485	-91.9649490080039	
2286666666.66667	-3.87078811450333	-91.7357631820592	-40.6531213380905	63.1649201199631	-40.9635182687228	66.0064776928831	-5.34446441825347	-93.3989748086619	
2290000000	-3.82008060085186	-92.941320160591	-41.53340386405	76.166319265373	-41.9236768547049	78.3000197227955	-5.28874138015356	-95.0329673296122	
2293333333.33334	-3.77572772622527	-93.9848633320622	-41.1254267113247	78.0434200375961	-41.3624113869113	80.1201705961418	-5.24268172374708	-96.4139583914384	
2296666666.66667	-3.73598103753278	-94.7309016100478	-41.1559326148632	87.4339769850558	-41.5015364202194	93.0682332122868	-5.14885941569833	-97.3241074102957	
2300000000	-3.67322593944839	-95.2417904345843	-38.0249265831067	90.2455588156388	-38.1799542599026	93.9791986524504	-4.99212199792853	-98.6880743198452	
2303333333.33334	-3.60979497529215	-95.9368209087729	-36.6413625043981	74.3637439123397	-36.6122535727127	76.7542099803626	-4.91781983679743	-100.006587569044	
2306666666.66667	-3.61413211480219	-96.683036093586	-37.0342992399493	63.509554346721	-36.9833743400381	65.5461428937516	-4.84822961893571	-101.239065627031	
2310000000	-3.65414257174027	-97.1024835805205	-37.3778088460729	53.010695905619	-37.1976592228649	55.2395358925114	-4.80077749040734	-101.998110087555	
2313333333.33334	-3.67321559966636	-97.4166967960512	-38.2000252544471	50.552781857793	-38.0860700452682	52.7856490522408	-4.6851047193466	-102.717327320118	
2316666666.66667	-3.66763029184202	-97.9288754111741	-38.5174999445842	46.3610391960506	-38.3692679655095	48.4342899001971	-4.59037905565582	-103.624528717233	
2320000000	-3.70842732944748	-98.7033061265518	-38.9547893289862	46.0711447747211	-38.7578013755634	45.2138529851647	-4.53041836545953	-104.557966926747	
2323333333.33334	-3.73765322430646	-99.5621246251183	-38.4212757134562	45.1788607743948	-38.448706417387	45.8626056475934	-4.50403524523277	-105.249151315541	
2326666666.66667	-3.80209729062957	-100.64119243069	-38.4910678376074	34.4679879475804	-38.6312051176593	36.1991512208413	-4.5013452862386	-105.748959224173	
2330000000	-3.86819139725244	-101.775051085191	-39.2212351807074	35.2236587759385	-39.29510034358	38.2932158827526	-4.43834419539973	-105.980501539826	
2333333333.33334	-3.91620690339974	-103.014159678156	-38.3316854924098	33.5610467781758	-38.2565040614106	35.2887959241495	-4.34236465990386	-106.518884832928	
2336666666.66667	-3.96700492632838	-104.318817648326	-37.9340676424598	21.8237410057292	-37.8700776218271	22.9686636325131	-4.2815692732781	-107.570362566165	
2340000000	-4.01766780003375	-105.578303017763	-39.3520468629097	6.01861563389326	-39.4032719148802	7.91056121843546	-4.30361074364589	-108.628902709448	
2343333333.33334	-4.05562915303725	-106.572424837516	-43.088918033798	9.35033822947828	-43.0703248778178	11.7685880911466	-4.36294944670852	-109.330353910092	
2346666666.66667	-4.04954669833441	-107.3764130103	-43.0284407621108	31.2798202717718	-42.9646724335541	32.8916878499202	-4.38705613733383	-109.821723077783	
2350000000	-4.01207777717933	-108.101788688055	-41.3477949926001	36.4291888994046	-40.9771091378839	38.0286799965227	-4.39264806416943	-110.579374010994	
2353333333.33334	-3.96247594270568	-108.712543699649	-40.1195615119688	36.0251494915029	-39.8367577320405	35.7070054989496	-4.43107433641191	-111.506203651262	
2356666666.66667	-3.91965346728124	-109.197930839231	-38.3897694610887	34.4737078933159	-38.3083931480946	35.0927215221511	-4.47822025205491	-112.393016059893	
2360000000.00001	-3.86057595180614	-109.539908705639	-36.6962690032382	24.3152309540685	-36.5576806041137	24.4112812777784	-4.54664597560376	-113.21910875936	
