!Agilent N9923A: A.07.32
!Date: Thursday, 02 June 2016 23:53:38
!Model: N9923A
!Serial: MY52412257
!GPS Latitude: 
!GPS Longitude: 
!GPS TimeStamp: 0001-01-01 00:00:00Z
!GPS Seconds Since Last Read: 0
!CHECKSUM:1435363660
!Correction: S11(ON U)S21(ON U)S12(ON U)S22(ON U)
!S2P File: Measurements:S11,S21,S12,S22:
# Hz S DB R 50
1950000000	-3.98560454532772	-6.58832553524508	-39.6789913036043	143.034097035003	-39.7962726355936	144.473857355098	-1.68164151089425	25.9304769949838	
1953333333.33333	-3.98985823252611	-15.1790286236492	-39.3597154152775	138.980356324781	-39.1190288535624	140.899361401963	-1.64585973885343	23.0387006615369	
1956666666.66667	-4.01690998789283	-23.4045061304745	-39.402115548509	131.656573965044	-39.3345696630339	132.674477267002	-1.6031955638082	20.2059689342922	
1960000000	-4.06057411458483	-31.4378044641647	-39.5907937965046	127.228226441424	-39.4316527017695	130.217071000718	-1.56332248115829	17.404581263632	
1963333333.33333	-4.04738468245135	-39.301449825644	-39.0842648208575	122.662634467466	-38.8333500423192	124.101948804518	-1.54093647833574	14.6515387697806	
1966666666.66667	-4.00344197338601	-47.0591174130021	-38.7873568654298	115.36692293984	-38.5980462198003	115.74354566044	-1.54166054073165	12.0613029207126	
1970000000	-3.8970222991998	-54.6483013263082	-39.1724736146418	108.573643616678	-39.0930221483981	110.03047461097	-1.54668574285946	9.59661225904438	
1973333333.33333	-3.74511847318834	-61.8244447343189	-38.8632183389125	104.419385409209	-38.6866996165307	106.035537366453	-1.55864476141015	7.16154270925904	
1976666666.66667	-3.57263161433414	-68.6476603539886	-39.0426145486088	98.5592656327969	-38.7066145399087	100.76984430658	-1.5813507389923	4.80187455530696	
1980000000	-3.39950525910677	-74.6698843784638	-38.1747211337283	92.3161731694862	-38.0075798269694	92.7770716302803	-1.61153785133322	2.48786215317136	
1983333333.33333	-3.18641981453141	-80.1572095265429	-38.283542451145	78.4132671707968	-38.1112597102439	80.0252928769806	-1.64616904745395	0.197291125592537	
1986666666.66667	-2.99526028663342	-85.2978726345157	-39.4591266044796	67.8514451583271	-39.0890451312337	70.1455166378833	-1.67959323744813	-2.16388493530155	
1990000000	-2.84475743655284	-90.0462005705736	-41.0486326891967	64.6334128678611	-40.6459511715247	66.8933651456312	-1.72135811591738	-4.50791256251406	
1993333333.33333	-2.73521224057702	-94.4634848640479	-41.8385408521699	69.8650169280051	-41.5004055864263	71.4511245878075	-1.76595866981872	-6.89713256571245	
1996666666.66667	-2.67607890611526	-98.66228405007	-40.7878233735499	71.6422254862061	-40.4394487401679	72.4849378024713	-1.80928481643082	-9.3157564671069	
2000000000	-2.66234273961135	-102.825078538357	-40.6088669123197	62.8555891780676	-40.1508731045376	63.629012058793	-1.84394938359121	-11.6740310647008	
2003333333.33333	-2.67973105357367	-106.850927970856	-40.7090153441146	61.8121754572276	-40.4093788356221	60.151804311583	-1.86875801519666	-14.1373403714488	
2006666666.66667	-2.71881781693921	-111.083107491123	-40.9232160527117	54.5775997482414	-40.6568247268538	53.9039352561282	-1.90322420055579	-16.5125309368188	
2010000000	-2.80029280308651	-115.422164647937	-41.6151247532454	54.8696428017742	-41.208449099159	51.658467651526	-1.91716489487664	-18.8372537160013	
2013333333.33333	-2.89839624022883	-119.649600446368	-41.2427521549003	54.6876204625753	-40.9569482648061	52.2754194064024	-1.91859550910687	-21.0483026364018	
2016666666.66667	-2.91894049679017	-124.083127840219	-40.7573526086849	49.5181092584996	-40.5369972081057	48.2686973930507	-1.90382238113372	-23.1760737435689	
2020000000	-2.95328145237439	-128.882274825139	-40.4535799689254	45.3783733850463	-40.150268461207	42.9591016773212	-1.8757718876897	-25.2229926515225	
2023333333.33333	-2.97566422743061	-133.576601117145	-40.4370316100718	36.4996315673896	-40.360168493474	33.5844839360494	-1.84376871505545	-27.1450324133735	
2026666666.66666	-3.00080607135928	-138.151926624618	-41.7459497612265	32.9915679133351	-41.7727683160434	30.8728276640056	-1.7935544191787	-29.0352466403856	
2030000000	-3.01124103325854	-142.391326627287	-41.2546969242208	38.1195876325902	-41.293853199778	35.1276270938113	-1.74039552018798	-30.9370390823527	
2033333333.33333	-3.00550758009958	-146.322585212272	-40.3394928308903	29.7109521209002	-40.44126144731	26.8791881206099	-1.69365252020792	-32.6722897426116	
2036666666.66666	-2.95918003019233	-150.208646942451	-40.5309731296401	19.6209222403939	-40.5573835507917	18.3288241435567	-1.64968083554689	-34.3999182466434	
2040000000	-2.95337352381421	-154.309611127424	-42.2641209671133	12.4761678700387	-42.2542732079746	9.56811082754933	-1.61682236326925	-35.993008827305	
2043333333.33333	-3.02488063379245	-158.216599775065	-43.3273663564558	21.4025224717236	-43.7963424939396	18.6425477612159	-1.59607490274299	-37.5529895003968	
2046666666.66666	-3.1125106785809	-162.102220660074	-41.8523407161586	28.4605949512538	-42.271187275537	25.3593347252954	-1.58004685034771	-38.998922339246	
2050000000	-3.27458079763169	-166.275078933541	-40.8648072368263	23.9370099647373	-41.4954778348738	20.3423190534523	-1.57690604490877	-40.4491250136042	
2053333333.33333	-3.50957005391722	-170.406632524797	-40.1879017259202	17.839425020278	-40.8562380558294	17.2102348021048	-1.5895052193261	-41.7842599605832	
2056666666.66666	-3.79133036940842	-174.756255930759	-39.911068174517	12.0801792617798	-40.4086125552596	11.3958872849857	-1.60205850311711	-43.0334423896072	
2060000000	-4.09079819482967	-179.408432690717	-39.6773840459185	4.66911407297214	-40.1503738074459	4.09442752370384	-1.61690537633589	-44.3267937307304	
2063333333.33333	-4.40700385767359	175.308155801628	-40.0305221847412	-0.520792566827067	-40.7713592678517	0.114619091562808	-1.63322707590719	-45.7036531265108	
2066666666.66666	-4.75842538179067	170.005468724271	-39.3803222851536	-2.28437393688383	-39.9680440070756	0.905105083369385	-1.67597287816729	-47.0699196494419	
2070000000	-4.99346632618631	164.018692233669	-39.2573617365141	-14.447527458392	-39.6535617785067	-13.8360547807191	-1.73132758105276	-48.4705877676633	
2073333333.33333	-5.26239278239113	157.422630628806	-40.3225278827175	-22.0416105403205	-40.9303036047508	-22.191631213495	-1.77796877074462	-49.8206944289486	
2076666666.66666	-5.54990806687399	150.911179025844	-41.5809630815239	-26.7763168822429	-42.2133715753391	-26.2001303665678	-1.82309215979863	-51.319344282859	
2080000000	-5.77494001916659	144.738616515893	-43.0738598175606	-17.8839942272609	-43.8913212142395	-15.3676996093331	-1.88290615208001	-52.9213356329053	
2083333333.33333	-5.95185837983312	138.252734044539	-41.7339199924332	-12.1758917832035	-42.2946594408483	-8.68011749665302	-1.9562038705653	-54.5529775786603	
2086666666.66666	-6.17344380125296	131.770204423822	-40.6859320596246	-15.308031141576	-41.3363263368795	-9.71381118004725	-2.02493999738141	-56.1045470181578	
2090000000	-6.39955625975343	125.46096433582	-40.4379335912493	-19.8315390667074	-40.7251308040852	-14.1882923183893	-2.07747440234104	-57.6698276633435	
2093333333.33333	-6.70140277569936	118.823568476742	-39.577111307608	-26.6399348726999	-39.8214358754647	-21.391716336104	-2.11212068699892	-59.3159799691234	
2096666666.66666	-7.12856882546293	112.561986094413	-40.1678816780784	-31.8149066075774	-40.2591298839302	-26.421890294779	-2.15592665930123	-61.0004586864046	
2100000000	-7.52643800938243	106.200141910962	-39.8687413741246	-32.9221147617482	-39.8064537826748	-28.9792007560176	-2.21838593235103	-62.6632286787764	
2103333333.33333	-7.89017345548239	99.4605836260645	-39.2387992469488	-39.933749270642	-39.2323458422963	-37.0507582890448	-2.26107250546081	-64.0719014062781	
2106666666.66666	-8.28085160408856	91.3057252307639	-40.3389525548722	-46.1810090829676	-40.3662760703012	-42.7851571296664	-2.26075750049476	-65.4435984736779	
2110000000	-8.72652625761483	82.6598551423583	-40.2938318868045	-42.6593712205497	-40.2465189411884	-37.8725363008438	-2.2585398408042	-67.0193987649757	
2113333333.33333	-9.04147100816531	74.0141407110295	-39.7398913480809	-45.890307208531	-39.3664384269965	-40.0866955017057	-2.30278247966367	-68.5715392963152	
2116666666.66666	-9.10339370671882	64.5438661289997	-39.4663836398012	-47.7956675971613	-38.8524615500451	-41.9100426225483	-2.35959299276203	-69.7830269235677	
2120000000	-9.13434551817725	54.688448827475	-38.0982767747159	-52.8405438905555	-37.4598558950739	-50.7281941755085	-2.39176098074275	-70.905574658601	
2123333333.33333	-9.02730543789674	46.0215248006282	-38.1305232208542	-65.5397442350059	-37.4838292400679	-62.5950269659919	-2.43022293363824	-72.0061641532054	
2126666666.66666	-8.75350292205903	38.0034725277843	-39.1285576140099	-74.5604240890773	-38.5031369637315	-72.1370798298824	-2.50040346044286	-73.1357689301429	
2130000000	-8.44101832112506	30.3680165773734	-40.9650581218381	-69.0003856872611	-40.2105714186862	-67.9822079298068	-2.59946729265975	-74.1345253756443	
2133333333.33333	-8.21104643438139	23.5140094321669	-38.9462964603862	-58.7829127465168	-38.2497042533296	-58.6054141608048	-2.74188466357131	-74.8959297091763	
2136666666.66666	-8.04835165142077	17.9670729589881	-37.0835780967634	-74.2569985869095	-36.7837511611876	-73.6982478096191	-2.88048981686339	-75.3537854076689	
2140000000	-7.86068324402693	13.333171159129	-37.9359564913815	-90.3572788280407	-37.5957808369452	-88.2793167306005	-3.02306663061017	-75.8625350200649	
2143333333.33333	-7.68802798068397	8.72059806008317	-40.3308121054026	-89.4987223137104	-39.4550059763284	-87.796342133585	-3.22122584725515	-76.1824867894074	
2146666666.66666	-7.48836029858219	4.48619239345949	-40.1092504984895	-80.3222074459311	-39.1828712850864	-81.6094213272893	-3.43832198054895	-76.1949057578577	
2150000000	-7.2973172461359	-0.844095782898364	-38.2830096736127	-75.3871758492599	-37.7933441604676	-79.0119425050784	-3.66540383397699	-75.8295678487453	
2153333333.33333	-7.25191628032354	-6.14027249448172	-36.417852278534	-84.9497681187142	-36.344976063595	-86.9209464086601	-3.88206409566908	-75.0940433744456	
2156666666.66666	-7.15998181592494	-11.2489948735669	-35.5900564097009	-96.4826502134672	-35.3749751049665	-98.3349455178016	-4.01409785104982	-74.2042098839993	
2160000000	-7.06342836710629	-16.6778008606347	-35.3782836191431	-111.542104548865	-35.0376286453981	-112.597769548479	-4.15036957019818	-73.4316003663002	
2163333333.33333	-7.00653024904037	-21.6006472245794	-36.3374554572564	-126.214738259083	-36.0216863210067	-127.79064848392	-4.24921785672916	-72.3438416515631	
2166666666.66666	-6.82293410859443	-25.8978672418328	-38.0608153733003	-131.679567537686	-37.9089987493189	-134.376756646577	-4.26857290953978	-71.4844763750666	
2170000000	-6.60607846474747	-29.9200929343228	-39.1735859731446	-127.717386275014	-39.0464130110248	-130.043807607587	-4.25696188187318	-70.8615119577367	
2173333333.33333	-6.35980275362522	-33.4943494239003	-38.388135684395	-122.861684985038	-38.4138428707379	-124.865278475894	-4.22095423135318	-70.5418930696727	
2176666666.66666	-6.07875205505623	-36.2686563883797	-37.8039972275457	-131.140932921444	-37.6254989818072	-133.041758020695	-4.16336904899117	-70.3915813085678	
2180000000	-5.75463725317356	-39.0635115761243	-37.7060522946579	-139.900531220032	-37.5724704325107	-142.946783433259	-4.0860888657826	-70.4748774308517	
2183333333.33333	-5.48600949917251	-41.7559158767839	-38.9829481057417	-141.356877934586	-39.123594757225	-143.539245351556	-3.99777302779507	-70.8638078043113	
2186666666.66666	-5.27461289911072	-44.3019619239805	-37.5961733798795	-139.457836552261	-37.8680736237485	-140.782225726138	-3.89656647427553	-71.2352115133738	
2190000000	-5.14951557350549	-46.6352904147739	-36.6281847799134	-155.727356290119	-36.7720061420508	-155.956440732384	-3.78838095581694	-71.9527286966743	
2193333333.33333	-5.11951307642312	-48.6645412950774	-38.1720089939227	-171.244061663368	-38.0439194969866	-172.412486367183	-3.68962408663213	-72.6279348357489	
2196666666.66666	-5.09098700612091	-49.9678556159175	-41.0649721092109	-171.08600118874	-41.0031771368296	-174.211979150642	-3.55564464316526	-73.2640821318701	
2200000000	-5.05292102232555	-51.7478439785407	-41.5021319284641	-163.862979557579	-41.6933718351191	-165.847943116394	-3.41725479694176	-74.1049741032147	
2203333333.33333	-5.07100067379765	-53.2575279523822	-41.0329999874397	-154.212222282935	-41.4625582787238	-155.16829433248	-3.29078684293373	-74.9888009014425	
2206666666.66666	-5.03731509546696	-54.9865319049247	-39.045247004419	-158.006588059944	-39.3431861873988	-157.801410463646	-3.1437892137147	-75.7937410620779	
2210000000	-4.9998158414228	-57.2165478675634	-38.3756842469199	-168.269766620135	-38.6286847068315	-168.911471866934	-3.01899207566589	-76.7322525295769	
2213333333.33333	-4.9351896964679	-59.6687762648105	-39.0485952378824	179.389667747479	-39.1836256974883	178.963033180696	-2.90845867140231	-77.5224670484582	
2216666666.66667	-4.8803940351869	-62.643938095393	-40.3198676151214	176.434607364537	-40.4923653285315	177.320249258229	-2.79969469882446	-78.2081998543019	
2220000000	-4.86546228024544	-65.4439333357866	-40.1176700327311	178.982516730314	-40.1797649147652	-179.975570460001	-2.70224777810582	-79.0123085670933	
2223333333.33333	-4.85593076924979	-67.7679276802256	-39.2037677727433	173.352958654141	-39.565980094996	173.211597522374	-2.64857160770534	-79.5769570527149	
2226666666.66667	-4.74085675358011	-69.5502720918062	-39.8023245633625	165.504902861113	-39.9654337898211	166.365894977165	-2.59810213145089	-79.990066157426	
2230000000	-4.60553947800204	-71.446335186905	-40.0856275988356	159.319637267177	-40.4044543793789	159.518777471822	-2.53529137243439	-80.2711859608056	
2233333333.33333	-4.47655166517633	-72.9959061508038	-41.3040707872669	158.781312315595	-41.4781453158019	160.325919744949	-2.46888145805582	-80.7099033849212	
2236666666.66667	-4.34506325169564	-74.197986322752	-40.4719173824224	161.488695798776	-40.6329749149392	162.952189605829	-2.44178452621431	-81.1222736452786	
2240000000	-4.23259969565624	-75.1930802543196	-39.6794263355778	150.835604456779	-40.0037228713675	151.611647558587	-2.40871266894101	-81.414509024186	
2243333333.33333	-4.14895693790161	-75.7417466385423	-40.8652247773459	139.629473841214	-41.219975147058	141.744415516805	-2.36478894144017	-81.8838894324868	
2246666666.66667	-4.02549304620027	-76.3713581981423	-42.4364619605004	138.587963085656	-42.6204258390534	141.161618192703	-2.35030268664867	-82.5397898562752	
2250000000	-3.92561282057343	-77.316450681769	-42.9231482116171	144.847849656847	-42.9971236325267	147.410051194087	-2.37983696585223	-83.2374370853969	
2253333333.33333	-3.93838760562317	-78.5676148925929	-42.1297319702775	146.643096472692	-42.3238962843305	148.774389442401	-2.43082301201595	-83.9040094097678	
2256666666.66667	-3.97536591981585	-79.2843574866809	-41.564390874432	140.923929599902	-41.7254582948206	142.93810918847	-2.50020180697683	-84.4982616957796	
2260000000	-4.00439453573282	-80.2614812594244	-41.7583729461106	136.682489297986	-41.8419248848398	137.165541371378	-2.55281913330103	-84.9958376730125	
2263333333.33333	-4.07755979840062	-81.6483428974846	-42.1185792564405	133.997787759899	-42.032119634241	134.525667224768	-2.59995530680856	-85.715659170316	
2266666666.66667	-4.18439732840499	-82.9199881731227	-41.2982156661446	127.298027689532	-41.2356924034806	129.124596899897	-2.66330790767342	-86.4858373750914	
2270000000	-4.23041353855371	-84.2766874547546	-42.0422247531519	114.350494976543	-42.0740525065766	116.861662716444	-2.72145354269279	-87.1938615553591	
2273333333.33333	-4.27849821418955	-85.9984126936976	-43.1212626500123	111.297503702633	-43.1277985442853	114.272015964117	-2.74397113477578	-87.9784679100477	
2276666666.66667	-4.32600191284152	-87.7253020369594	-44.2585353465264	110.505848233028	-44.2490157118925	113.615904294354	-2.75873407673694	-89.0356067408834	
2280000000	-4.31872454923387	-89.0689488483782	-44.2794037568607	111.949770146447	-44.1853894295932	115.140770700001	-2.79939674221964	-90.1985790519993	
2283333333.33333	-4.23879918038184	-90.6091935954833	-44.5419813659143	108.207001881746	-45.0118836899288	110.244811160557	-2.84085745877547	-91.1624702366942	
2286666666.66667	-4.14547039405189	-92.1724926113296	-45.6176528498726	108.186372344222	-45.123782324773	112.176416444631	-2.86773335617321	-92.0706401211267	
2290000000	-4.06206264399583	-93.4768247035468	-45.1775644768133	112.181768945926	-44.2840985443504	117.909580016732	-2.86900969393567	-92.9160222031646	
2293333333.33334	-3.96409857907439	-94.4870510031463	-44.8080214985891	103.765583165981	-44.287023180499	107.329640569745	-2.85138498997167	-93.8291859423472	
2296666666.66667	-3.87889505909021	-95.1590324600919	-46.4465257715229	101.091209847114	-45.9176332959306	102.098527839921	-2.82844032057448	-94.679135927577	
2300000000	-3.78094021276927	-95.6322049872333	-46.1209698815597	113.543403792783	-46.2579042351338	112.997089088248	-2.80577323918389	-95.5649119474395	
2303333333.33334	-3.70167516785594	-96.1556166876765	-44.3065301857055	112.500978517892	-43.88569515988	114.561257239388	-2.7916473976659	-96.1190355281087	
2306666666.66667	-3.69312468415106	-96.6885822393604	-42.7036161408693	98.527555576026	-42.4853829150645	99.1679489802651	-2.74022111975805	-96.6731244934169	
2310000000	-3.74498056605775	-96.8360056906195	-43.9125147071655	79.2658586964353	-43.7222402598096	80.6384709688763	-2.70360076860251	-97.2276735596506	
2313333333.33334	-3.77613562458801	-96.850844509873	-46.289791678591	72.1150087490334	-46.0519970484133	73.4219317069085	-2.66401628361234	-97.6289414912488	
2316666666.66667	-3.78137392904405	-97.1039866576021	-48.6923818458914	80.042541470396	-48.4728386503704	81.6580908247677	-2.62282174105526	-98.0217937793847	
2320000000	-3.82892883340657	-97.7351563431805	-48.9470279078443	88.8468813057638	-48.1674200846275	92.0071539426664	-2.59019440868003	-98.3737726053855	
2323333333.33334	-3.89527226406222	-98.6268717374471	-49.1815388499394	97.4596637727147	-48.1618356805028	94.898036382994	-2.57216943490085	-98.6313819286417	
2326666666.66667	-3.99204265640519	-99.8343940005113	-47.8063235768807	99.6971110323654	-47.5686565613092	96.7236938494679	-2.56130329628888	-98.9332113521371	
2330000000	-4.09872605647636	-101.09949774429	-47.1558696016883	96.8564045886963	-46.620049822723	95.3720660432353	-2.56650241307977	-99.3128767108282	
2333333333.33334	-4.18602521956633	-102.547440846171	-46.0165480760621	94.0032127909196	-45.815993928837	92.8015852074041	-2.60749471784699	-99.588318671722	
2336666666.66667	-4.25105612054831	-104.084705404482	-46.227895450116	82.6756334309777	-45.902443175174	79.2723314182813	-2.65978132120744	-99.6533526863492	
2340000000	-4.30993315434452	-105.561759740393	-47.9442751803751	75.9841885336247	-48.0956608497858	73.8809647883369	-2.68888804410657	-99.6995472662183	
2343333333.33334	-4.33530317991166	-106.751925540811	-47.8841247337462	91.1901413719955	-47.3391834379523	86.0532661668754	-2.71310836521711	-99.9805987138011	
2346666666.66667	-4.28574116657749	-107.787007372083	-47.6845244905036	79.5521514916021	-46.746010263211	77.7135745093393	-2.78636561395822	-100.43216076367	
2350000000	-4.21864109502719	-108.696127743891	-49.2947694320007	78.7751750941517	-49.1268800054294	77.8074666487467	-2.85896914455631	-100.906816602694	
2353333333.33334	-4.12177268922244	-109.327481184576	-47.9771522790234	100.917541588892	-48.2489037585101	96.3730000206661	-2.95433086072518	-101.30580021881	
2356666666.66667	-4.02531849778593	-109.833374843972	-45.8209181884366	86.5885309051304	-45.6423635246972	82.9747643988282	-3.03963779424383	-101.862057941375	
