!Agilent N9923A: A.07.32
!Date: Thursday, 02 June 2016 23:11:22
!Model: N9923A
!Serial: MY52412257
!GPS Latitude: 
!GPS Longitude: 
!GPS TimeStamp: 0001-01-01 00:00:00Z
!GPS Seconds Since Last Read: 0
!CHECKSUM:0252620009
!Correction: S11(ON U)S21(ON U)S12(ON U)S22(ON U)
!S2P File: Measurements:S11,S21,S12,S22:
# Hz S DB R 50
1950000000	-4.47227408768117	14.8853006395732	-33.5759824364252	-56.0594138096843	-33.5801100337533	-55.4257186050396	-7.02088762825564	-58.3391626589257	
1953333333.33333	-4.55494025811674	4.35863879894317	-33.8266350051696	-69.9186309361851	-33.7779203193792	-68.8119333829423	-5.83524393364033	-68.7848638806547	
1956666666.66667	-4.61530786926273	-5.84766748145827	-34.9609821352448	-85.3041550324008	-34.825471300194	-84.7572079486951	-4.89115912472559	-77.5221965619808	
1960000000	-4.67354416363209	-15.7931030915081	-36.5240162486341	-92.6606274872413	-36.3524853553225	-92.0538148749795	-4.19690937920326	-85.0325047074735	
1963333333.33333	-4.65020479187577	-25.5875211043201	-37.21112093083	-97.8452449228351	-37.2216636755168	-96.5126662156923	-3.68800576139737	-91.5386013939116	
1966666666.66667	-4.59058133970131	-35.2051061882177	-37.6158986335221	-99.83300698184	-37.5039337401617	-100.14072486918	-3.32697451008142	-97.156220850963	
1970000000	-4.47032403563277	-44.4138185880267	-37.5462016282787	-106.087636697144	-37.5275268131141	-106.092228761568	-3.04541086871702	-101.912346030597	
1973333333.33333	-4.29052123801798	-53.1704633116417	-37.5144864100421	-112.070150237758	-37.5692618592323	-111.674147835894	-2.79792867824141	-106.267584555669	
1976666666.66667	-4.10057879022168	-61.5154914807952	-37.4121183539634	-119.090670138471	-37.457730617419	-118.308137302883	-2.60104068906486	-110.266033494039	
1980000000	-3.90751041924566	-68.9908779135487	-36.8658587698596	-127.619485229301	-36.7969699458497	-127.121775826177	-2.44427140876665	-113.892545566077	
1983333333.33333	-3.67993796868107	-75.8635620089777	-37.0037232534142	-143.704680494114	-36.955570059877	-143.564069098104	-2.30307901210426	-117.178980104981	
1986666666.66667	-3.47878779940099	-82.2483127284801	-38.1832340265349	-155.803741103534	-37.9919504478549	-154.481648558172	-2.17367373624539	-120.241849225841	
1990000000	-3.3128416813077	-88.1752671283878	-39.3568041661756	-163.058738144338	-39.1836839150843	-161.890541904113	-2.0546072118751	-123.053593615887	
1993333333.33333	-3.17955374058816	-93.7021899730016	-40.2654116425372	-167.522530092859	-40.1911415527458	-167.683600504516	-1.94685098592274	-125.827266587643	
1996666666.66667	-3.08991232938693	-98.97184425652	-41.2759394791677	-169.15235488386	-41.0734618193356	-169.178496231769	-1.87044152418713	-128.442725088011	
2000000000	-3.03851689467938	-104.015951422714	-41.4845312158837	-169.781671543855	-41.5278506323414	-170.72924977878	-1.79558124843157	-130.719261527482	
2003333333.33333	-3.01526667619549	-108.830283329333	-40.7935458477766	-171.523567834456	-40.8043031075934	-171.764442573911	-1.71359386157469	-132.913991420194	
2006666666.66667	-2.99873104047855	-113.864384637213	-40.6632525498641	176.600839167763	-40.4753919642483	176.639574044066	-1.64874940246521	-135.04515967713	
2010000000	-3.03567828741553	-118.896666349138	-41.3895330357686	171.335094722289	-41.5541568331729	172.01586139066	-1.59234966410973	-137.182268920342	
2013333333.33333	-3.07486397060942	-123.62822123426	-41.6038648061934	169.887499740596	-41.6052653751028	169.929457120412	-1.5585382560592	-139.162150142637	
2016666666.66667	-3.0630507053008	-128.519332815548	-41.4342620058005	167.152239391009	-41.3220367465357	166.948377804399	-1.53644850385478	-141.045266978095	
2020000000	-3.04874673207952	-133.650021586469	-40.8477580012785	163.440096496038	-40.6825278784969	163.461926438024	-1.51073321938542	-142.8700642536	
2023333333.33333	-3.05264251506732	-138.772980549426	-40.0483195867851	155.710291078117	-40.0274793341868	155.100892474006	-1.50550905922868	-144.718151447072	
2026666666.66666	-3.08505249506362	-143.757497733122	-39.9056857039508	147.045221411293	-39.8114470208722	146.659768242328	-1.51011282465306	-146.532001132607	
2030000000	-3.12549679736243	-148.377629288312	-39.596121070452	137.914496195336	-39.6131918175546	138.092183392735	-1.53484797211483	-148.33315794646	
2033333333.33333	-3.14526880621855	-152.691244456749	-39.3357626965281	125.711532831227	-39.2780570926898	125.233218468375	-1.57258878142665	-150.142584380933	
2036666666.66666	-3.13687360267988	-157.080451345704	-40.1707532937579	113.496916377666	-40.2764347036178	114.120417618846	-1.608546260406	-151.976024872704	
2040000000	-3.17478255937416	-161.644874654087	-41.564637118946	102.622504070776	-41.6040318167727	103.253153358493	-1.6629860753702	-153.885747484811	
2043333333.33333	-3.2724893712785	-166.060421513241	-44.1887074756935	106.803364526491	-44.1693351434539	108.125190815733	-1.72836329279096	-155.869056212629	
2046666666.66666	-3.37999248656434	-170.558987225514	-42.7817425052839	120.167166153775	-42.8835288386847	120.808356992224	-1.80828385360498	-157.890422020971	
2050000000	-3.57261294006661	-175.185030403335	-41.1682785421648	119.411504824775	-40.9647661395789	118.749111082578	-1.89012117076224	-160.002537982642	
2053333333.33333	-3.78253130362417	-179.732864459875	-39.4258329410041	110.781497815152	-39.3914131963427	111.036644617584	-1.98010109819448	-162.179601543483	
2056666666.66666	-4.00275710555647	175.358595256439	-38.4403081724478	100.265701003078	-38.5215977564008	100.357536042297	-2.07221151826854	-164.363959636573	
2060000000	-4.24505623994628	170.026844039451	-38.0724858513074	91.7037887581807	-38.0360072521408	91.4445983418017	-2.15927322564402	-166.631262158801	
2063333333.33333	-4.5210276109852	164.14703051004	-37.035904966074	83.4304824258749	-36.8903306139993	83.1272987925896	-2.24779463499426	-168.98498555688	
2066666666.66666	-4.82977942255503	158.347373251225	-36.0119952854951	68.6988378023972	-36.0984609103787	68.9090060149566	-2.3442415163438	-171.497962050037	
2070000000	-5.03231266666185	152.004082786072	-36.1897322814032	52.1823863384296	-36.0760032545466	52.0181097652754	-2.45489943160456	-173.93254239723	
2073333333.33333	-5.30414531368693	145.21389441482	-36.9118009632617	40.4403826888398	-36.8355336909596	41.7169797451313	-2.53836466054802	-176.309284285179	
2076666666.66666	-5.60024326280559	138.764271241256	-37.5876411237639	33.4000375481649	-37.5645656517443	33.6832714267046	-2.61125189724459	-178.858618245164	
2080000000	-5.8234446500764	132.621297482539	-37.6206479497543	26.7731767811071	-37.5846388608787	26.5811675415386	-2.70104176349654	178.313865634106	
2083333333.33333	-5.9941744862911	126.145448725784	-38.3186028763058	17.1596238307165	-38.3328608488173	17.327853401499	-2.82506612953991	175.441182381532	
2086666666.66666	-6.18665204706906	119.503187243649	-39.155653722216	15.8499853957926	-39.1797842809383	16.451468269958	-2.99836747398191	172.684374034252	
2090000000	-6.39974873791595	112.795948550872	-38.732162162777	16.4660352033089	-38.7494522075999	17.0155188911047	-3.14379571175653	170.046832557475	
2093333333.33333	-6.65928979531878	105.791219480977	-38.040218450807	10.6849283752166	-38.0249571542614	12.2540096645027	-3.302365919811	167.353415859497	
2096666666.66666	-7.00405447843484	99.0974351823341	-37.2127110725777	3.94946451003884	-37.2350575754261	4.28842108315899	-3.43914546998425	164.450394256587	
2100000000	-7.24850889748417	92.1194247450682	-37.4620094122219	-6.49649422661092	-37.4269186093623	-6.3796048116785	-3.65109931655084	161.209385914559	
2103333333.33333	-7.53342128964919	84.7904958658262	-37.8111376077231	-10.7327813403014	-37.845789724621	-10.2095194454705	-3.92200060180733	158.255899720349	
2106666666.66666	-7.78510682147953	76.7103071624426	-36.4245029909125	-7.92447815014476	-36.3727842777073	-7.23129435461294	-4.15601388327122	155.282020005279	
2110000000	-8.06479674812232	68.6189397600931	-34.5878595265448	-23.8801030503288	-34.5544602490119	-24.2770652979118	-4.44384746105485	151.710302025521	
2113333333.33333	-8.2020024474283	61.1072461468591	-34.8102695078346	-45.3026642508111	-34.7787406695479	-45.4379807919521	-4.80037081806608	148.127345766872	
2116666666.66666	-8.10475719535758	53.1657062042352	-36.7202852082118	-57.4265341304948	-36.6623106766679	-56.8660254744941	-5.21146669506947	144.604203482561	
2120000000	-8.01734112863335	44.7084814947143	-38.0282416715375	-60.6531902168399	-38.0466675656441	-60.8324018208278	-5.62942701281616	140.913534882082	
2123333333.33333	-7.87381307616424	37.2128573682131	-38.4062319206423	-58.8539886148575	-38.4280778029511	-58.8806683258684	-6.06768433284375	137.035467056947	
2126666666.66666	-7.6626200124206	30.051331774596	-39.4521525553224	-58.4621834009621	-39.2291402374948	-58.7013053088279	-6.49614021390301	132.478125051037	
2130000000	-7.46711231830779	23.1951562693464	-37.6940165059724	-53.0987468195824	-37.6737030461113	-52.9882168637305	-7.00674879840147	126.837010806358	
2133333333.33333	-7.34767068394284	17.1177337392247	-36.1720513238794	-62.529117780013	-36.218427947359	-62.1122806937519	-7.74047851171367	121.302735005519	
2136666666.66666	-7.24840742741607	11.9603805483457	-35.7165260029881	-76.1016114287228	-35.704527474785	-75.780605882384	-8.38225696092432	116.418385014177	
2140000000	-7.12010113496363	7.77445596704235	-36.5402758966137	-86.6641606516379	-36.378287209643	-85.9379988940659	-8.97327317548202	110.60109496693	
2143333333.33333	-6.95069270032449	3.41901088671694	-36.9778221452869	-86.8611370830566	-36.9168141336164	-86.9442396096826	-9.55722741784476	104.446808417304	
2146666666.66666	-6.76832925215674	-0.559834512981237	-36.5035459515413	-91.5695081462962	-36.5423423130357	-92.223864791832	-10.0149223875174	97.1555874454598	
2150000000	-6.58510231297069	-5.47638810277959	-35.8332976156808	-95.2191757521699	-35.9130888681243	-95.0344811675147	-10.5735666391334	88.5192409915334	
2153333333.33333	-6.5012392774424	-10.1729602738055	-34.9895379952741	-106.059483907081	-35.0259188225275	-106.113008035187	-11.1990900591804	79.7240214338163	
2156666666.66666	-6.37129043139079	-14.6470963315225	-35.0602394589159	-119.856266470127	-34.9382868077362	-119.63979965055	-11.7747103864987	71.9964063017629	
2160000000	-6.243500535169	-19.3971799239089	-36.1643953940784	-131.910206285115	-36.0285364465153	-131.808737622657	-12.0568415515397	63.8963517304302	
2163333333.33333	-6.14474502671532	-23.8006153061363	-37.5975311959803	-135.393399482153	-37.6045940509461	-136.523475918306	-12.1844316177772	54.6331346640965	
2166666666.66666	-5.99257586403911	-27.8661397281241	-38.2191920475795	-138.234871631687	-38.2816898842892	-138.677909720533	-12.3328970093104	44.6877280947879	
2170000000	-5.86761682008239	-31.6192846985388	-39.4459957999967	-133.222074928884	-39.3700995696163	-133.084054088588	-12.4924993609988	35.0070735164956	
2173333333.33333	-5.73731184060228	-34.7791421162905	-37.6634872707698	-124.897690316299	-37.832113067329	-124.6574242537	-12.6024812129016	26.27529228013	
2176666666.66666	-5.54960554476857	-37.2431059059463	-36.3781629798753	-136.082731577516	-36.2282379413863	-135.39413779271	-12.571329707189	17.9721507088736	
2180000000	-5.31914557088963	-39.7324978747464	-36.4700205544052	-146.394833286517	-36.4007433029047	-145.441573540539	-12.3973657238401	10.4537326857272	
2183333333.33333	-5.09161834805334	-42.2036098702614	-36.5527867139245	-145.626613258546	-36.4747465254881	-145.816363044752	-11.99624488828	2.27282706632228	
2186666666.66666	-4.897036724057	-44.8949639493871	-35.1587914120555	-152.248386033037	-35.1472385687938	-152.205502626424	-11.7496050494726	-6.99393166027274	
2190000000	-4.81608570525976	-47.5526197207282	-34.5651008822137	-169.627505711726	-34.5603495791798	-169.278306736264	-11.6733197577181	-14.5959309502035	
2193333333.33333	-4.81618663349079	-49.7114377773329	-35.7848218775391	171.689873756746	-35.7537555054084	171.601040224568	-11.4657712235754	-19.9805547856073	
2196666666.66666	-4.79792137757626	-51.0464729028499	-39.527867488389	167.462968221495	-39.5044293761732	167.793237703653	-10.8657330668071	-25.4324454113577	
2200000000	-4.75200133995757	-52.9236345782074	-39.8150755815735	-178.775775845923	-39.8747173835333	-177.906297959675	-10.337080076061	-32.3103372839511	
2203333333.33333	-4.74764042819022	-54.4752993375652	-39.9467802537349	-167.259054510143	-40.0417328456617	-165.93138855048	-10.0549041766814	-38.5478855749217	
2206666666.66666	-4.67343355001813	-56.1157127871516	-36.6617026110918	-164.572478210217	-36.678853125918	-164.824294745421	-9.71327485678121	-43.0640253860059	
2210000000	-4.61483451491157	-58.2481790100596	-34.8673289864219	178.331885102889	-34.7765917452234	177.766231291001	-9.34474933197864	-47.3071007954837	
2213333333.33333	-4.53303188322779	-60.4685162899927	-35.2498668770212	159.939732158977	-35.2414946923057	160.253921335044	-8.98724575623769	-50.8502063323276	
2216666666.66667	-4.46736293729844	-63.1454367558558	-36.8972001865728	149.959936970883	-37.0174416835061	150.925294183228	-8.54065060898479	-54.1049333098281	
2220000000	-4.44053193655652	-65.7061850395093	-37.1953641597368	153.449426648434	-37.2073954700527	154.006356064312	-8.21841382915596	-57.8682383731217	
2223333333.33333	-4.46362542271759	-67.9038420221169	-36.9041836378332	142.178186790952	-36.8458141137053	142.053272853801	-7.98717006336702	-60.2185765873192	
2226666666.66667	-4.39111127797826	-69.3835113239905	-39.7018484828601	136.243311807743	-39.9287371168949	136.820331675453	-7.64594361936072	-62.2527779868193	
2230000000	-4.28112974647162	-71.1649633437339	-39.9875815728582	151.300215477117	-40.1111642783123	151.968714604595	-7.34947030779931	-64.7357775145458	
2233333333.33333	-4.21147568429052	-72.6920911752709	-38.2953839443707	157.109112285305	-38.2484486410423	158.249460369798	-7.14074913515752	-66.5827301846579	
2236666666.66667	-4.12747261932488	-73.8524071720046	-36.2338428658677	150.516005065534	-36.2438702349034	151.028661523664	-6.86850467419855	-67.9989901648276	
2240000000	-4.04596769856821	-74.8812076933055	-35.2819825158074	137.374767351621	-35.3304813047647	137.819785381024	-6.59023872536832	-70.1703836672538	
2243333333.33333	-3.97226609829919	-75.5922203865462	-35.595385518978	123.737316561255	-35.6140931391105	124.318470310022	-6.42709618381259	-72.4216527085139	
2246666666.66667	-3.86064757530145	-76.516106824234	-36.4828635027361	112.243052223136	-36.5333139935976	112.39859080631	-6.30637914439807	-74.1555263579451	
2250000000	-3.77630766836046	-77.8493361850381	-38.0070827933709	109.168614462761	-37.99780341028	109.551731032567	-6.21277835330572	-75.9597198489464	
2253333333.33333	-3.81910473398035	-79.2174119848793	-38.9494427242685	113.426708891764	-38.9632833202429	114.286397005501	-6.14028294387903	-77.3437147581198	
2256666666.66667	-3.84242497814092	-79.9346803617005	-37.8123689024162	113.458830996451	-37.8880940785462	113.763076670577	-6.03975663168938	-78.9488629220708	
2260000000	-3.83501836665102	-80.920827586407	-38.0998910933805	102.835616893396	-38.1705361783967	103.850314393259	-6.00651388016054	-80.6212722939554	
2263333333.33333	-3.86299769492495	-82.226864720793	-39.29893542079	104.522653275752	-39.476500029581	105.160334948064	-5.95742944552958	-81.6751655755678	
2266666666.66667	-3.91745369900282	-83.5430203444793	-38.478989666443	109.127413470972	-38.5286109595579	108.853676963827	-5.82273735369706	-83.0216342162655	
2270000000	-3.93084835967991	-84.9000248542709	-37.4909528512075	104.790035539604	-37.4505046006096	104.945734037869	-5.71392765026674	-84.7973018774345	
2273333333.33333	-3.98930737378397	-86.5118863228345	-36.908627741557	94.5334215463785	-36.8831419823518	94.8604459655378	-5.60273662652771	-86.8501775172699	
2276666666.66667	-4.03418785404626	-87.8389762864174	-37.0992535300936	88.188455570004	-37.0160235873567	88.2893826737671	-5.57670946200617	-88.8417386492513	
2280000000	-4.01077638508505	-88.9490270891085	-36.9647161866184	77.2535977631955	-37.0482275083336	77.1240019571025	-5.53919417903629	-90.6534304421392	
2283333333.33333	-3.95079395528543	-90.2851925456616	-38.3004681079251	65.7589214789827	-38.265854628753	66.5826275161187	-5.51573984449724	-92.132317528354	
2286666666.66667	-3.88194382732711	-91.6160487489003	-40.6122617463158	63.2132436545869	-40.5864200943709	64.0846097154978	-5.41709228583448	-93.6428585123898	
2290000000	-3.82666533077146	-92.871998301789	-41.3897845638058	77.8671595363805	-41.3004976469585	78.2984172776181	-5.36787165035962	-95.3124949388541	
2293333333.33334	-3.78320285316738	-93.9097037438949	-40.5734680360834	77.3027245886509	-40.6087112636889	77.604297242853	-5.31821485279762	-96.6454605395918	
2296666666.66667	-3.74352013737264	-94.5615480248513	-40.7154716987994	85.7928823208541	-40.7625014163812	86.3593816148484	-5.22253693413735	-97.5780000354113	
2300000000	-3.67340291384326	-95.0610325696768	-37.9716876856759	87.4174119798905	-37.9374283117575	88.3679115253661	-5.07443035849073	-98.9696616153425	
2303333333.33334	-3.60170987073396	-95.6957259075068	-36.4518613079376	71.5654900482133	-36.4256774461296	71.5690520398749	-4.98912892355152	-100.209096749731	
2306666666.66667	-3.5947119068078	-96.4437196061178	-36.8947896608183	59.3401478836111	-36.8818639738346	60.1036965401928	-4.90727406620494	-101.480662211577	
2310000000	-3.63286744299395	-96.9019578358658	-37.6233434949945	49.7142179057395	-37.6099307628322	50.7032274999317	-4.86128585049712	-102.282292565285	
2313333333.33334	-3.65678352948836	-97.2117767216132	-38.3793592192382	49.3917124847182	-38.2902867832601	49.6567111713183	-4.74859522018202	-103.008365437845	
2316666666.66667	-3.6528709884261	-97.6813512470459	-38.5724518140826	46.1021972049161	-38.5337353112882	46.0068728024138	-4.64977804388164	-103.90454061422	
2320000000	-3.68357745858714	-98.4677090515296	-38.8746000464079	44.6411108419138	-38.8774718929762	44.881027245649	-4.58948264800423	-104.828145813159	
2323333333.33334	-3.72169495819907	-99.3803057301651	-38.133464496295	42.7118831573153	-38.2144100101199	42.5906262748103	-4.55965212404932	-105.537069238418	
2326666666.66667	-3.79224352417113	-100.475739496622	-38.5291495659343	31.4548652984401	-38.4561860573726	32.3230353929576	-4.54658331268543	-106.045928506607	
2330000000	-3.85595400259588	-101.580711644915	-39.6453613755658	33.32673162954	-39.526545241498	33.6635142885281	-4.50347169404954	-106.315143841826	
2333333333.33334	-3.89784950404108	-102.83030036593	-38.6157253713408	33.8843331504948	-38.7695726667486	33.3732661059307	-4.4079327163829	-106.802749817801	
2336666666.66667	-3.95299330626671	-104.208953623819	-38.0362769270308	22.5183302358578	-38.0028041719014	22.0720722958093	-4.35041831914253	-107.781686838209	
2340000000	-4.00938369681357	-105.441719992616	-38.9696126415654	6.26724755277075	-38.9142928389493	6.8454008129103	-4.36594473535708	-108.872179114344	
2343333333.33334	-4.04375959270863	-106.425571346641	-43.1093690414023	5.2887902965661	-42.8659082478273	4.90629601615945	-4.43199422404394	-109.610508965976	
2346666666.66667	-4.02685894461216	-107.223243459873	-43.2158645422526	26.3387998657681	-43.2136781166742	26.9232848189165	-4.4640686958983	-110.000140520073	
2350000000	-3.98223266336103	-108.052097962208	-41.4087020027001	33.0420066806107	-41.4590167290068	32.918250877344	-4.45599279206899	-110.767772187546	
2353333333.33334	-3.93570311687046	-108.65111464604	-40.5358042734937	32.0714127579779	-40.5046980507755	32.7289619802957	-4.49599770059704	-111.724825699477	
2356666666.66667	-3.88473946798274	-109.122677221946	-38.9457967764969	34.0470413638342	-38.8666422836114	34.3303850387971	-4.55285956595278	-112.672138810533	
2360000000.00001	-3.82260806100642	-109.506151316513	-36.9321450462643	23.5424678615037	-36.9684977023265	23.9146308598473	-4.62536742024291	-113.455887587757	
