!Agilent N9923A: A.07.32
!Date: Thursday, 02 June 2016 22:55:05
!Model: N9923A
!Serial: MY52412257
!GPS Latitude: 
!GPS Longitude: 
!GPS TimeStamp: 0001-01-01 00:00:00Z
!GPS Seconds Since Last Read: 0
!CHECKSUM:0653339190
!Correction: S11(ON U)
!S1P File: Measurement: S11:
# Hz S DB R 50
1950000000	-4.87197166335663	20.222687267544
1953333333.33333	-4.93976610157805	9.102962051015
1956666666.66667	-4.99536737688648	-2.02560196897363
1960000000	-5.01414627689243	-12.9024039712993
1963333333.33333	-4.97135554488194	-23.4334981968384
1966666666.66667	-4.88659718808146	-33.6013854792907
1970000000	-4.73760351485552	-43.2722778520161
1973333333.33333	-4.54604398935441	-52.3066202897043
1976666666.66667	-4.32862437391138	-60.9959345102843
1980000000	-4.1578588836968	-68.9444859131845
1983333333.33333	-3.95185622794141	-75.9199278844892
1986666666.66667	-3.71560902562219	-82.6802296704979
1990000000	-3.53668061402328	-89.1747141300789
1993333333.33333	-3.39704731393167	-95.3273219871786
1996666666.66667	-3.31016376499167	-101.075507132183
2000000000	-3.24053125595881	-106.528598036378
2003333333.33333	-3.20083148318612	-111.731151820028
2006666666.66667	-3.14353489972886	-116.841299778324
2010000000	-3.1301550174715	-122.211763600126
2013333333.33333	-3.16903513484705	-127.093328671942
2016666666.66667	-3.14168541569004	-131.85770067586
2020000000	-3.11050434207591	-136.952142827398
2023333333.33333	-3.12734679519305	-141.987416554933
2026666666.66666	-3.15496814908266	-146.791290426553
2030000000	-3.18312639462225	-151.544235242521
2033333333.33333	-3.23823004295512	-156.235182001137
2036666666.66666	-3.29652030317854	-160.675395662487
2040000000	-3.32418287617338	-165.259549730732
2043333333.33333	-3.41040201474046	-170.129865525236
2046666666.66666	-3.52239911583966	-174.994442960075
2050000000	-3.69276199580055	179.827213075226
2053333333.33333	-3.89759980583606	174.762119800211
2056666666.66666	-4.14988000478477	169.405324870879
2060000000	-4.42656456957208	164.032508181012
2063333333.33333	-4.6705310881085	158.615961798373
2066666666.66666	-4.93562571360171	152.626629414489
2070000000	-5.18696272666775	146.861277585404
2073333333.33333	-5.3490420496985	140.730217544554
2076666666.66666	-5.54774570107232	133.833607643554
2080000000	-5.83946718830554	127.216018656475
2083333333.33333	-6.03198508622224	120.688855883664
2086666666.66666	-6.23801501313848	113.604127340693
2090000000	-6.50234750397792	106.42070385286
2093333333.33333	-6.77113467764079	99.5396021808606
2096666666.66666	-7.03731899268037	92.1433220344529
2100000000	-7.32740277533477	84.9996333717931
2103333333.33333	-7.55898061261869	78.1286330244617
2106666666.66666	-7.6636041408884	70.478313621695
2110000000	-7.81353562455466	62.6328775636757
2113333333.33333	-7.8987858490274	55.1576036997308
2116666666.66666	-7.85546453871721	47.9752275382932
2120000000	-7.73996839599088	40.3867278936634
2123333333.33333	-7.6870811477515	33.1656327552911
2126666666.66666	-7.5812856071475	27.0469881297215
2130000000	-7.33024293519749	21.0882902468883
2133333333.33333	-7.16207359200092	14.839365880797
2136666666.66666	-7.03378582986525	9.25757741166264
2140000000	-6.9570046667949	4.23569646858852
2143333333.33333	-6.85370011212963	-0.239636606585817
2146666666.66666	-6.78036485331345	-3.93921614573206
2150000000	-6.55905368759914	-7.84352565177618
2153333333.33333	-6.36475832561275	-12.3476781544217
2156666666.66666	-6.23198667427163	-16.5733434258221
2160000000	-6.06856427878808	-20.6120531299404
2163333333.33333	-5.93136058089613	-24.8231148441916
2166666666.66666	-5.83170387355873	-28.4274785234215
2170000000	-5.67930460465625	-31.7389654668925
2173333333.33333	-5.5196091082884	-35.0722934962495
2176666666.66666	-5.43709846632411	-37.9321746174179
2180000000	-5.31176335775922	-40.285694238523
2183333333.33333	-5.13209545207409	-42.5078456038063
2186666666.66666	-4.97868868012573	-45.0330917869708
2190000000	-4.8433693003394	-47.4418882585067
2193333333.33333	-4.77315106760815	-50.0099842929519
2196666666.66666	-4.74430908869702	-51.8201966364379
2200000000	-4.67350266499782	-53.8112222519299
2203333333.33333	-4.63021009176966	-55.8624269995939
2206666666.66666	-4.60958690639766	-57.6476478923348
2210000000	-4.57499211471857	-59.6604893421188
2213333333.33333	-4.56030528496145	-61.4414404973723
2216666666.66667	-4.48656851099785	-63.1700127249246
2220000000	-4.40059775189467	-65.1970171273555
2223333333.33333	-4.36879247319207	-67.2081969746201
2226666666.66667	-4.31388475723036	-68.6994318746714
2230000000	-4.20106835419507	-70.2989039597446
2233333333.33333	-4.12819547203762	-71.9984780228282
2236666666.66667	-4.08477928142584	-73.5154804039867
2240000000	-4.04357406879555	-74.6627793042695
2243333333.33333	-4.01795429616605	-75.9042128729505
2246666666.66667	-4.00041431509827	-76.9016533970495
2250000000	-3.94125584516491	-77.7446142067177
2253333333.33333	-3.88858421079257	-79.009457332029
2256666666.66667	-3.88754987081522	-80.1162933455024
2260000000	-3.8539042149027	-81.127478945574
2263333333.33333	-3.82101362373023	-82.4838059759406
2266666666.66667	-3.84828222119376	-83.9366932425864
2270000000	-3.86263848211357	-85.1271868681203
2273333333.33333	-3.84973177966136	-86.4768470977725
2276666666.66667	-3.87784262006703	-88.0657665676582
2280000000	-3.93702359973817	-89.1202828984846
2283333333.33333	-3.90693491057543	-89.9829726824956
2286666666.66667	-3.85778543880449	-91.0130508507637
2290000000	-3.81305659113015	-92.0645763666359
2293333333.33334	-3.75788612822212	-93.0221401492121
2296666666.66667	-3.71826529366097	-94.0517464047519
2300000000	-3.7105286499572	-94.9191980805448
2303333333.33334	-3.69141145038829	-95.5889939171398
2306666666.66667	-3.65544940021456	-96.3871892731013
2310000000	-3.69755957971171	-97.4813624123826
2313333333.33334	-3.76935088663225	-97.9747128800225
2316666666.66667	-3.78077354780891	-98.4342042006132
2320000000	-3.8055884924376	-99.0343802860662
2323333333.33334	-3.80455360318339	-99.6769666170363
2326666666.66667	-3.81005800982498	-100.647635793933
2330000000	-3.83309917893129	-101.744777705176
2333333333.33334	-3.8817066111069	-102.725709880887
2336666666.66667	-3.90376799409475	-103.552079785972
2340000000	-3.89802068906279	-104.507709364776
2343333333.33334	-3.90830917569025	-105.528056454173
2346666666.66667	-3.88683011212688	-106.442759294903
2350000000	-3.87939589473108	-107.404040894296
2353333333.33334	-3.88340272066298	-108.116759036693
2356666666.66667	-3.86504251333658	-108.807190026022
2360000000.00001	-3.87325150055487	-109.423200993616
2363333333.33334	-3.88580291218751	-109.931875686475
2366666666.66667	-3.89638938738046	-110.401958109165
2370000000.00001	-3.94190719447545	-110.997314878486
2373333333.33334	-4.00680598081348	-111.258635860178
2376666666.66667	-4.03320079063542	-111.473294373631
2380000000.00001	-4.04608225974511	-111.858581312692
2383333333.33334	-4.05263167715526	-112.607619435664
2386666666.66667	-4.10616589803493	-113.573994897664
2390000000.00001	-4.19607541400277	-114.28788307253
2393333333.33334	-4.21751788129212	-114.8207271416
2396666666.66667	-4.21896449468696	-115.95619247583
2400000000.00001	-4.28025032825397	-117.087914935431
2403333333.33334	-4.35616903385991	-117.934007635126
2406666666.66667	-4.38528479759161	-118.507332744686
2410000000.00001	-4.39439457481681	-119.155309884637
2413333333.33334	-4.41115982139972	-119.690006151888
2416666666.66667	-4.40335055606164	-120.12824553784
2420000000.00001	-4.41442161341816	-120.509008114617
2423333333.33334	-4.38966387555071	-120.670609387933
2426666666.66668	-4.34411944123764	-121.287879883332
2430000000.00001	-4.39466835576659	-122.11189124612
2433333333.33334	-4.51532319718626	-122.730658817697
2436666666.66668	-4.64785063000341	-122.775112944879
2440000000.00001	-4.7309984816227	-122.727071804629
2443333333.33334	-4.75944488449966	-122.93622939541
2446666666.66668	-4.79995520377302	-123.578587586154
2450000000.00001	-4.91066191869166	-124.251434021864
2453333333.33334	-4.99546803075598	-124.736289589292
2456666666.66668	-5.057111320617	-125.347487065481
2460000000.00001	-5.09732004932583	-126.06664874701
2463333333.33334	-5.12659197620992	-126.891589510514
2466666666.66668	-5.17386244876615	-127.82191257433
2470000000.00001	-5.2520803215981	-128.367246711282
2473333333.33334	-5.25277676065825	-128.720381969042
2476666666.66668	-5.27669320235318	-129.367033807025
2480000000.00001	-5.31264969691694	-129.532766382781
2483333333.33334	-5.32436580415307	-129.714692371061
2486666666.66668	-5.34620174162504	-129.917981116548
2490000000.00001	-5.38235933336582	-130.098128024117
2493333333.33334	-5.43476262153405	-130.24184721039
2496666666.66668	-5.50445259066743	-130.466674892132
2500000000.00001	-5.60523361273051	-130.780709774293
2503333333.33335	-5.7627780658641	-130.678145978349
2506666666.66668	-5.81242918069132	-130.476500508471
2510000000.00001	-5.84217988544232	-130.877102041957
2513333333.33335	-5.93766801751041	-131.924819812904
2516666666.66668	-6.11445544672095	-132.227989074466
2520000000.00001	-6.17656094727019	-132.591882085814
2523333333.33335	-6.23463548235448	-133.279679396155
2526666666.66668	-6.33164940063394	-133.813908866215
2530000000.00001	-6.36714772876102	-134.271814467232
2533333333.33335	-6.42164248105399	-134.873551627601
2536666666.66668	-6.50055646571511	-134.996366606631
2540000000.00001	-6.52793332140632	-134.819937589519
2543333333.33335	-6.50756006010352	-134.757388516023
2546666666.66668	-6.50815641044536	-134.774479768393
2550000000.00001	-6.51064221817526	-134.777204852422
2553333333.33335	-6.56223101543642	-134.846946619408
2556666666.66668	-6.61277539241135	-134.775050153539
2560000000.00001	-6.71069302493996	-134.607874879211
2563333333.33335	-6.76016370210173	-134.443395897732
2566666666.66668	-6.85293810912075	-134.866827804966
2570000000.00002	-7.0556079132171	-134.793062346362
2573333333.33335	-7.14000696828482	-134.544512556414
2576666666.66668	-7.27407489410971	-134.555445590813
2580000000.00002	-7.2865435156231	-134.458799441832
2583333333.33335	-7.28881267289285	-135.219991659175
2586666666.66668	-7.38928986963692	-136.219197192274
2590000000.00002	-7.52069824125663	-136.710290104735
2593333333.33335	-7.59839976931145	-136.698406508399
2596666666.66668	-7.60852823860668	-136.890911807139
2600000000.00002	-7.65281702905692	-137.058150650633
2603333333.33335	-7.69903799947041	-136.872045644002
2606666666.66668	-7.68778548640741	-136.711316292475
2610000000.00002	-7.73128430541986	-136.379451739622
2613333333.33335	-7.70755761393066	-135.786248350095
2616666666.66668	-7.69113798411112	-135.620302260791
2620000000.00002	-7.72675950864914	-135.565693626556
2623333333.33335	-7.82462838496543	-135.313511997454
2626666666.66668	-7.89368909195165	-134.742930487329
2630000000.00002	-7.91737728441613	-134.622982380999
2633333333.33335	-8.02076672589297	-135.055223828829
2636666666.66669	-8.20255618473239	-134.925100422971
2640000000.00002	-8.27895683110218	-134.732182720972
2643333333.33335	-8.38151873578606	-134.829863192935
2646666666.66669	-8.43525183321496	-134.894609788629
2650000000.00002	-8.49118825103311	-135.063079056985
2653333333.33335	-8.51496993734895	-135.484178832123
2656666666.66669	-8.60567541041311	-135.571609907007
2660000000.00002	-8.61067777602021	-135.081223088277
2663333333.33335	-8.50728504297212	-134.919256803721
2666666666.66669	-8.4747428925936	-135.358592536926
2670000000.00002	-8.49465637956235	-135.264348689867
2673333333.33335	-8.52349229794805	-134.978438488627
2676666666.66669	-8.49437763547082	-134.314942883913
2680000000.00002	-8.44890139858725	-134.263597938309
2683333333.33335	-8.51764174748944	-134.317860347903
2686666666.66669	-8.61773492741049	-134.023759422949
2690000000.00002	-8.73804912295836	-133.389598607555
2693333333.33335	-8.79276510935389	-132.886468787288
2696666666.66669	-8.88531357143399	-132.574331686701
2700000000.00002	-8.94397048657151	-132.397413891775
2703333333.33335	-9.01978761032816	-132.435265200253
2706666666.66669	-9.09414798134389	-132.437782360202
2710000000.00002	-9.12464268583834	-132.499059437964
2713333333.33336	-9.12350815541956	-132.838355374284
2716666666.66669	-9.18266582199362	-133.518955517087
2720000000.00002	-9.28254546547364	-133.421986919583
2723333333.33336	-9.23337211786902	-133.216126104651
2726666666.66669	-9.24443709270576	-133.398553111973
2730000000.00002	-9.23986972221837	-132.73969715962
2733333333.33336	-9.13727320521192	-132.619274053723
2736666666.66669	-9.15228058187711	-132.543826540155
2740000000.00002	-9.16648115723366	-131.854731448741
2743333333.33336	-9.10624598052873	-131.425292942717
2746666666.66669	-9.14685264900074	-131.361326745003
2750000000.00002	-9.21536932150293	-130.961195270499
2753333333.33336	-9.29799744257824	-130.589305014744
2756666666.66669	-9.42067922337162	-130.12763511582
2760000000.00002	-9.51953270329574	-129.610999911339
2763333333.33336	-9.63461357531335	-129.309166527154
2766666666.66669	-9.69503854996881	-128.724987895734
2770000000.00002	-9.79134692232572	-128.56944725617
2773333333.33336	-9.8720326512165	-128.061429848597
2776666666.66669	-9.91877541195707	-127.757518472301
2780000000.00003	-10.000388887667	-126.834628269493
2783333333.33336	-9.90743115728873	-125.340718899564
2786666666.66669	-9.71525768709503	-124.318995057028
2790000000.00003	-9.52389127705249	-123.780625268608
2793333333.33336	-9.36945965724552	-121.862810966252
2796666666.66669	-8.74189655562393	-119.966785429851
2800000000.00003	-7.92089579151059	-121.921816284997
2803333333.33336	-7.63880457538415	-126.757484792228
2806666666.66669	-7.85736701650126	-130.501426635024
2810000000.00003	-8.29253870589963	-132.002384146616
2813333333.33336	-8.58612016629475	-131.449143872491
2816666666.66669	-8.71625098509092	-131.243456875586
2820000000.00003	-8.85930499279366	-131.47281548718
2823333333.33336	-9.06814592237757	-131.675305273985
2826666666.66669	-9.25025563424121	-131.559194908408
2830000000.00003	-9.40158285253223	-131.408814174775
2833333333.33336	-9.49362459380708	-131.755741833334
2836666666.66669	-9.67578364014883	-132.126798747717
2840000000.00003	-9.84876860350705	-131.995789329841
2843333333.33336	-9.9571187000563	-131.30059716791
2846666666.6667	-9.92954597371589	-130.613064862003
2850000000.00003	-9.81227265017757	-130.301161194381
2853333333.33336	-9.78540270647785	-130.890841801693
2856666666.6667	-9.79063027193987	-130.80265074574
2860000000.00003	-9.86735981772299	-130.756973906458
2863333333.33336	-9.92940442458286	-129.658641240413
2866666666.6667	-9.87850598392924	-128.842877575928
2870000000.00003	-9.88087531849119	-128.458555060048
2873333333.33336	-9.94218569601255	-128.068716405422
2876666666.6667	-10.1094627285822	-127.223402336099
2880000000.00003	-10.1156216216566	-125.714304788124
2883333333.33336	-10.060670209209	-125.896779322209
2886666666.6667	-10.258324390748	-126.438621206107
2890000000.00003	-10.5464200931806	-125.885351840956
2893333333.33336	-10.7005996123077	-124.411152454062
2896666666.6667	-10.6625081324964	-123.308818110576
2900000000.00003	-10.6327449855757	-123.854231105981
2903333333.33336	-10.8057650620606	-124.054022135023
2906666666.6667	-10.8725032404435	-123.216033585146
2910000000.00003	-10.9347979871839	-122.294368362742
2913333333.33336	-10.8284127361617	-121.016531679229
2916666666.6667	-10.6596072114627	-120.251745152425
2920000000.00003	-10.4247440427863	-120.297981846116
2923333333.33337	-10.3818693301083	-121.104144737919
2926666666.6667	-10.5528699799409	-120.973147212479
2930000000.00003	-10.7075658466097	-119.550242911887
2933333333.33337	-10.8117821651825	-117.19083647314
2936666666.6667	-10.7193416866756	-114.980609959943
2940000000.00003	-10.6659755329528	-113.438507850351
2943333333.33337	-10.6193065910939	-111.364886293858
2946666666.6667	-10.4816313187037	-109.956791225605
2950000000.00003	-10.3841420606802	-108.616695791193
